
SetupTitle, FE PUND 1V - reverse
ApplicationTest, WGFMU Pattern Editor, Public
TestParameter, Name, ExecutionMode, Enable1, Channel1, OperationMode1, VForceRange1, InitMeasRange1, Enable2, Channel2, OperationMode2, VForceRange2, InitMeasRange2, RepeatCount, WaveformCh1, WaveformCh2, MeasurementEvent, Output_to_File_for_PatternValidation, Output_Enable, Output_Filename, DataDisplay_for_RunVector, DataDisplay_PatternValidation, DataDisplay_Mode, LogToFile, LogFile, WarningLevel, IForceRange1, IForceRange2, Result_Update_Interval_s
TestParameter, Value, Run Vector, Enable, WGFMU1:RS	RSWGFMU, Fast IV Imeas, Auto, 1mA (Imeas), Enable, WGFMU2:RS	RSWGFMU, PG Vmeas, Auto, 5V (Vmeas), 1, , Disable, C:\WGFMUPatternEditor_Pattern.csv, , Disable, x(time)_y(meas), Disable, C:\WGFMUPatternEditor_Log.log, 2, 10mA, 10mA, 10
MetaData, TestRecord.EntryPoint, true
MetaData, TestRecord.RecordTime, 09/27/2021 11:58:03
MetaData, TestRecord.TestTarget, FlashNumB_1_10um_H3
MetaData, TestRecord.IterationIndex, 2
MetaData, TestRecord.Preservation, true
MetaData, TestRecord.Flag, 
MetaData, TestRecord.Remarks, 
MetaData, TestRecord.LinkKey, c16fff60-258e-489c-a904-30b883ccb2b8
MetaData, TestRecord.Parameters, 
Dimension1, 5000, 5000, 5000, 5000, 5000
Dimension2, 1, 1, 1, 1, 1
DataName, Time, MeasResult1_value, MeasResult2_value, MeasResult1_time, MeasResult2_time
DataValue, 5.0000000000000008E-07, 2.681497108E-06, 0.000485364114866, 5.0000000000000008E-07, 5.0000000000000008E-07
DataValue, 1.5E-06, 1.296950131E-06, 0.00036560380249300005, 1.5E-06, 1.5E-06
DataValue, 2.5E-06, 2.3141110430000004E-06, 0.000407872139476, 2.5E-06, 2.5E-06
DataValue, 3.5000000000000004E-06, 1.8392486250000002E-06, 0.00023175403475800003, 3.5000000000000004E-06, 3.5000000000000004E-06
DataValue, 4.5E-06, 2.079489605E-06, 0.00012256079935500002, 4.5E-06, 4.5E-06
DataValue, 5.5000000000000007E-06, 1.95585676E-06, -1.1288958376E-05, 5.5000000000000007E-06, 5.5000000000000007E-06
DataValue, 6.5000000000000004E-06, 1.627808388E-06, 6.2680650444E-05, 6.5000000000000004E-06, 6.5000000000000004E-06
DataValue, 7.5E-06, 2.267748641E-06, -4.2442343330000007E-06, 7.5E-06, 7.5E-06
DataValue, 8.5E-06, 1.9256510770000003E-06, 5.2113558922000005E-05, 8.5E-06, 8.5E-06
DataValue, 9.5E-06, 3.0713620160000002E-06, 5.9158286604000005E-05, 9.5E-06, 9.5E-06
DataValue, 1.0500000000000001E-05, 1.7373920400000002E-06, 6.6203007009E-05, 1.0500000000000001E-05, 1.0500000000000001E-05
DataValue, 1.15E-05, 1.8223895490000002E-06, -0.000289555580821, 1.15E-05, 1.15E-05
DataValue, 1.25E-05, 2.967397904E-06, 1.6889938706000003E-05, 1.25E-05, 1.25E-05
DataValue, 1.3500000000000001E-05, 2.222791409E-06, -2.5378407372E-05, 1.3500000000000001E-05, 1.3500000000000001E-05
DataValue, 1.45E-05, 1.7802420870000002E-06, -0.000148661085404, 1.45E-05, 1.45E-05
DataValue, 1.55E-05, 1.593387879E-06, -0.00015218344924500002, 1.55E-05, 1.55E-05
DataValue, 1.65E-05, 3.3123053530000003E-06, 0.000171873878571, 1.65E-05, 1.65E-05
DataValue, 1.7500000000000002E-05, 2.331672476E-06, 0.000495931191836, 1.7500000000000002E-05, 1.7500000000000002E-05
DataValue, 1.8500000000000002E-05, 2.2761782930000003E-06, 0.000369126151782, 1.8500000000000002E-05, 1.8500000000000002E-05
DataValue, 1.95E-05, 3.0418586900000003E-06, 0.000369126151782, 1.95E-05, 1.95E-05
DataValue, 2.05E-05, 2.055606046E-06, 0.0006438703858290001, 2.05E-05, 2.05E-05
DataValue, 2.15E-05, 2.373117468E-06, 0.00033038016408700003, 2.15E-05, 2.15E-05
DataValue, 2.25E-05, 2.145520739E-06, 0.00043252867180900003, 2.25E-05, 2.25E-05
DataValue, 2.3500000000000002E-05, 2.3204331680000003E-06, 0.000464229931822, 2.3500000000000002E-05, 2.3500000000000002E-05
DataValue, 2.4500000000000003E-05, 1.9382953270000002E-06, 0.000559333711863, 2.4500000000000003E-05, 2.4500000000000003E-05
DataValue, 2.5500000000000003E-05, 1.800613404E-06, 0.000686138751917, 2.5500000000000003E-05, 2.5500000000000003E-05
DataValue, 2.65E-05, 2.566996272E-06, 0.00054876663489300005, 2.65E-05, 2.65E-05
DataValue, 2.75E-05, 1.504175657E-06, 0.00077419780427600009, 2.75E-05, 2.75E-05
DataValue, 2.85E-05, 2.595094656E-06, 0.00056637841044, 2.85E-05, 2.85E-05
DataValue, 2.9500000000000002E-05, 1.8954453940000002E-06, 0.000291634176392, 2.9500000000000002E-05, 2.9500000000000002E-05
DataValue, 3.0500000000000003E-05, 2.2361380160000003E-06, 0.00042196159483900004, 3.0500000000000003E-05, 3.0500000000000003E-05
DataValue, 3.15E-05, 2.132174131E-06, 0.00055581133347, 3.15E-05, 3.15E-05
DataValue, 3.2500000000000004E-05, 1.9944920950000004E-06, 0.00057694554561700008, 3.2500000000000004E-05, 3.2500000000000004E-05
DataValue, 3.35E-05, 2.937192221E-06, 0.000161306787049, 3.35E-05, 3.35E-05
DataValue, 3.4500000000000005E-05, 8.6774764400000011E-07, 0.00029867890407300003, 3.4500000000000005E-05, 3.4500000000000005E-05
DataValue, 3.55E-05, 2.250889565E-06, 3.8024110836000006E-05, 3.55E-05, 3.55E-05
DataValue, 3.65E-05, 1.388269879E-06, 0.000379693257855, 3.65E-05, 3.65E-05
DataValue, 3.7500000000000003E-05, 2.157462632E-06, 0.000147217346239, 3.7500000000000003E-05, 3.7500000000000003E-05
DataValue, 3.85E-05, 2.2389479E-06, 0.000238798762439, 3.85E-05, 3.85E-05
DataValue, 3.9500000000000005E-05, 1.714210839E-06, -0.000148661085404, 3.9500000000000005E-05, 3.9500000000000005E-05
DataValue, 4.05E-05, 2.4749740530000002E-06, 0.000200052774744, 4.05E-05, 4.05E-05
DataValue, 4.1500000000000006E-05, 2.046474037E-06, 0.000217664579395, 4.1500000000000006E-05, 4.1500000000000006E-05
DataValue, 4.25E-05, 1.871561722E-06, 1.6889938706000003E-05, 4.25E-05, 4.25E-05
DataValue, 4.35E-05, 2.4974528970000004E-06, 0.000200052774744, 4.35E-05, 4.35E-05
DataValue, 4.4500000000000004E-05, 2.5480298970000003E-06, 0.00026345529477100004, 4.4500000000000004E-05, 4.4500000000000004E-05
DataValue, 4.55E-05, 1.362278908E-06, 0.000161306787049, 4.55E-05, 4.55E-05
DataValue, 4.6500000000000005E-05, 2.6751749830000002E-06, 0.00047831938718400003, 4.6500000000000005E-05, 4.6500000000000005E-05
DataValue, 4.75E-05, 3.1444176330000002E-06, 0.000552289013285, 4.75E-05, 4.75E-05
DataValue, 4.85E-05, 1.330668169E-06, 0.000386737956433, 4.85E-05, 4.85E-05
DataValue, 4.9500000000000004E-05, 2.9849593370000004E-06, 0.00052763248095300007, 4.9500000000000004E-05, 4.9500000000000004E-05
DataValue, 5.05E-05, 2.6660429740000002E-06, 0.000686138751917, 5.05E-05, 5.05E-05
DataValue, 5.1500000000000005E-05, 2.681497108E-06, 0.00046070758253300006, 5.1500000000000005E-05, 5.1500000000000005E-05
DataValue, 5.25E-05, 1.860322413E-06, 0.00078476488124600008, 5.25E-05, 5.25E-05
DataValue, 5.3500000000000006E-05, 2.4827011200000002E-06, 0.000707272905856, 5.3500000000000006E-05, 5.3500000000000006E-05
DataValue, 5.45E-05, 2.529063522E-06, 0.00059455732116500009, 5.45E-05, 5.45E-05
DataValue, 5.55E-05, 1.6755756180000002E-06, 0.00046775231021500005, 5.55E-05, 5.55E-05
DataValue, 5.6500000000000005E-05, 2.125852006E-06, 0.00064034806564500007, 5.6500000000000005E-05, 5.6500000000000005E-05
DataValue, 5.75E-05, 1.8540002880000002E-06, 0.000809421413578, 5.75E-05, 5.75E-05
DataValue, 5.8500000000000006E-05, 2.171511824E-06, 0.000738974194974, 5.8500000000000006E-05, 5.8500000000000006E-05
DataValue, 5.95E-05, 1.653799359E-06, 0.000506498268805, 5.95E-05, 5.95E-05
DataValue, 6.0500000000000007E-05, 2.29654961E-06, 0.00053115480113800006, 6.0500000000000007E-05, 6.0500000000000007E-05
DataValue, 6.15E-05, 2.2895249000000004E-06, 0.000629780930467, 6.15E-05, 6.15E-05
DataValue, 6.25E-05, 1.928460961E-06, 0.00051002064719800008, 6.25E-05, 6.25E-05
DataValue, 6.35E-05, 2.142008498E-06, 0.000608646776527, 6.35E-05, 6.35E-05
DataValue, 6.4500000000000009E-05, 2.064035471E-06, 0.0007636307273060001, 6.4500000000000009E-05, 6.4500000000000009E-05
DataValue, 6.55E-05, 1.8912305680000001E-06, 0.000626258610282, 6.55E-05, 6.55E-05
DataValue, 6.65E-05, 1.9980043360000002E-06, 0.00052411010256, 6.65E-05, 6.65E-05
DataValue, 6.75E-05, 1.963583827E-06, 0.00042900632252, 6.75E-05, 6.75E-05
DataValue, 6.85E-05, 1.636237926E-06, 0.00051354302559, 6.85E-05, 6.85E-05
DataValue, 6.9500000000000009E-05, 1.8308190870000002E-06, 0.00058046786580200006, 6.9500000000000009E-05, 6.9500000000000009E-05
DataValue, 7.05E-05, 2.0907289130000003E-06, 0.00052411010256, 7.05E-05, 7.05E-05
DataValue, 7.15E-05, 1.679087973E-06, 0.00042548394412700004, 7.15E-05, 7.15E-05
DataValue, 7.25E-05, 2.01345847E-06, 0.000453662854852, 7.25E-05, 7.25E-05
DataValue, 7.3500000000000011E-05, 2.716619974E-06, 0.00052763248095300007, 7.3500000000000011E-05, 7.3500000000000011E-05
DataValue, 7.4500000000000008E-05, 1.8919330390000002E-06, 0.000731929438189, 7.4500000000000008E-05, 7.4500000000000008E-05
DataValue, 7.55E-05, 2.430719178E-06, 0.00051354302559, 7.55E-05, 7.55E-05
DataValue, 7.65E-05, 2.486213361E-06, 0.00045014047646000006, 7.65E-05, 7.65E-05
DataValue, 7.75E-05, 1.556157599E-06, 0.000326857814798, 7.75E-05, 7.75E-05
DataValue, 7.8500000000000011E-05, 2.331672476E-06, 0.00015778442320900002, 7.8500000000000011E-05, 7.8500000000000011E-05
DataValue, 7.9500000000000008E-05, 3.221688075E-06, 0.00053467717953, 7.9500000000000008E-05, 7.9500000000000008E-05
DataValue, 8.05E-05, 2.618978215E-06, 0.00033390254247900005, 8.05E-05, 8.05E-05
DataValue, 8.15E-05, 1.2470756020000001E-06, 0.00048184173647300004, 8.15E-05, 8.15E-05
DataValue, 8.25E-05, 2.7664946170000004E-06, 0.000506498268805, 8.25E-05, 8.25E-05
DataValue, 8.350000000000001E-05, 3.2842069690000004E-06, 0.00055581133347, 8.350000000000001E-05, 8.350000000000001E-05
DataValue, 8.4500000000000008E-05, 2.1827511320000003E-06, 0.00060512439813500008, 8.4500000000000008E-05, 8.4500000000000008E-05
DataValue, 8.55E-05, 2.209444574E-06, 0.000675571674947, 8.55E-05, 8.55E-05
DataValue, 8.65E-05, 2.66323309E-06, 0.000552289013285, 8.65E-05, 8.65E-05
DataValue, 8.75E-05, 1.859619942E-06, 0.000654437521007, 8.75E-05, 8.75E-05
DataValue, 8.850000000000001E-05, 2.2452700250000003E-06, 0.0005452442565, 8.850000000000001E-05, 8.850000000000001E-05
DataValue, 8.9500000000000007E-05, 2.739801175E-06, 0.00053819955792300006, 8.9500000000000007E-05, 8.9500000000000007E-05
DataValue, 9.05E-05, 1.225299343E-06, 0.00047479700879200006, 9.05E-05, 9.05E-05
DataValue, 9.15E-05, 1.8778838470000002E-06, 0.00043605105020100006, 9.15E-05, 9.15E-05
DataValue, 9.2500000000000012E-05, 2.5234437540000004E-06, 0.000203575138585, 9.2500000000000012E-05, 9.2500000000000012E-05
DataValue, 9.3500000000000009E-05, 1.799910933E-06, 0.000393782684114, 9.3500000000000009E-05, 9.3500000000000009E-05
DataValue, 9.45E-05, 2.316218342E-06, 0.000583990244195, 9.45E-05, 9.45E-05
DataValue, 9.55E-05, 2.6976535990000004E-06, 0.00046070758253300006, 9.55E-05, 9.55E-05
DataValue, 9.65E-05, 1.8441658090000002E-06, 0.00024232111172800002, 9.65E-05, 9.65E-05
DataValue, 9.7500000000000012E-05, 1.889123155E-06, 0.000464229931822, 9.7500000000000012E-05, 9.7500000000000012E-05
DataValue, 9.8500000000000009E-05, 1.791481395E-06, 0.00041139448876500003, 9.8500000000000009E-05, 9.8500000000000009E-05
DataValue, 9.95E-05, 1.995897037E-06, 0.0006016020779500001, 9.95E-05, 9.95E-05
DataValue, 0.0001005, 1.1213353450000002E-06, 0.001499804435298, 0.0001005, 0.0001005
DataValue, 0.0001015, -1.501647034E-06, 0.0038069516886030004, 0.0001015, 0.0001015
DataValue, 0.00010250000000000001, -3.2816783460000003E-06, 0.006142277736217, 0.00010250000000000001, 0.00010250000000000001
DataValue, 0.00010350000000000001, -6.032508281E-06, 0.008512827567756, 0.00010350000000000001, 0.00010350000000000001
DataValue, 0.0001045, -7.856092452E-06, 0.010742482729256, 0.0001045, 0.0001045
DataValue, 0.0001055, -1.0153133189000001E-05, 0.013320852071047001, 0.0001055, 0.0001055
DataValue, 0.0001065, -1.2353938473E-05, 0.015698445960879, 0.0001065, 0.0001065
DataValue, 0.00010750000000000001, -1.4748620742E-05, 0.018199322745204003, 0.00010750000000000001, 0.00010750000000000001
DataValue, 0.00010850000000000001, -1.7330157789E-05, 0.020379666239023, 0.00010850000000000001, 0.00010850000000000001
DataValue, 0.0001095, -1.9908886316E-05, 0.023010870441794003, 0.0001095, 0.0001095
DataValue, 0.0001105, -2.2022584744000003E-05, 0.025226436555386002, 0.0001105, 0.0001105
DataValue, 0.00011150000000000001, -2.4781844331000002E-05, 0.027473703026772003, 0.00011150000000000001, 0.00011150000000000001
DataValue, 0.00011250000000000001, -2.8210548408E-05, 0.030104907229543003, 0.00011250000000000001, 0.00011250000000000001
DataValue, 0.00011350000000000001, -2.9146223824000002E-05, 0.032355695962906, 0.00011350000000000001, 0.00011350000000000001
DataValue, 0.0001145, -3.216328696E-05, 0.034817829728127005, 0.0001145, 0.0001145
DataValue, 0.0001155, -3.5497858335E-05, 0.037396196275949006, 0.0001155, 0.0001155
DataValue, 0.00011650000000000001, -3.6711004213E-05, 0.039583586156368006, 0.00011650000000000001, 0.00011650000000000001
DataValue, 0.00011750000000000001, -3.9876988012E-05, 0.04199992492795, 0.00011750000000000001, 0.00011750000000000001
DataValue, 0.00011850000000000001, -4.27879786E-05, 0.044486712664366004, 0.00011850000000000001, 0.00011850000000000001
DataValue, 0.0001195, -4.6840465075E-05, 0.046836126595736, 0.0001195, 0.0001195
DataValue, 0.0001205, -4.7972127504E-05, 0.048928409814835004, 0.0001205, 0.0001205
DataValue, 0.00012150000000000001, -5.1746439567E-05, 0.051527913659811006, 0.00012150000000000001, 0.00012150000000000001
DataValue, 0.0001225, -5.5277701904E-05, 0.05365189909935, 0.0001225, 0.0001225
DataValue, 0.00012350000000000002, -5.6509816204000007E-05, 0.056082326918840006, 0.00012350000000000002, 0.00012350000000000002
DataValue, 0.00012450000000000002, -6.0345944803E-05, 0.058632519096136, 0.00012450000000000002, 0.00012450000000000002
DataValue, 0.00012550000000000002, -6.2687242462E-05, 0.061006590723991005, 0.00012550000000000002, 0.00012550000000000002
DataValue, 0.0001265, -6.6518456151E-05, 0.063341915607452, 0.0001265, 0.0001265
DataValue, 0.0001275, -6.8735411332000008E-05, 0.065846316516399009, 0.0001275, 0.0001275
DataValue, 0.0001285, -7.2103706771E-05, 0.068248569965363, 0.0001285, 0.0001285
DataValue, 0.0001295, -7.5037874922000009E-05, 0.070245750248432, 0.0001295, 0.0001295
DataValue, 0.0001305, -7.7958706242000009E-05, 0.073021367192268011, 0.0001305, 0.0001305
DataValue, 0.0001315, -8.2780381490000007E-05, 0.075029112398624, 0.0001315, 0.0001315
DataValue, 0.0001325, -8.4711442469E-05, 0.07740318775177, 0.0001325, 0.0001325
DataValue, 0.00013350000000000002, -8.8443608547E-05, 0.079777255654335008, 0.00013350000000000002, 0.00013350000000000002
DataValue, 0.00013450000000000002, -9.1539346613000013E-05, 0.082045659422874, 0.00013450000000000002, 0.00013450000000000002
DataValue, 0.00013550000000000001, -9.487953502700001E-05, 0.084095671772957, 0.00013550000000000001, 0.00013550000000000001
DataValue, 0.0001365, -9.8198659543E-05, 0.086283065378666007, 0.0001365, 0.0001365
DataValue, 0.0001375, -0.000101431374787, 0.088713489472866, 0.0001375, 0.0001375
DataValue, 0.0001385, -0.000104682352685, 0.091203801333904, 0.0001385, 0.0001385
DataValue, 0.0001395, -0.000107707142888, 0.093447543680668, 0.0001395, 0.0001395
DataValue, 0.0001405, -0.000112193753012, 0.096092842519283, 0.0001405, 0.0001405
DataValue, 0.0001415, -0.000115991242637, 0.098111152648926, 0.0001415, 0.0001415
DataValue, 0.00014250000000000002, -0.00011901814286800001, 0.10035841912031202, 0.00014250000000000002, 0.00014250000000000002
DataValue, 0.00014350000000000002, -0.000122832498164, 0.102637387812138, 0.00014350000000000002, 0.00014350000000000002
DataValue, 0.00014450000000000002, -0.000127864215756, 0.10458173602819401, 0.00014450000000000002, 0.00014450000000000002
DataValue, 0.0001455, -0.000129947700771, 0.10668458044529001, 0.0001455, 0.0001455
DataValue, 0.0001465, -0.00013278212281900002, 0.109372146427631, 0.0001465, 0.0001465
DataValue, 0.0001475, -0.00013854650023900002, 0.111707471311092, 0.0001475, 0.0001475
DataValue, 0.0001485, -0.000143005716382, 0.11368351429700802, 0.0001485, 0.0001485
DataValue, 0.0001495, -0.00014498454402200002, 0.11593078821897501, 0.0001495, 0.0001495
DataValue, 0.0001505, -0.00014912834740200002, 0.11833655834198001, 0.0001505, 0.0001505
DataValue, 0.0001515, -0.000155255896971, 0.12061905115842801, 0.0001515, 0.0001515
DataValue, 0.00015250000000000002, -0.000158285605721, 0.123031869530678, 0.00015250000000000002, 0.00015250000000000002
DataValue, 0.00015350000000000002, -0.00016309112834300002, 0.125201642513275, 0.00015350000000000002, 0.00015350000000000002
DataValue, 0.00015450000000000002, -0.00016820714518000002, 0.127212911844254, 0.00015450000000000002, 0.00015450000000000002
DataValue, 0.0001555, -0.00017211561498700002, 0.129643335938454, 0.0001555, 0.0001555
DataValue, 0.0001565, -0.00017607187328400002, 0.132070243358612, 0.0001565, 0.0001565
DataValue, 0.0001575, -0.000181165407412, 0.13433159887790702, 0.0001575, 0.0001575
DataValue, 0.0001585, -0.00018539560551300002, 0.136698633432388, 0.0001585, 0.0001585
DataValue, 0.0001595, -0.00018895989342100001, 0.138790920376778, 0.0001595, 0.0001595
DataValue, 0.0001605, -0.00019522583170300002, 0.140604928135872, 0.0001605, 0.0001605
DataValue, 0.00016150000000000002, -0.00019901207997500002, 0.142961397767067, 0.00016150000000000002, 0.00016150000000000002
DataValue, 0.00016250000000000002, -0.00020357455650800001, 0.14537420868873602, 0.00016250000000000002, 0.00016250000000000002
DataValue, 0.00016350000000000002, -0.000209081132198, 0.14773066341877, 0.00016350000000000002, 0.00016350000000000002
DataValue, 0.00016450000000000001, -0.000214148662053, 0.14999555051326702, 0.00016450000000000001, 0.00016450000000000001
DataValue, 0.0001655, -0.00021834093786300002, 0.152302697300911, 0.0001655, 0.0001655
DataValue, 0.0001665, -0.00022296803945200003, 0.154447808861732, 0.0001665, 0.0001665
DataValue, 0.0001675, -0.00022886518854600002, 0.156779617071152, 0.0001675, 0.0001675
DataValue, 0.0001685, -0.00023305605282100003, 0.15883316099643702, 0.0001685, 0.0001685
DataValue, 0.0001695, -0.00023781943309600002, 0.161055773496628, 0.0001695, 0.0001695
DataValue, 0.0001705, -0.00024300077348000002, 0.163377001881599, 0.0001705, 0.0001705
DataValue, 0.00017150000000000002, -0.000246703420999, 0.16578277945518502, 0.00017150000000000002, 0.00017150000000000002
DataValue, 0.00017250000000000002, -0.00025287101743700003, 0.168096974492073, 0.00017250000000000002, 0.00017250000000000002
DataValue, 0.00017350000000000002, -0.000259342778008, 0.170206859707832, 0.00017350000000000002, 0.00017350000000000002
DataValue, 0.0001745, -0.00026420940412200003, 0.17264786362648002, 0.0001745, 0.0001745
DataValue, 0.0001755, -0.000269576208666, 0.175043061375618, 0.0001755, 0.0001755
DataValue, 0.0001765, -0.000274754740531, 0.176938101649284, 0.0001765, 0.0001765
DataValue, 0.0001775, -0.00027965227491200004, 0.179220587015152, 0.0001775, 0.0001775
DataValue, 0.0001785, -0.00028680893592500004, 0.18144319951534302, 0.0001785, 0.0001785
DataValue, 0.0001795, -0.000291302567348, 0.18353900313377403, 0.0001795, 0.0001795
DataValue, 0.00018050000000000002, -0.000295112695312, 0.186134979128838, 0.00018050000000000002, 0.00018050000000000002
DataValue, 0.00018150000000000002, -0.00030318467179300004, 0.188914135098457, 0.00018150000000000002, 0.00018150000000000002
DataValue, 0.00018250000000000002, -0.00031024366035100004, 0.19135512411594402, 0.00018250000000000002, 0.00018250000000000002
DataValue, 0.00018350000000000002, -0.000315100478474, 0.19332060217857403, 0.00018350000000000002, 0.00018350000000000002
DataValue, 0.0001845, -0.00032114231726200005, 0.195726379752159, 0.0001845, 0.0001845
DataValue, 0.0001855, -0.00032828000257700005, 0.19785036146640803, 0.0001855, 0.0001855
