
SetupTitle, WGFMU Id-Vd (DC)
ApplicationTest, WGFMU Id-Vd (DC), Public
TestParameter, Name, Gate, VgStart, VgStop, VgStep, Drain, VdStart, VdStop, VdStep, MeasRange, RiseTime, Hold, MeasDelay, AveragingTime, DataDisplay_PatternValidation, ExecutionMode
TestParameter, Value, WGFMU1:RS	RSWGFMU, -1.5, 0, 0.5, WGFMU2:RS	RSWGFMU, 0, 5, 0.2, 10mA (Imeas), 8E-08, 0, 1.3E-07, 2E-08, Disable, Run Vector
DutParameter, Name, Lg, Wg, Temp
DutParameter, Value, 0, 1E-07, 25
MetaData, TestRecord.EntryPoint, true
MetaData, TestRecord.RecordTime, 09/27/2021 11:56:36
MetaData, TestRecord.TestTarget, FlashNumB_1_10um_H3
MetaData, TestRecord.IterationIndex, 1
MetaData, TestRecord.Preservation, true
MetaData, TestRecord.Flag, 
MetaData, TestRecord.Remarks, 
MetaData, TestRecord.LinkKey, df609e5e-9dda-4abe-aca7-ceccd5b989b5
MetaData, TestRecord.Parameters, 
Dimension1, 26, 26, 26, 26, 26
Dimension2, 1, 1, 1, 1, 1
DataName, Time, Ch1meas, Ch2meas, Ch1Vsetting, Ch2Vsetting
DataValue, 2.2E-07, 0.0053957928903400005, -0.005433124490082, 0, -0.5
DataValue, 4.5000000000000003E-07, 0.008277487009764, -0.0082936435937880013, 0.2, -0.5
DataValue, 6.8000000000000005E-07, 0.011414565145969, -0.011350541375577, 0.4, -0.5
DataValue, 9.1000000000000008E-07, 0.011414565145969, -0.011350541375577, 0.60000000000000009, -0.5
DataValue, 1.14E-06, 0.011414565145969, -0.011350541375577, 0.8, -0.5
DataValue, 1.37E-06, 0.011414565145969, -0.011350541375577, 1, -0.5
DataValue, 1.6000000000000001E-06, 0.011414565145969, -0.011350541375577, 1.2000000000000002, -0.5
DataValue, 1.83E-06, 0.011414565145969, -0.011350541375577, 1.4000000000000001, -0.5
DataValue, 2.06E-06, 0.011414565145969, -0.011350541375577, 1.6, -0.5
DataValue, 2.29E-06, 0.011414565145969, -0.011350541375577, 1.8, -0.5
DataValue, 2.52E-06, 0.011414565145969, -0.011350541375577, 2, -0.5
DataValue, 2.7500000000000004E-06, 0.011414565145969, -0.011350541375577, 2.2, -0.5
DataValue, 2.9800000000000003E-06, 0.011414565145969, -0.011350541375577, 2.4000000000000004, -0.5
DataValue, 3.21E-06, 0.011414565145969, -0.011350541375577, 2.6, -0.5
DataValue, 3.44E-06, 0.011414565145969, -0.011350541375577, 2.8000000000000003, -0.5
DataValue, 3.6700000000000004E-06, 0.011414565145969, -0.011350541375577, 3, -0.5
DataValue, 3.9E-06, 0.011414565145969, -0.011350541375577, 3.2, -0.5
DataValue, 4.13E-06, 0.011414565145969, -0.011350541375577, 3.4000000000000004, -0.5
DataValue, 4.3600000000000006E-06, 0.011414565145969, -0.011350541375577, 3.6, -0.5
DataValue, 4.59E-06, 0.011414565145969, -0.011350541375577, 3.8000000000000003, -0.5
DataValue, 4.8200000000000004E-06, 0.011414565145969, -0.011350541375577, 4, -0.5
DataValue, 5.05E-06, 0.011414565145969, -0.011350541375577, 4.2, -0.5
DataValue, 5.28E-06, 0.011414565145969, -0.011350541375577, 4.4, -0.5
DataValue, 5.5100000000000006E-06, 0.011414565145969, -0.011350541375577, 4.6000000000000005, -0.5
DataValue, 5.74E-06, 0.011414565145969, -0.011350541375577, 4.8000000000000007, -0.5
DataValue, 5.9700000000000004E-06, 0.011414565145969, -0.011350541375577, 5, -0.5
SetupTitle, WGFMU DCIV
ApplicationTest, WGFMU DCIV, Public
TestParameter, Name, Ch1, Ch1OperationMode, Ch1VForceRange, Ch1MeasRange, Ch1VStart, Ch1VStop, Ch1VStep, Ch2, Ch2OperationMode, Ch2VForceRange, Ch2MeasRange, Ch2VConst, RiseTime, Hold, MeasDelay, AveragingTime, DataDisplay_PatternValidation, ExecutionMode
TestParameter, Value, WGFMU2:RS	RSWGFMU, Fast IV Imeas, Auto, 10mA (Imeas), 0, 5, 0.2, WGFMU1:RS	RSWGFMU, Fast IV Imeas, Auto, 10mA (Imeas), 0, 8E-08, 0, 1.3E-07, 2E-08, Disable, Run Vector
TestParameter, ValueScript, Drain, MeasRange, VdStart, VdStop, VdStep, Gate, MeasRange, _VgLevel, RiseTime, Hold, MeasDelay, AveragingTime, DataDisplay_PatternValidation, ExecutionMode
MetaData, TestRecord.EntryPoint, false
MetaData, TestRecord.RecordTime, 09/27/2021 11:56:36
MetaData, TestRecord.TestTarget, FlashNumB_1_10um_H3
MetaData, TestRecord.IterationIndex, 1
MetaData, TestRecord.Preservation, true
MetaData, TestRecord.Flag, 
MetaData, TestRecord.Remarks, 
MetaData, TestRecord.LinkKey, df609e5e-9dda-4abe-aca7-ceccd5b989b5
MetaData, TestRecord.Parameters, 
Dimension1, 26, 26, 26, 26, 26
Dimension2, 1, 1, 1, 1, 1
DataName, Time, Ch1meas, Ch2meas, Ch1Vsetting, Ch2Vsetting
DataValue, 2.2E-07, 0.0053957928903400005, -0.005433124490082, 0, -0.5
DataValue, 4.5000000000000003E-07, 0.008277487009764, -0.0082936435937880013, 0.2, -0.5
DataValue, 6.8000000000000005E-07, 0.011414565145969, -0.011350541375577, 0.4, -0.5
DataValue, 9.1000000000000008E-07, 0.011414565145969, -0.011350541375577, 0.60000000000000009, -0.5
DataValue, 1.14E-06, 0.011414565145969, -0.011350541375577, 0.8, -0.5
DataValue, 1.37E-06, 0.011414565145969, -0.011350541375577, 1, -0.5
DataValue, 1.6000000000000001E-06, 0.011414565145969, -0.011350541375577, 1.2000000000000002, -0.5
DataValue, 1.83E-06, 0.011414565145969, -0.011350541375577, 1.4000000000000001, -0.5
DataValue, 2.06E-06, 0.011414565145969, -0.011350541375577, 1.6, -0.5
DataValue, 2.29E-06, 0.011414565145969, -0.011350541375577, 1.8, -0.5
DataValue, 2.52E-06, 0.011414565145969, -0.011350541375577, 2, -0.5
DataValue, 2.7500000000000004E-06, 0.011414565145969, -0.011350541375577, 2.2, -0.5
DataValue, 2.9800000000000003E-06, 0.011414565145969, -0.011350541375577, 2.4000000000000004, -0.5
DataValue, 3.21E-06, 0.011414565145969, -0.011350541375577, 2.6, -0.5
DataValue, 3.44E-06, 0.011414565145969, -0.011350541375577, 2.8000000000000003, -0.5
DataValue, 3.6700000000000004E-06, 0.011414565145969, -0.011350541375577, 3, -0.5
DataValue, 3.9E-06, 0.011414565145969, -0.011350541375577, 3.2, -0.5
DataValue, 4.13E-06, 0.011414565145969, -0.011350541375577, 3.4000000000000004, -0.5
DataValue, 4.3600000000000006E-06, 0.011414565145969, -0.011350541375577, 3.6, -0.5
DataValue, 4.59E-06, 0.011414565145969, -0.011350541375577, 3.8000000000000003, -0.5
DataValue, 4.8200000000000004E-06, 0.011414565145969, -0.011350541375577, 4, -0.5
DataValue, 5.05E-06, 0.011414565145969, -0.011350541375577, 4.2, -0.5
DataValue, 5.28E-06, 0.011414565145969, -0.011350541375577, 4.4, -0.5
DataValue, 5.5100000000000006E-06, 0.011414565145969, -0.011350541375577, 4.6000000000000005, -0.5
DataValue, 5.74E-06, 0.011414565145969, -0.011350541375577, 4.8000000000000007, -0.5
DataValue, 5.9700000000000004E-06, 0.011414565145969, -0.011350541375577, 5, -0.5
SetupTitle, WGFMU Pattern Editor
ApplicationTest, WGFMU Pattern Editor, Public
TestParameter, Name, ExecutionMode, Enable1, Channel1, OperationMode1, VForceRange1, InitMeasRange1, Enable2, Channel2, OperationMode2, VForceRange2, InitMeasRange2, RepeatCount, WaveformCh1, WaveformCh2, MeasurementEvent, Output_to_File_for_PatternValidation, Output_Enable, Output_Filename, DataDisplay_for_RunVector, DataDisplay_PatternValidation, DataDisplay_Mode, LogToFile, LogFile, WarningLevel, IForceRange1, IForceRange2, Result_Update_Interval_s
TestParameter, Value, Run Vector, Enable, WGFMU2:RS	RSWGFMU, Fast IV Imeas, Auto, 10mA (Imeas), Enable, WGFMU1:RS	RSWGFMU, Fast IV Imeas, Auto, 10mA (Imeas), 1, , Disable, C:\WGFMUPatternEditor_Pattern.csv, , Disable, x(time)_y(meas), Disable, C:\WGFMUPatternEditor_Log.log, 2, 10mA, 10mA, 10
TestParameter, ValueScript, ExecutionMode, Ch1, Ch1OperationMode, Ch1VForceRange, Ch1MeasRange, Ch2, Ch2OperationMode, Ch2VForceRange, Ch2MeasRange, _Ch1Waveform, _Ch2Waveform, _MeasEvent, DataDisplay_PatternValidation
MetaData, TestRecord.EntryPoint, false
MetaData, TestRecord.RecordTime, 09/27/2021 11:56:36
MetaData, TestRecord.TestTarget, FlashNumB_1_10um_H3
MetaData, TestRecord.IterationIndex, 1
MetaData, TestRecord.Preservation, true
MetaData, TestRecord.Flag, 
MetaData, TestRecord.Remarks, 
MetaData, TestRecord.LinkKey, df609e5e-9dda-4abe-aca7-ceccd5b989b5
MetaData, TestRecord.Parameters, 
Dimension1, 26, 26, 26, 26, 26
Dimension2, 1, 1, 1, 1, 1
DataName, Time, Ch1meas, Ch2meas, Ch1Vsetting, Ch2Vsetting
DataValue, 2.2E-07, 0.0053957928903400005, -0.005433124490082, 0, -0.5
DataValue, 4.5000000000000003E-07, 0.008277487009764, -0.0082936435937880013, 0.2, -0.5
DataValue, 6.8000000000000005E-07, 0.011414565145969, -0.011350541375577, 0.4, -0.5
DataValue, 9.1000000000000008E-07, 0.011414565145969, -0.011350541375577, 0.60000000000000009, -0.5
DataValue, 1.14E-06, 0.011414565145969, -0.011350541375577, 0.8, -0.5
DataValue, 1.37E-06, 0.011414565145969, -0.011350541375577, 1, -0.5
DataValue, 1.6000000000000001E-06, 0.011414565145969, -0.011350541375577, 1.2000000000000002, -0.5
DataValue, 1.83E-06, 0.011414565145969, -0.011350541375577, 1.4000000000000001, -0.5
DataValue, 2.06E-06, 0.011414565145969, -0.011350541375577, 1.6, -0.5
DataValue, 2.29E-06, 0.011414565145969, -0.011350541375577, 1.8, -0.5
DataValue, 2.52E-06, 0.011414565145969, -0.011350541375577, 2, -0.5
DataValue, 2.7500000000000004E-06, 0.011414565145969, -0.011350541375577, 2.2, -0.5
DataValue, 2.9800000000000003E-06, 0.011414565145969, -0.011350541375577, 2.4000000000000004, -0.5
DataValue, 3.21E-06, 0.011414565145969, -0.011350541375577, 2.6, -0.5
DataValue, 3.44E-06, 0.011414565145969, -0.011350541375577, 2.8000000000000003, -0.5
DataValue, 3.6700000000000004E-06, 0.011414565145969, -0.011350541375577, 3, -0.5
DataValue, 3.9E-06, 0.011414565145969, -0.011350541375577, 3.2, -0.5
DataValue, 4.13E-06, 0.011414565145969, -0.011350541375577, 3.4000000000000004, -0.5
DataValue, 4.3600000000000006E-06, 0.011414565145969, -0.011350541375577, 3.6, -0.5
DataValue, 4.59E-06, 0.011414565145969, -0.011350541375577, 3.8000000000000003, -0.5
DataValue, 4.8200000000000004E-06, 0.011414565145969, -0.011350541375577, 4, -0.5
DataValue, 5.05E-06, 0.011414565145969, -0.011350541375577, 4.2, -0.5
DataValue, 5.28E-06, 0.011414565145969, -0.011350541375577, 4.4, -0.5
DataValue, 5.5100000000000006E-06, 0.011414565145969, -0.011350541375577, 4.6000000000000005, -0.5
DataValue, 5.74E-06, 0.011414565145969, -0.011350541375577, 4.8000000000000007, -0.5
DataValue, 5.9700000000000004E-06, 0.011414565145969, -0.011350541375577, 5, -0.5
SetupTitle, WGFMU DCIV
ApplicationTest, WGFMU DCIV, Public
TestParameter, Name, Ch1, Ch1OperationMode, Ch1VForceRange, Ch1MeasRange, Ch1VStart, Ch1VStop, Ch1VStep, Ch2, Ch2OperationMode, Ch2VForceRange, Ch2MeasRange, Ch2VConst, RiseTime, Hold, MeasDelay, AveragingTime, DataDisplay_PatternValidation, ExecutionMode
TestParameter, Value, WGFMU2:RS	RSWGFMU, Fast IV Imeas, Auto, 10mA (Imeas), 0, 5, 0.2, WGFMU1:RS	RSWGFMU, Fast IV Imeas, Auto, 10mA (Imeas), -0.5, 8E-08, 0, 1.3E-07, 2E-08, Disable, Run Vector
TestParameter, ValueScript, Drain, MeasRange, VdStart, VdStop, VdStep, Gate, MeasRange, _VgLevel, RiseTime, Hold, MeasDelay, AveragingTime, DataDisplay_PatternValidation, ExecutionMode
MetaData, TestRecord.EntryPoint, false
MetaData, TestRecord.RecordTime, 09/27/2021 11:56:34
MetaData, TestRecord.TestTarget, FlashNumB_1_10um_H3
MetaData, TestRecord.IterationIndex, 1
MetaData, TestRecord.Preservation, true
MetaData, TestRecord.Flag, 
MetaData, TestRecord.Remarks, 
MetaData, TestRecord.LinkKey, df609e5e-9dda-4abe-aca7-ceccd5b989b5
MetaData, TestRecord.Parameters, 
Dimension1, 26, 26, 26, 26, 26
Dimension2, 1, 1, 1, 1, 1
DataName, Time, Ch1meas, Ch2meas, Ch1Vsetting, Ch2Vsetting
DataValue, 2.2E-07, 0.0053957928903400005, -0.005433124490082, 0, -0.5
DataValue, 4.5000000000000003E-07, 0.008277487009764, -0.0082936435937880013, 0.2, -0.5
DataValue, 6.8000000000000005E-07, 0.011414565145969, -0.011350541375577, 0.4, -0.5
DataValue, 9.1000000000000008E-07, 0.011414565145969, -0.011350541375577, 0.60000000000000009, -0.5
DataValue, 1.14E-06, 0.011414565145969, -0.011350541375577, 0.8, -0.5
DataValue, 1.37E-06, 0.011414565145969, -0.011350541375577, 1, -0.5
DataValue, 1.6000000000000001E-06, 0.011414565145969, -0.011350541375577, 1.2000000000000002, -0.5
DataValue, 1.83E-06, 0.011414565145969, -0.011350541375577, 1.4000000000000001, -0.5
DataValue, 2.06E-06, 0.011414565145969, -0.011350541375577, 1.6, -0.5
DataValue, 2.29E-06, 0.011414565145969, -0.011350541375577, 1.8, -0.5
DataValue, 2.52E-06, 0.011414565145969, -0.011350541375577, 2, -0.5
DataValue, 2.7500000000000004E-06, 0.011414565145969, -0.011350541375577, 2.2, -0.5
DataValue, 2.9800000000000003E-06, 0.011414565145969, -0.011350541375577, 2.4000000000000004, -0.5
DataValue, 3.21E-06, 0.011414565145969, -0.011350541375577, 2.6, -0.5
DataValue, 3.44E-06, 0.011414565145969, -0.011350541375577, 2.8000000000000003, -0.5
DataValue, 3.6700000000000004E-06, 0.011414565145969, -0.011350541375577, 3, -0.5
DataValue, 3.9E-06, 0.011414565145969, -0.011350541375577, 3.2, -0.5
DataValue, 4.13E-06, 0.011414565145969, -0.011350541375577, 3.4000000000000004, -0.5
DataValue, 4.3600000000000006E-06, 0.011414565145969, -0.011350541375577, 3.6, -0.5
DataValue, 4.59E-06, 0.011414565145969, -0.011350541375577, 3.8000000000000003, -0.5
DataValue, 4.8200000000000004E-06, 0.011414565145969, -0.011350541375577, 4, -0.5
DataValue, 5.05E-06, 0.011414565145969, -0.011350541375577, 4.2, -0.5
DataValue, 5.28E-06, 0.011414565145969, -0.011350541375577, 4.4, -0.5
DataValue, 5.5100000000000006E-06, 0.011414565145969, -0.011350541375577, 4.6000000000000005, -0.5
DataValue, 5.74E-06, 0.011414565145969, -0.011350541375577, 4.8000000000000007, -0.5
DataValue, 5.9700000000000004E-06, 0.011414565145969, -0.011350541375577, 5, -0.5
SetupTitle, WGFMU Pattern Editor
ApplicationTest, WGFMU Pattern Editor, Public
TestParameter, Name, ExecutionMode, Enable1, Channel1, OperationMode1, VForceRange1, InitMeasRange1, Enable2, Channel2, OperationMode2, VForceRange2, InitMeasRange2, RepeatCount, WaveformCh1, WaveformCh2, MeasurementEvent, Output_to_File_for_PatternValidation, Output_Enable, Output_Filename, DataDisplay_for_RunVector, DataDisplay_PatternValidation, DataDisplay_Mode, LogToFile, LogFile, WarningLevel, IForceRange1, IForceRange2, Result_Update_Interval_s
TestParameter, Value, Run Vector, Enable, WGFMU2:RS	RSWGFMU, Fast IV Imeas, Auto, 10mA (Imeas), Enable, WGFMU1:RS	RSWGFMU, Fast IV Imeas, Auto, 10mA (Imeas), 1, , Disable, C:\WGFMUPatternEditor_Pattern.csv, , Disable, x(time)_y(meas), Disable, C:\WGFMUPatternEditor_Log.log, 2, 10mA, 10mA, 10
TestParameter, ValueScript, ExecutionMode, Ch1, Ch1OperationMode, Ch1VForceRange, Ch1MeasRange, Ch2, Ch2OperationMode, Ch2VForceRange, Ch2MeasRange, _Ch1Waveform, _Ch2Waveform, _MeasEvent, DataDisplay_PatternValidation
MetaData, TestRecord.EntryPoint, false
MetaData, TestRecord.RecordTime, 09/27/2021 11:56:33
MetaData, TestRecord.TestTarget, FlashNumB_1_10um_H3
MetaData, TestRecord.IterationIndex, 1
MetaData, TestRecord.Preservation, true
MetaData, TestRecord.Flag, 
MetaData, TestRecord.Remarks, 
MetaData, TestRecord.LinkKey, df609e5e-9dda-4abe-aca7-ceccd5b989b5
MetaData, TestRecord.Parameters, 
Dimension1, 26, 26, 26, 26, 26
Dimension2, 1, 1, 1, 1, 1
DataName, Time, MeasResult1_value, MeasResult2_value, MeasResult1_time, MeasResult2_time
DataValue, 2.2E-07, 0.0053957928903400005, -0.005433124490082, 2.2E-07, 2.2E-07
DataValue, 4.5000000000000003E-07, 0.008277487009764, -0.0082936435937880013, 4.5000000000000003E-07, 4.5000000000000003E-07
DataValue, 6.8000000000000005E-07, 0.011414565145969, -0.011350541375577, 6.8000000000000005E-07, 6.8000000000000005E-07
DataValue, 9.1000000000000008E-07, 0.011414565145969, -0.011350541375577, 9.1000000000000008E-07, 9.1000000000000008E-07
DataValue, 1.14E-06, 0.011414565145969, -0.011350541375577, 1.14E-06, 1.14E-06
DataValue, 1.37E-06, 0.011414565145969, -0.011350541375577, 1.37E-06, 1.37E-06
DataValue, 1.6000000000000001E-06, 0.011414565145969, -0.011350541375577, 1.6000000000000001E-06, 1.6000000000000001E-06
DataValue, 1.83E-06, 0.011414565145969, -0.011350541375577, 1.83E-06, 1.83E-06
DataValue, 2.06E-06, 0.011414565145969, -0.011350541375577, 2.06E-06, 2.06E-06
DataValue, 2.29E-06, 0.011414565145969, -0.011350541375577, 2.29E-06, 2.29E-06
DataValue, 2.52E-06, 0.011414565145969, -0.011350541375577, 2.52E-06, 2.52E-06
DataValue, 2.7500000000000004E-06, 0.011414565145969, -0.011350541375577, 2.7500000000000004E-06, 2.7500000000000004E-06
DataValue, 2.9800000000000003E-06, 0.011414565145969, -0.011350541375577, 2.9800000000000003E-06, 2.9800000000000003E-06
DataValue, 3.21E-06, 0.011414565145969, -0.011350541375577, 3.21E-06, 3.21E-06
DataValue, 3.44E-06, 0.011414565145969, -0.011350541375577, 3.44E-06, 3.44E-06
DataValue, 3.6700000000000004E-06, 0.011414565145969, -0.011350541375577, 3.6700000000000004E-06, 3.6700000000000004E-06
DataValue, 3.9E-06, 0.011414565145969, -0.011350541375577, 3.9E-06, 3.9E-06
DataValue, 4.13E-06, 0.011414565145969, -0.011350541375577, 4.13E-06, 4.13E-06
DataValue, 4.3600000000000006E-06, 0.011414565145969, -0.011350541375577, 4.3600000000000006E-06, 4.3600000000000006E-06
DataValue, 4.59E-06, 0.011414565145969, -0.011350541375577, 4.59E-06, 4.59E-06
DataValue, 4.8200000000000004E-06, 0.011414565145969, -0.011350541375577, 4.8200000000000004E-06, 4.8200000000000004E-06
DataValue, 5.05E-06, 0.011414565145969, -0.011350541375577, 5.05E-06, 5.05E-06
DataValue, 5.28E-06, 0.011414565145969, -0.011350541375577, 5.28E-06, 5.28E-06
DataValue, 5.5100000000000006E-06, 0.011414565145969, -0.011350541375577, 5.5100000000000006E-06, 5.5100000000000006E-06
DataValue, 5.74E-06, 0.011414565145969, -0.011350541375577, 5.74E-06, 5.74E-06
DataValue, 5.9700000000000004E-06, 0.011414565145969, -0.011350541375577, 5.9700000000000004E-06, 5.9700000000000004E-06
SetupTitle, WGFMU Pattern Editor Child DataDisplay
ApplicationTest, WGFMU Pattern Editor Child DataDisplay, Public
TestParameter, Name, DataDisplayID, NumOfDisplay, DisplayIndex, TimeMax, ValueLimit, Waveform1_time, Waveform1_voltage, Waveform2_time, Waveform2_voltage, MeasTiming_time, MeasTiming_flag, MeasResult1_time, MeasResult1_value, MeasResult2_time, MeasResult2_value
TestParameter, Value, Xtime_Ymeas_Disable, 1, 0, 6.0600000000000004E-06, 1E-08
MetaData, TestRecord.EntryPoint, false
MetaData, TestRecord.RecordTime, 09/27/2021 11:56:33
MetaData, TestRecord.TestTarget, FlashNumB_1_10um_H3
MetaData, TestRecord.IterationIndex, 1
MetaData, TestRecord.Preservation, true
MetaData, TestRecord.Flag, 
MetaData, TestRecord.Remarks, 
MetaData, TestRecord.LinkKey, df609e5e-9dda-4abe-aca7-ceccd5b989b5
MetaData, TestRecord.Parameters, 
Dimension1, 26, 26, 26, 26, 26
Dimension2, 1, 1, 1, 1, 1
DataName, Time, MeasResult1_value, MeasResult2_value, MeasResult1_time, MeasResult2_time
DataValue, 2.2E-07, 0.0053957928903400005, -0.005433124490082, 2.2E-07, 2.2E-07
DataValue, 4.5000000000000003E-07, 0.008277487009764, -0.0082936435937880013, 4.5000000000000003E-07, 4.5000000000000003E-07
DataValue, 6.8000000000000005E-07, 0.011414565145969, -0.011350541375577, 6.8000000000000005E-07, 6.8000000000000005E-07
DataValue, 9.1000000000000008E-07, 0.011414565145969, -0.011350541375577, 9.1000000000000008E-07, 9.1000000000000008E-07
DataValue, 1.14E-06, 0.011414565145969, -0.011350541375577, 1.14E-06, 1.14E-06
DataValue, 1.37E-06, 0.011414565145969, -0.011350541375577, 1.37E-06, 1.37E-06
DataValue, 1.6000000000000001E-06, 0.011414565145969, -0.011350541375577, 1.6000000000000001E-06, 1.6000000000000001E-06
DataValue, 1.83E-06, 0.011414565145969, -0.011350541375577, 1.83E-06, 1.83E-06
DataValue, 2.06E-06, 0.011414565145969, -0.011350541375577, 2.06E-06, 2.06E-06
DataValue, 2.29E-06, 0.011414565145969, -0.011350541375577, 2.29E-06, 2.29E-06
DataValue, 2.52E-06, 0.011414565145969, -0.011350541375577, 2.52E-06, 2.52E-06
DataValue, 2.7500000000000004E-06, 0.011414565145969, -0.011350541375577, 2.7500000000000004E-06, 2.7500000000000004E-06
DataValue, 2.9800000000000003E-06, 0.011414565145969, -0.011350541375577, 2.9800000000000003E-06, 2.9800000000000003E-06
