
SetupTitle, Break of oxide
PrimitiveTest, I/V Sweep
TestParameter, Context.MainFrame, B1500A
TestParameter, Channel.UnitType, SMU, SMU
TestParameter, Channel.Unit, SMU2:HR/AS, SMU1:HR/AS
TestParameter, Channel.IName, I1, I2
TestParameter, Channel.VName, V1, V2
TestParameter, Channel.Mode, V, V
TestParameter, Channel.Func, VAR1, CONST
TestParameter, Channel.Index, 
TestParameter, Channel.Time, 
TestParameter, Measurement.Port.Unit, SMU2:HR/AS, SMU1:HR/AS
TestParameter, Measurement.Port.SeriesResistor, NONE, NONE
TestParameter, Measurement.Port.Filter, ON, ON
TestParameter, Measurement.Port.OutputVoltageComparison, 0, 0
TestParameter, Measurement.Primary.Locus, Single
TestParameter, Measurement.Primary.Scale, LINEAR
TestParameter, Measurement.Primary.Start, 0
TestParameter, Measurement.Primary.Stop, 10
TestParameter, Measurement.Primary.Step, 0.05
TestParameter, Measurement.Primary.Compliance, 0.1
TestParameter, Measurement.Primary.PowerCompliance, 0
TestParameter, Measurement.Aborting.Condition, CONTINUE AT ANY
TestParameter, Measurement.PostOutput.Value, START
TestParameter, Measurement.PostOutput.Retention, OFF
TestParameter, Measurement.Bias.Source, 0, 0
TestParameter, Measurement.Bias.Compliance, 0.1, 0.1
TestParameter, Measurement.Monitor.Unit, SMU2:HR/AS, SMU1:HR/AS
TestParameter, Measurement.Monitor.Adc, HR ADC, HR ADC
TestParameter, Measurement.Monitor.Measurement, Compliance Side, Compliance Side
TestParameter, Measurement.Monitor.RangingMode, LIMITED, LIMITED
TestParameter, Measurement.Monitor.RangeBoundary, 1nA, 1nA
TestParameter, Measurement.Monitor.RangeRating, BY FULL RANGE, BY FULL RANGE
TestParameter, Measurement.Monitor.RangeRatingCoeff, 50, 50
TestParameter, Measurement.Timing.Hold, 1
TestParameter, Measurement.Timing.Delay, 0
TestParameter, Measurement.Adc.HighSpeed.Mode, AUTO
TestParameter, Measurement.Adc.HighSpeed.Coeff, 1
TestParameter, Measurement.Adc.HighResolution.AutoZero, OFF
TestParameter, Measurement.Adc.HighResolution.Mode, AUTO
TestParameter, Measurement.Adc.HighResolution.Coeff, 6
TestParameter, Measurement.WaitTime.Source.Coeff, 1
TestParameter, Measurement.WaitTime.Source.Offset, 0
TestParameter, Measurement.WaitTime.Monitor.Coeff, 1
TestParameter, Measurement.WaitTime.Monitor.Offset, 0
TestParameter, Function.Analysis.Name, absI
TestParameter, Function.Analysis.Unit, A
TestParameter, Function.Analysis.Definition, abs(I1)
TestParameter, Output.Graph.Enabled, true
TestParameter, Output.Graph.AutoScaling, false
TestParameter, Output.Graph.XAxis.Data, V1
TestParameter, Output.Graph.XAxis.Scale, Linear
TestParameter, Output.Graph.XAxis.Left, 0
TestParameter, Output.Graph.XAxis.Right, 3
TestParameter, Output.Graph.XAxis.RunTimeAutoScale, true
TestParameter, Output.Graph.YAxis.Data, I1, absI
TestParameter, Output.Graph.YAxis.Scale, Linear, Log
TestParameter, Output.Graph.YAxis.Bottom, 0.001, 0
TestParameter, Output.Graph.YAxis.Top, 0.01, 1
TestParameter, Output.Graph.YAxis.Group, , 
TestParameter, Output.Graph.YAxis.RunTimeAutoScale, true, true
TestParameter, AutoAnalysis.Interpolation, false
TestParameter, AutoAnalysis.Var2StepCount, 1
TestParameter, AutoAnalysis.Var2StepScript, 
TestParameter, AutoAnalysis.Line1.Enabled, false
TestParameter, AutoAnalysis.Line1.Type, 1
TestParameter, AutoAnalysis.Line1.Fix, True
TestParameter, AutoAnalysis.Line1.YAxis, 0
TestParameter, AutoAnalysis.Line1.Point1.Type, 0
TestParameter, AutoAnalysis.Line1.Point1.XY.X, 
TestParameter, AutoAnalysis.Line1.Point1.XY.Y, 
TestParameter, AutoAnalysis.Line1.Point1.Data.Var, 
TestParameter, AutoAnalysis.Line1.Point1.Data.Condition, 
TestParameter, AutoAnalysis.Line1.Point1.Data.Start, false
TestParameter, AutoAnalysis.Line1.Point1.Data.StartVar, 
TestParameter, AutoAnalysis.Line1.Point1.Data.StartCondition, 
TestParameter, AutoAnalysis.Line1.Point2.Type, 0
TestParameter, AutoAnalysis.Line1.Point2.XY.X, 
TestParameter, AutoAnalysis.Line1.Point2.XY.Y, 
TestParameter, AutoAnalysis.Line1.Point2.Data.Var, 
TestParameter, AutoAnalysis.Line1.Point2.Data.Condition, 
TestParameter, AutoAnalysis.Line1.Point2.Data.Start, false
TestParameter, AutoAnalysis.Line1.Point2.Data.StartVar, 
TestParameter, AutoAnalysis.Line1.Point2.Data.StartCondition, 
TestParameter, AutoAnalysis.Line1.GradientExpr, 0
TestParameter, AutoAnalysis.Line2.Enabled, false
TestParameter, AutoAnalysis.Line2.Type, 1
TestParameter, AutoAnalysis.Line2.Fix, True
TestParameter, AutoAnalysis.Line2.YAxis, 0
TestParameter, AutoAnalysis.Line2.Point1.Type, 0
TestParameter, AutoAnalysis.Line2.Point1.XY.X, 
TestParameter, AutoAnalysis.Line2.Point1.XY.Y, 
TestParameter, AutoAnalysis.Line2.Point1.Data.Var, 
TestParameter, AutoAnalysis.Line2.Point1.Data.Condition, 
TestParameter, AutoAnalysis.Line2.Point1.Data.Start, false
TestParameter, AutoAnalysis.Line2.Point1.Data.StartVar, 
TestParameter, AutoAnalysis.Line2.Point1.Data.StartCondition, 
TestParameter, AutoAnalysis.Line2.Point2.Type, 0
TestParameter, AutoAnalysis.Line2.Point2.XY.X, 
TestParameter, AutoAnalysis.Line2.Point2.XY.Y, 
TestParameter, AutoAnalysis.Line2.Point2.Data.Var, 
TestParameter, AutoAnalysis.Line2.Point2.Data.Condition, 
TestParameter, AutoAnalysis.Line2.Point2.Data.Start, false
TestParameter, AutoAnalysis.Line2.Point2.Data.StartVar, 
TestParameter, AutoAnalysis.Line2.Point2.Data.StartCondition, 
TestParameter, AutoAnalysis.Line2.GradientExpr, 0
TestParameter, AutoAnalysis.Marker.Enabled, false
TestParameter, AutoAnalysis.Marker.Data.Var, 
TestParameter, AutoAnalysis.Marker.Data.Condition, 
TestParameter, AutoAnalysis.Marker.Data.Start, false
TestParameter, AutoAnalysis.Marker.Data.StartVar, 
TestParameter, AutoAnalysis.Marker.Data.StartCondition, 
MetaData, TestRecord.EntryPoint, true
MetaData, TestRecord.RecordTime, 06/10/2021 11:06:46
MetaData, TestRecord.TestTarget, HZO5nmW_1_25um_E12
MetaData, TestRecord.IterationIndex, 10
MetaData, TestRecord.Preservation, true
MetaData, TestRecord.Flag, 
MetaData, TestRecord.Remarks, 
MetaData, TestRecord.LinkKey, f80d75d4-a214-46a3-948b-58cda3da6540
MetaData, TestRecord.Parameters, 
Dimension1, 201, 201, 201
Dimension2, 1, 1, 1
DataName, V1, I1, absI
DataValue, 0, 2.8732E-07, 2.8732E-07
DataValue, 0.05, 3.126E-05, 3.126E-05
DataValue, 0.1, 6.1644000000000008E-05, 6.1644000000000008E-05
DataValue, 0.15, 9.0266E-05, 9.0266E-05
DataValue, 0.2, 0.00011742000000000001, 0.00011742000000000001
DataValue, 0.25, 0.00014322, 0.00014322
DataValue, 0.3, 0.00016898, 0.00016898
DataValue, 0.35000000000000003, 0.00019170000000000003, 0.00019170000000000003
DataValue, 0.4, 0.00021500000000000002, 0.00021500000000000002
DataValue, 0.45, 0.00023744, 0.00023744
DataValue, 0.5, 0.00026156000000000004, 0.00026156000000000004
DataValue, 0.55, 0.00028710000000000004, 0.00028710000000000004
DataValue, 0.6, 0.00030856000000000004, 0.00030856000000000004
DataValue, 0.65, 0.00032858000000000003, 0.00032858000000000003
DataValue, 0.70000000000000007, 0.00034892, 0.00034892
DataValue, 0.75, 0.00036176000000000003, 0.00036176000000000003
DataValue, 0.8, 0.000384, 0.000384
DataValue, 0.85, 0.00040724, 0.00040724
DataValue, 0.9, 0.00043172, 0.00043172
DataValue, 0.95000000000000007, 0.00045710000000000005, 0.00045710000000000005
DataValue, 1, 0.00049712, 0.00049712
DataValue, 1.05, 0.00053816, 0.00053816
DataValue, 1.1, 0.00058852, 0.00058852
DataValue, 1.1500000000000001, 0.00063952000000000008, 0.00063952000000000008
DataValue, 1.2, 0.00071052000000000008, 0.00071052000000000008
DataValue, 1.25, 0.00076788000000000008, 0.00076788000000000008
DataValue, 1.3, 0.00088228, 0.00088228
DataValue, 1.35, 0.00097876, 0.00097876
DataValue, 1.4000000000000001, 0.00109398, 0.00109398
DataValue, 1.45, 0.00124, 0.00124
DataValue, 1.5, 0.0013344000000000001, 0.0013344000000000001
DataValue, 1.55, 0.0014874, 0.0014874
DataValue, 1.6, 0.0015706000000000001, 0.0015706000000000001
DataValue, 1.6500000000000001, 0.0017278, 0.0017278
DataValue, 1.7, 0.00188, 0.00188
DataValue, 1.75, 0.01289, 0.01289
DataValue, 1.8, 0.014138000000000001, 0.014138000000000001
DataValue, 1.85, 0.014770000000000002, 0.014770000000000002
DataValue, 1.9000000000000001, 0.015518, 0.015518
DataValue, 1.95, 0.016394000000000002, 0.016394000000000002
DataValue, 2, 0.017602000000000003, 0.017602000000000003
DataValue, 2.05, 0.018500000000000003, 0.018500000000000003
DataValue, 2.1, 0.019206, 0.019206
DataValue, 2.15, 0.020306, 0.020306
DataValue, 2.2, 0.021480000000000003, 0.021480000000000003
DataValue, 2.25, 0.022844000000000003, 0.022844000000000003
DataValue, 2.3000000000000003, 0.023768, 0.023768
DataValue, 2.35, 0.025524, 0.025524
DataValue, 2.4, 0.030114000000000002, 0.030114000000000002
DataValue, 2.45, 0.031662, 0.031662
DataValue, 2.5, 0.034504, 0.034504
DataValue, 2.5500000000000003, 0.038282000000000004, 0.038282000000000004
DataValue, 2.6, 0.044618000000000005, 0.044618000000000005
DataValue, 2.65, 0.046872000000000004, 0.046872000000000004
DataValue, 2.7, 0.050666, 0.050666
DataValue, 2.75, 0.053494000000000007, 0.053494000000000007
DataValue, 2.8000000000000003, 0.057618, 0.057618
DataValue, 2.85, 0.063716000000000009, 0.063716000000000009
DataValue, 2.9, 0.064618000000000009, 0.064618000000000009
DataValue, 2.95, 0.067094, 0.067094
DataValue, 3, 0.073388000000000009, 0.073388000000000009
DataValue, 3.0500000000000003, 0.077584, 0.077584
DataValue, 3.1, 0.087374000000000007, 0.087374000000000007
DataValue, 3.15, 0.10000800000000001, 0.10000800000000001
DataValue, 3.2, 0.10000800000000001, 0.10000800000000001
DataValue, 3.25, 0.10000200000000001, 0.10000200000000001
DataValue, 3.3000000000000003, 0.10000400000000001, 0.10000400000000001
DataValue, 3.35, 0.099994000000000013, 0.099994000000000013
DataValue, 3.4, 0.10000200000000001, 0.10000200000000001
DataValue, 3.45, 0.099998, 0.099998
DataValue, 3.5, 0.10000200000000001, 0.10000200000000001
DataValue, 3.5500000000000003, 0.099998, 0.099998
DataValue, 3.6, 0.10000200000000001, 0.10000200000000001
DataValue, 3.65, 0.10000400000000001, 0.10000400000000001
DataValue, 3.7, 0.10000400000000001, 0.10000400000000001
DataValue, 3.75, 0.10000400000000001, 0.10000400000000001
DataValue, 3.8000000000000003, 0.10000600000000001, 0.10000600000000001
DataValue, 3.85, 0.10000200000000001, 0.10000200000000001
DataValue, 3.9, 0.10000200000000001, 0.10000200000000001
DataValue, 3.95, 0.10000200000000001, 0.10000200000000001
DataValue, 4, 0.10000400000000001, 0.10000400000000001
DataValue, 4.05, 0.10000600000000001, 0.10000600000000001
DataValue, 4.1, 0.099986, 0.099986
DataValue, 4.15, 0.10000800000000001, 0.10000800000000001
DataValue, 4.2, 0.10001000000000002, 0.10001000000000002
DataValue, 4.25, 0.100014, 0.100014
DataValue, 4.3, 0.10000200000000001, 0.10000200000000001
DataValue, 4.3500000000000005, 0.099994000000000013, 0.099994000000000013
DataValue, 4.4, 0.10000800000000001, 0.10000800000000001
DataValue, 4.45, 0.099992000000000011, 0.099992000000000011
DataValue, 4.5, 0.100012, 0.100012
DataValue, 4.55, 0.1, 0.1
DataValue, 4.6000000000000005, 0.10000400000000001, 0.10000400000000001
DataValue, 4.65, 0.099998, 0.099998
DataValue, 4.7, 0.10000200000000001, 0.10000200000000001
DataValue, 4.75, 0.10000400000000001, 0.10000400000000001
DataValue, 4.8, 0.1, 0.1
DataValue, 4.8500000000000005, 0.10000200000000001, 0.10000200000000001
DataValue, 4.9, 0.10000200000000001, 0.10000200000000001
DataValue, 4.95, 0.100014, 0.100014
DataValue, 5, 0.10001800000000001, 0.10001800000000001
DataValue, 5.05, 0.10000800000000001, 0.10000800000000001
DataValue, 5.1000000000000005, 0.100014, 0.100014
DataValue, 5.15, 0.100012, 0.100012
DataValue, 5.2, 0.10003200000000001, 0.10003200000000001
DataValue, 5.25, 0.10000200000000001, 0.10000200000000001
DataValue, 5.3, 0.099998, 0.099998
DataValue, 5.3500000000000005, 0.10001000000000002, 0.10001000000000002
DataValue, 5.4, 0.099998, 0.099998
DataValue, 5.45, 0.10000400000000001, 0.10000400000000001
DataValue, 5.5, 0.099998, 0.099998
DataValue, 5.55, 0.10000200000000001, 0.10000200000000001
DataValue, 5.6000000000000005, 0.10000400000000001, 0.10000400000000001
DataValue, 5.65, 0.10000400000000001, 0.10000400000000001
DataValue, 5.7, 0.10000600000000001, 0.10000600000000001
DataValue, 5.75, 0.099994000000000013, 0.099994000000000013
DataValue, 5.8, 0.10000800000000001, 0.10000800000000001
DataValue, 5.8500000000000005, 0.10000400000000001, 0.10000400000000001
DataValue, 5.9, 0.10001000000000002, 0.10001000000000002
DataValue, 5.95, 0.10000600000000001, 0.10000600000000001
DataValue, 6, 0.099996000000000015, 0.099996000000000015
DataValue, 6.05, 0.10000400000000001, 0.10000400000000001
DataValue, 6.1000000000000005, 0.1, 0.1
DataValue, 6.15, 0.10000600000000001, 0.10000600000000001
DataValue, 6.2, 0.10000200000000001, 0.10000200000000001
DataValue, 6.25, 0.10000200000000001, 0.10000200000000001
DataValue, 6.3, 0.10000600000000001, 0.10000600000000001
DataValue, 6.3500000000000005, 0.099992000000000011, 0.099992000000000011
DataValue, 6.4, 0.10000200000000001, 0.10000200000000001
DataValue, 6.45, 0.10000600000000001, 0.10000600000000001
DataValue, 6.5, 0.1, 0.1
DataValue, 6.55, 0.099994000000000013, 0.099994000000000013
DataValue, 6.6000000000000005, 0.1, 0.1
DataValue, 6.65, 0.10000600000000001, 0.10000600000000001
DataValue, 6.7, 0.099992000000000011, 0.099992000000000011
DataValue, 6.75, 0.10000400000000001, 0.10000400000000001
DataValue, 6.8, 0.10002000000000001, 0.10002000000000001
DataValue, 6.8500000000000005, 0.100024, 0.100024
DataValue, 6.9, 0.100026, 0.100026
DataValue, 6.95, 0.10000400000000001, 0.10000400000000001
DataValue, 7, 0.10000400000000001, 0.10000400000000001
DataValue, 7.05, 0.10000400000000001, 0.10000400000000001
DataValue, 7.1000000000000005, 0.10000200000000001, 0.10000200000000001
DataValue, 7.15, 0.10003000000000001, 0.10003000000000001
DataValue, 7.2, 0.099998, 0.099998
DataValue, 7.25, 0.099988000000000007, 0.099988000000000007
DataValue, 7.3, 0.10002000000000001, 0.10002000000000001
DataValue, 7.3500000000000005, 0.10001000000000002, 0.10001000000000002
DataValue, 7.4, 0.10000800000000001, 0.10000800000000001
DataValue, 7.45, 0.099998, 0.099998
DataValue, 7.5, 0.100028, 0.100028
DataValue, 7.55, 0.099986, 0.099986
DataValue, 7.6000000000000005, 0.099938000000000013, 0.099938000000000013
DataValue, 7.65, 0.099976000000000009, 0.099976000000000009
DataValue, 7.7, 0.10000800000000001, 0.10000800000000001
DataValue, 7.75, 0.099884000000000014, 0.099884000000000014
DataValue, 7.8, 0.10000600000000001, 0.10000600000000001
DataValue, 7.8500000000000005, 0.099998, 0.099998
DataValue, 7.9, 0.10000200000000001, 0.10000200000000001
DataValue, 7.95, 0.10000400000000001, 0.10000400000000001
DataValue, 8, 0.10000600000000001, 0.10000600000000001
DataValue, 8.05, 0.10003600000000001, 0.10003600000000001
DataValue, 8.1, 0.099994000000000013, 0.099994000000000013
DataValue, 8.15, 0.100014, 0.100014
DataValue, 8.2, 0.10000400000000001, 0.10000400000000001
DataValue, 8.25, 0.099968000000000015, 0.099968000000000015
DataValue, 8.3, 0.099998, 0.099998
DataValue, 8.35, 0.10000200000000001, 0.10000200000000001
DataValue, 8.4, 0.10000600000000001, 0.10000600000000001
DataValue, 8.45, 0.100014, 0.100014
DataValue, 8.5, 0.10000400000000001, 0.10000400000000001
DataValue, 8.55, 0.10000400000000001, 0.10000400000000001
DataValue, 8.6, 0.100012, 0.100012
DataValue, 8.65, 0.099994000000000013, 0.099994000000000013
DataValue, 8.7000000000000011, 0.10000400000000001, 0.10000400000000001
DataValue, 8.75, 0.10000400000000001, 0.10000400000000001
DataValue, 8.8, 0.099980000000000013, 0.099980000000000013
DataValue, 8.85, 0.10000600000000001, 0.10000600000000001
DataValue, 8.9, 0.10001600000000001, 0.10001600000000001
DataValue, 8.9500000000000011, 0.099998, 0.099998
DataValue, 9, 0.10000800000000001, 0.10000800000000001
DataValue, 9.05, 0.099980000000000013, 0.099980000000000013
DataValue, 9.1, 0.10001000000000002, 0.10001000000000002
DataValue, 9.15, 0.099972, 0.099972
DataValue, 9.2000000000000011, 0.099896000000000013, 0.099896000000000013
DataValue, 9.25, 0.100084, 0.100084
DataValue, 9.3, 0.09988000000000001, 0.09988000000000001
DataValue, 9.35, 0.10002000000000001, 0.10002000000000001
DataValue, 9.4, 0.099946000000000007, 0.099946000000000007
DataValue, 9.4500000000000011, 0.10000200000000001, 0.10000200000000001
DataValue, 9.5, 0.1, 0.1
DataValue, 9.55, 0.10001000000000002, 0.10001000000000002
DataValue, 9.6, 0.10010200000000001, 0.10010200000000001
DataValue, 9.65, 0.10000600000000001, 0.10000600000000001
DataValue, 9.7000000000000011, 0.10000400000000001, 0.10000400000000001
DataValue, 9.75, 0.10000400000000001, 0.10000400000000001
DataValue, 9.8, 0.10000400000000001, 0.10000400000000001
DataValue, 9.85, 0.10000400000000001, 0.10000400000000001
DataValue, 9.9, 0.10000400000000001, 0.10000400000000001
DataValue, 9.9500000000000011, 0.10000400000000001, 0.10000400000000001
DataValue, 10, 0.10000400000000001, 0.10000400000000001