
SetupTitle, Break of oxide
PrimitiveTest, I/V Sweep
TestParameter, Context.MainFrame, B1500A
TestParameter, Channel.UnitType, SMU, SMU
TestParameter, Channel.Unit, SMU2:HR/AS, SMU1:HR/AS
TestParameter, Channel.IName, I1, I2
TestParameter, Channel.VName, V1, V2
TestParameter, Channel.Mode, V, V
TestParameter, Channel.Func, VAR1, CONST
TestParameter, Channel.Index, 
TestParameter, Channel.Time, 
TestParameter, Measurement.Port.Unit, SMU2:HR/AS, SMU1:HR/AS
TestParameter, Measurement.Port.SeriesResistor, NONE, NONE
TestParameter, Measurement.Port.Filter, ON, ON
TestParameter, Measurement.Port.OutputVoltageComparison, 0, 0
TestParameter, Measurement.Primary.Locus, Single
TestParameter, Measurement.Primary.Scale, LINEAR
TestParameter, Measurement.Primary.Start, 0
TestParameter, Measurement.Primary.Stop, 10
TestParameter, Measurement.Primary.Step, 0.05
TestParameter, Measurement.Primary.Compliance, 0.1
TestParameter, Measurement.Primary.PowerCompliance, 0
TestParameter, Measurement.Aborting.Condition, CONTINUE AT ANY
TestParameter, Measurement.PostOutput.Value, START
TestParameter, Measurement.PostOutput.Retention, OFF
TestParameter, Measurement.Bias.Source, 0, 0
TestParameter, Measurement.Bias.Compliance, 0.1, 0.1
TestParameter, Measurement.Monitor.Unit, SMU2:HR/AS, SMU1:HR/AS
TestParameter, Measurement.Monitor.Adc, HR ADC, HR ADC
TestParameter, Measurement.Monitor.Measurement, Compliance Side, Compliance Side
TestParameter, Measurement.Monitor.RangingMode, LIMITED, LIMITED
TestParameter, Measurement.Monitor.RangeBoundary, 1nA, 1nA
TestParameter, Measurement.Monitor.RangeRating, BY FULL RANGE, BY FULL RANGE
TestParameter, Measurement.Monitor.RangeRatingCoeff, 50, 50
TestParameter, Measurement.Timing.Hold, 1
TestParameter, Measurement.Timing.Delay, 0
TestParameter, Measurement.Adc.HighSpeed.Mode, AUTO
TestParameter, Measurement.Adc.HighSpeed.Coeff, 1
TestParameter, Measurement.Adc.HighResolution.AutoZero, OFF
TestParameter, Measurement.Adc.HighResolution.Mode, AUTO
TestParameter, Measurement.Adc.HighResolution.Coeff, 6
TestParameter, Measurement.WaitTime.Source.Coeff, 1
TestParameter, Measurement.WaitTime.Source.Offset, 0
TestParameter, Measurement.WaitTime.Monitor.Coeff, 1
TestParameter, Measurement.WaitTime.Monitor.Offset, 0
TestParameter, Function.Analysis.Name, absI
TestParameter, Function.Analysis.Unit, A
TestParameter, Function.Analysis.Definition, abs(I1)
TestParameter, Output.Graph.Enabled, true
TestParameter, Output.Graph.AutoScaling, false
TestParameter, Output.Graph.XAxis.Data, V1
TestParameter, Output.Graph.XAxis.Scale, Linear
TestParameter, Output.Graph.XAxis.Left, 0
TestParameter, Output.Graph.XAxis.Right, 3
TestParameter, Output.Graph.XAxis.RunTimeAutoScale, true
TestParameter, Output.Graph.YAxis.Data, I1, absI
TestParameter, Output.Graph.YAxis.Scale, Linear, Log
TestParameter, Output.Graph.YAxis.Bottom, 0.001, 0
TestParameter, Output.Graph.YAxis.Top, 0.01, 1
TestParameter, Output.Graph.YAxis.Group, , 
TestParameter, Output.Graph.YAxis.RunTimeAutoScale, true, true
TestParameter, AutoAnalysis.Interpolation, false
TestParameter, AutoAnalysis.Var2StepCount, 1
TestParameter, AutoAnalysis.Var2StepScript, 
TestParameter, AutoAnalysis.Line1.Enabled, false
TestParameter, AutoAnalysis.Line1.Type, 1
TestParameter, AutoAnalysis.Line1.Fix, True
TestParameter, AutoAnalysis.Line1.YAxis, 0
TestParameter, AutoAnalysis.Line1.Point1.Type, 0
TestParameter, AutoAnalysis.Line1.Point1.XY.X, 
TestParameter, AutoAnalysis.Line1.Point1.XY.Y, 
TestParameter, AutoAnalysis.Line1.Point1.Data.Var, 
TestParameter, AutoAnalysis.Line1.Point1.Data.Condition, 
TestParameter, AutoAnalysis.Line1.Point1.Data.Start, false
TestParameter, AutoAnalysis.Line1.Point1.Data.StartVar, 
TestParameter, AutoAnalysis.Line1.Point1.Data.StartCondition, 
TestParameter, AutoAnalysis.Line1.Point2.Type, 0
TestParameter, AutoAnalysis.Line1.Point2.XY.X, 
TestParameter, AutoAnalysis.Line1.Point2.XY.Y, 
TestParameter, AutoAnalysis.Line1.Point2.Data.Var, 
TestParameter, AutoAnalysis.Line1.Point2.Data.Condition, 
TestParameter, AutoAnalysis.Line1.Point2.Data.Start, false
TestParameter, AutoAnalysis.Line1.Point2.Data.StartVar, 
TestParameter, AutoAnalysis.Line1.Point2.Data.StartCondition, 
TestParameter, AutoAnalysis.Line1.GradientExpr, 0
TestParameter, AutoAnalysis.Line2.Enabled, false
TestParameter, AutoAnalysis.Line2.Type, 1
TestParameter, AutoAnalysis.Line2.Fix, True
TestParameter, AutoAnalysis.Line2.YAxis, 0
TestParameter, AutoAnalysis.Line2.Point1.Type, 0
TestParameter, AutoAnalysis.Line2.Point1.XY.X, 
TestParameter, AutoAnalysis.Line2.Point1.XY.Y, 
TestParameter, AutoAnalysis.Line2.Point1.Data.Var, 
TestParameter, AutoAnalysis.Line2.Point1.Data.Condition, 
TestParameter, AutoAnalysis.Line2.Point1.Data.Start, false
TestParameter, AutoAnalysis.Line2.Point1.Data.StartVar, 
TestParameter, AutoAnalysis.Line2.Point1.Data.StartCondition, 
TestParameter, AutoAnalysis.Line2.Point2.Type, 0
TestParameter, AutoAnalysis.Line2.Point2.XY.X, 
TestParameter, AutoAnalysis.Line2.Point2.XY.Y, 
TestParameter, AutoAnalysis.Line2.Point2.Data.Var, 
TestParameter, AutoAnalysis.Line2.Point2.Data.Condition, 
TestParameter, AutoAnalysis.Line2.Point2.Data.Start, false
TestParameter, AutoAnalysis.Line2.Point2.Data.StartVar, 
TestParameter, AutoAnalysis.Line2.Point2.Data.StartCondition, 
TestParameter, AutoAnalysis.Line2.GradientExpr, 0
TestParameter, AutoAnalysis.Marker.Enabled, false
TestParameter, AutoAnalysis.Marker.Data.Var, 
TestParameter, AutoAnalysis.Marker.Data.Condition, 
TestParameter, AutoAnalysis.Marker.Data.Start, false
TestParameter, AutoAnalysis.Marker.Data.StartVar, 
TestParameter, AutoAnalysis.Marker.Data.StartCondition, 
MetaData, TestRecord.EntryPoint, true
MetaData, TestRecord.RecordTime, 06/10/2021 09:32:39
MetaData, TestRecord.TestTarget, HZO5nmTiN_2_25um_D11
MetaData, TestRecord.IterationIndex, 4
MetaData, TestRecord.Preservation, true
MetaData, TestRecord.Flag, 
MetaData, TestRecord.Remarks, 
MetaData, TestRecord.LinkKey, 4580f120-9f6a-4c5f-959b-ab4421096d0c
MetaData, TestRecord.Parameters, 
Dimension1, 201, 201, 201
Dimension2, 1, 1, 1
DataName, V1, I1, absI
DataValue, 0, 4.673E-11, 4.673E-11
DataValue, 0.05, 3.9210000000000006E-11, 3.9210000000000006E-11
DataValue, 0.1, -3.1560000000000005E-11, 3.1560000000000005E-11
DataValue, 0.15, 3.821E-11, 3.821E-11
DataValue, 0.2, 6.2960000000000008E-11, 6.2960000000000008E-11
DataValue, 0.25, 9.5770000000000009E-11, 9.5770000000000009E-11
DataValue, 0.3, 5.743E-11, 5.743E-11
DataValue, 0.35000000000000003, 1.1087000000000001E-10, 1.1087000000000001E-10
DataValue, 0.4, 9.2380000000000008E-11, 9.2380000000000008E-11
DataValue, 0.45, 1.5203000000000002E-10, 1.5203000000000002E-10
DataValue, 0.5, 1.2131000000000002E-10, 1.2131000000000002E-10
DataValue, 0.55, 1.2958E-10, 1.2958E-10
DataValue, 0.6, 2.8009E-10, 2.8009E-10
DataValue, 0.65, 1.9949000000000003E-10, 1.9949000000000003E-10
DataValue, 0.70000000000000007, 3.6516E-10, 3.6516E-10
DataValue, 0.75, 3.2561000000000003E-10, 3.2561000000000003E-10
DataValue, 0.8, 5.623E-10, 5.623E-10
DataValue, 0.85, 5.5589E-10, 5.5589E-10
DataValue, 0.9, 8.815E-10, 8.815E-10
DataValue, 0.95000000000000007, 1.0589E-09, 1.0589E-09
DataValue, 1, 1.237E-09, 1.237E-09
DataValue, 1.05, 1.5523E-09, 1.5523E-09
DataValue, 1.1, 1.7342E-09, 1.7342E-09
DataValue, 1.1500000000000001, 2.1087E-09, 2.1087E-09
DataValue, 1.2, 2.355E-09, 2.355E-09
DataValue, 1.25, 2.823E-09, 2.823E-09
DataValue, 1.3, 3.1882E-09, 3.1882E-09
DataValue, 1.35, 3.8072E-09, 3.8072E-09
DataValue, 1.4000000000000001, 4.2822E-09, 4.2822E-09
DataValue, 1.45, 4.8908E-09, 4.8908E-09
DataValue, 1.5, 5.4553E-09, 5.4553E-09
DataValue, 1.55, 6.1277E-09, 6.1277E-09
DataValue, 1.6, 7.6581999999999991E-09, 7.6581999999999991E-09
DataValue, 1.6500000000000001, 9.204699999999999E-09, 9.204699999999999E-09
DataValue, 1.7, 1.0467799999999999E-08, 1.0467799999999999E-08
DataValue, 1.75, 1.2627199999999999E-08, 1.2627199999999999E-08
DataValue, 1.8, 1.4679999999999998E-08, 1.4679999999999998E-08
DataValue, 1.85, 1.7067999999999998E-08, 1.7067999999999998E-08
DataValue, 1.9000000000000001, 1.9822199999999998E-08, 1.9822199999999998E-08
DataValue, 1.95, 2.27965E-08, 2.27965E-08
DataValue, 2, 2.6149299999999998E-08, 2.6149299999999998E-08
DataValue, 2.05, 3.0517999999999996E-08, 3.0517999999999996E-08
DataValue, 2.1, 3.5175499999999996E-08, 3.5175499999999996E-08
DataValue, 2.15, 4.0219199999999995E-08, 4.0219199999999995E-08
DataValue, 2.2, 4.55579E-08, 4.55579E-08
DataValue, 2.25, 5.2097499999999994E-08, 5.2097499999999994E-08
DataValue, 2.3000000000000003, 5.9676399999999993E-08, 5.9676399999999993E-08
DataValue, 2.35, 6.76372E-08, 6.76372E-08
DataValue, 2.4, 7.6545799999999992E-08, 7.6545799999999992E-08
DataValue, 2.45, 8.2586E-08, 8.2586E-08
DataValue, 2.5, 9.396759999999999E-08, 9.396759999999999E-08
DataValue, 2.5500000000000003, 1.0662E-07, 1.0662E-07
DataValue, 2.6, 1.2444E-07, 1.2444E-07
DataValue, 2.65, 1.541E-07, 1.541E-07
DataValue, 2.7, 1.7318E-07, 1.7318E-07
DataValue, 2.75, 1.8256E-07, 1.8256E-07
DataValue, 2.8000000000000003, 2.0802E-07, 2.0802E-07
DataValue, 2.85, 2.366E-07, 2.366E-07
DataValue, 2.9, 3.0236E-07, 3.0236E-07
DataValue, 2.95, 3.2715999999999997E-07, 3.2715999999999997E-07
DataValue, 3, 3.7192E-07, 3.7192E-07
DataValue, 3.0500000000000003, 4.0934E-07, 4.0934E-07
DataValue, 3.1, 4.5801999999999997E-07, 4.5801999999999997E-07
DataValue, 3.15, 5.1522E-07, 5.1522E-07
DataValue, 3.2, 5.6656E-07, 5.6656E-07
DataValue, 3.25, 6.2106E-07, 6.2106E-07
DataValue, 3.3000000000000003, 7.0096E-07, 7.0096E-07
DataValue, 3.35, 7.866E-07, 7.866E-07
DataValue, 3.4, 8.5804E-07, 8.5804E-07
DataValue, 3.45, 9.6575999999999988E-07, 9.6575999999999988E-07
DataValue, 3.5, 1.08278E-06, 1.08278E-06
DataValue, 3.5500000000000003, 1.1655000000000001E-06, 1.1655000000000001E-06
DataValue, 3.6, 1.2741000000000002E-06, 1.2741000000000002E-06
DataValue, 3.65, 1.4141000000000002E-06, 1.4141000000000002E-06
DataValue, 3.7, 1.5634000000000001E-06, 1.5634000000000001E-06
DataValue, 3.75, 1.7330000000000002E-06, 1.7330000000000002E-06
DataValue, 3.8000000000000003, 1.9224E-06, 1.9224E-06
DataValue, 3.85, 2.1651000000000002E-06, 2.1651000000000002E-06
DataValue, 3.9, 2.5704000000000004E-06, 2.5704000000000004E-06
DataValue, 3.95, 2.8673000000000005E-06, 2.8673000000000005E-06
DataValue, 4, 3.0431E-06, 3.0431E-06
DataValue, 4.05, 0.100028, 0.100028
DataValue, 4.1, 0.10000200000000001, 0.10000200000000001
DataValue, 4.15, 0.099998, 0.099998
DataValue, 4.2, 0.10000400000000001, 0.10000400000000001
DataValue, 4.25, 0.099994000000000013, 0.099994000000000013
DataValue, 4.3, 0.10000200000000001, 0.10000200000000001
DataValue, 4.3500000000000005, 0.10000400000000001, 0.10000400000000001
DataValue, 4.4, 0.10000200000000001, 0.10000200000000001
DataValue, 4.45, 0.10000200000000001, 0.10000200000000001
DataValue, 4.5, 0.099986, 0.099986
DataValue, 4.55, 0.10000200000000001, 0.10000200000000001
DataValue, 4.6000000000000005, 0.100126, 0.100126
DataValue, 4.65, 0.10003000000000001, 0.10003000000000001
DataValue, 4.7, 0.10000400000000001, 0.10000400000000001
DataValue, 4.75, 0.10000400000000001, 0.10000400000000001
DataValue, 4.8, 0.10000400000000001, 0.10000400000000001
DataValue, 4.8500000000000005, 0.10000200000000001, 0.10000200000000001
DataValue, 4.9, 0.10000400000000001, 0.10000400000000001
DataValue, 4.95, 0.10000600000000001, 0.10000600000000001
DataValue, 5, 0.10000200000000001, 0.10000200000000001
DataValue, 5.05, 0.10000600000000001, 0.10000600000000001
DataValue, 5.1000000000000005, 0.10000400000000001, 0.10000400000000001
DataValue, 5.15, 0.10000400000000001, 0.10000400000000001
DataValue, 5.2, 0.10000600000000001, 0.10000600000000001
DataValue, 5.25, 0.10000200000000001, 0.10000200000000001
DataValue, 5.3, 0.1, 0.1
DataValue, 5.3500000000000005, 0.099994000000000013, 0.099994000000000013
DataValue, 5.4, 0.099992000000000011, 0.099992000000000011
DataValue, 5.45, 0.10001600000000001, 0.10001600000000001
DataValue, 5.5, 0.10002200000000001, 0.10002200000000001
DataValue, 5.55, 0.099984, 0.099984
DataValue, 5.6000000000000005, 0.10000400000000001, 0.10000400000000001
DataValue, 5.65, 0.10000400000000001, 0.10000400000000001
DataValue, 5.7, 0.100014, 0.100014
DataValue, 5.75, 0.10000200000000001, 0.10000200000000001
DataValue, 5.8, 0.099998, 0.099998
DataValue, 5.8500000000000005, 0.1, 0.1
DataValue, 5.9, 0.10000800000000001, 0.10000800000000001
DataValue, 5.95, 0.10000200000000001, 0.10000200000000001
DataValue, 6, 0.09997, 0.09997
DataValue, 6.05, 0.100026, 0.100026
DataValue, 6.1000000000000005, 0.10000600000000001, 0.10000600000000001
DataValue, 6.15, 0.099984, 0.099984
DataValue, 6.2, 0.10004, 0.10004
DataValue, 6.25, 0.099978000000000011, 0.099978000000000011
DataValue, 6.3, 0.10001800000000001, 0.10001800000000001
DataValue, 6.3500000000000005, 0.099994000000000013, 0.099994000000000013
DataValue, 6.4, 0.10001000000000002, 0.10001000000000002
DataValue, 6.45, 0.10000200000000001, 0.10000200000000001
DataValue, 6.5, 0.10003600000000001, 0.10003600000000001
DataValue, 6.55, 0.10000400000000001, 0.10000400000000001
DataValue, 6.6000000000000005, 0.10000400000000001, 0.10000400000000001
DataValue, 6.65, 0.10000800000000001, 0.10000800000000001
DataValue, 6.7, 0.10000200000000001, 0.10000200000000001
DataValue, 6.75, 0.10000400000000001, 0.10000400000000001
DataValue, 6.8, 0.10000400000000001, 0.10000400000000001
DataValue, 6.8500000000000005, 0.10000400000000001, 0.10000400000000001
DataValue, 6.9, 0.10000400000000001, 0.10000400000000001
DataValue, 6.95, 0.10000200000000001, 0.10000200000000001
DataValue, 7, 0.10000600000000001, 0.10000600000000001
DataValue, 7.05, 0.10000600000000001, 0.10000600000000001
DataValue, 7.1000000000000005, 0.10000200000000001, 0.10000200000000001
DataValue, 7.15, 0.10000400000000001, 0.10000400000000001
DataValue, 7.2, 0.10000800000000001, 0.10000800000000001
DataValue, 7.25, 0.10001000000000002, 0.10001000000000002
DataValue, 7.3, 0.10000400000000001, 0.10000400000000001
DataValue, 7.3500000000000005, 0.10000400000000001, 0.10000400000000001
DataValue, 7.4, 0.10000400000000001, 0.10000400000000001
DataValue, 7.45, 0.10000400000000001, 0.10000400000000001
DataValue, 7.5, 0.099998, 0.099998
DataValue, 7.55, 0.10000200000000001, 0.10000200000000001
DataValue, 7.6000000000000005, 0.1, 0.1
DataValue, 7.65, 0.1, 0.1
DataValue, 7.7, 0.099996000000000015, 0.099996000000000015
DataValue, 7.75, 0.10000600000000001, 0.10000600000000001
DataValue, 7.8, 0.099998, 0.099998
DataValue, 7.8500000000000005, 0.10000600000000001, 0.10000600000000001
DataValue, 7.9, 0.10000400000000001, 0.10000400000000001
DataValue, 7.95, 0.10000200000000001, 0.10000200000000001
DataValue, 8, 0.10000200000000001, 0.10000200000000001
DataValue, 8.05, 0.10000600000000001, 0.10000600000000001
DataValue, 8.1, 0.10000600000000001, 0.10000600000000001
DataValue, 8.15, 0.10000600000000001, 0.10000600000000001
DataValue, 8.2, 0.10000200000000001, 0.10000200000000001
DataValue, 8.25, 0.100024, 0.100024
DataValue, 8.3, 0.10000400000000001, 0.10000400000000001
DataValue, 8.35, 0.10000200000000001, 0.10000200000000001
DataValue, 8.4, 0.099980000000000013, 0.099980000000000013
DataValue, 8.45, 0.10000400000000001, 0.10000400000000001
DataValue, 8.5, 0.10000800000000001, 0.10000800000000001
DataValue, 8.55, 0.10000200000000001, 0.10000200000000001
DataValue, 8.6, 0.10000200000000001, 0.10000200000000001
DataValue, 8.65, 0.10000400000000001, 0.10000400000000001
DataValue, 8.7000000000000011, 0.10000200000000001, 0.10000200000000001
DataValue, 8.75, 0.10000400000000001, 0.10000400000000001
DataValue, 8.8, 0.10000400000000001, 0.10000400000000001
DataValue, 8.85, 0.10000400000000001, 0.10000400000000001
DataValue, 8.9, 0.10000200000000001, 0.10000200000000001
DataValue, 8.9500000000000011, 0.10000400000000001, 0.10000400000000001
DataValue, 9, 0.10000400000000001, 0.10000400000000001
DataValue, 9.05, 0.10001000000000002, 0.10001000000000002
DataValue, 9.1, 0.100014, 0.100014
DataValue, 9.15, 0.10000800000000001, 0.10000800000000001
DataValue, 9.2000000000000011, 0.10000400000000001, 0.10000400000000001
DataValue, 9.25, 0.10002200000000001, 0.10002200000000001
DataValue, 9.3, 0.10000400000000001, 0.10000400000000001
DataValue, 9.35, 0.10000200000000001, 0.10000200000000001
DataValue, 9.4, 0.10000200000000001, 0.10000200000000001
DataValue, 9.4500000000000011, 0.1, 0.1
DataValue, 9.5, 0.10000400000000001, 0.10000400000000001
DataValue, 9.55, 0.10000200000000001, 0.10000200000000001
DataValue, 9.6, 0.10000400000000001, 0.10000400000000001
DataValue, 9.65, 0.10000600000000001, 0.10000600000000001
DataValue, 9.7000000000000011, 0.10000400000000001, 0.10000400000000001
DataValue, 9.75, 0.1, 0.1
DataValue, 9.8, 0.10000400000000001, 0.10000400000000001
DataValue, 9.85, 0.10000800000000001, 0.10000800000000001
DataValue, 9.9, 0.10000200000000001, 0.10000200000000001
DataValue, 9.9500000000000011, 0.10000400000000001, 0.10000400000000001
DataValue, 10, 0.10000200000000001, 0.10000200000000001