
SetupTitle, FE PUND 2V - reverse
ApplicationTest, WGFMU Pattern Editor, Public
TestParameter, Name, ExecutionMode, Enable1, Channel1, OperationMode1, VForceRange1, InitMeasRange1, Enable2, Channel2, OperationMode2, VForceRange2, InitMeasRange2, RepeatCount, WaveformCh1, WaveformCh2, MeasurementEvent, Output_to_File_for_PatternValidation, Output_Enable, Output_Filename, DataDisplay_for_RunVector, DataDisplay_PatternValidation, DataDisplay_Mode, LogToFile, LogFile, WarningLevel, IForceRange1, IForceRange2, Result_Update_Interval_s
TestParameter, Value, Run Vector, Enable, WGFMU1:RS	RSWGFMU, Fast IV Imeas, Auto, 10uA (Imeas), Enable, WGFMU2:RS	RSWGFMU, PG Vmeas, Auto, 5V (Vmeas), 1, , Disable, C:\WGFMUPatternEditor_Pattern.csv, , Disable, x(time)_y(meas), Disable, C:\WGFMUPatternEditor_Log.log, 2, 10mA, 10mA, 10
MetaData, TestRecord.EntryPoint, true
MetaData, TestRecord.RecordTime, 06/10/2021 09:40:34
MetaData, TestRecord.TestTarget, HZO5nmTiN_2_25um_D12
MetaData, TestRecord.IterationIndex, 3
MetaData, TestRecord.Preservation, true
MetaData, TestRecord.Flag, 
MetaData, TestRecord.Remarks, 
MetaData, TestRecord.LinkKey, 31582f4f-6455-4207-8b14-1dba2d655ce5
MetaData, TestRecord.Parameters, 
Dimension1, 5000, 5000, 5000, 5000, 5000
Dimension2, 1, 1, 1, 1, 1
DataName, Time, MeasResult1_value, MeasResult2_value, MeasResult1_time, MeasResult2_time
DataValue, 5.0000000000000008E-07, 1.68690349E-07, -0.000364071311196, 5.0000000000000008E-07, 5.0000000000000008E-07
DataValue, 1.5E-06, -2.67391982E-07, -0.00020211542141600002, 1.5E-06, 1.5E-06
DataValue, 2.5E-06, 4.115326E-08, -0.00033590506063800005, 2.5E-06, 2.5E-06
DataValue, 3.5000000000000004E-06, 3.2923705E-08, -0.00041688300552800004, 3.5000000000000004E-06, 3.5000000000000004E-06
DataValue, 4.5E-06, 2.7119555E-08, -0.00034294661600100005, 4.5E-06, 4.5E-06
DataValue, 5.5000000000000007E-06, -8.5672900000000009E-10, -8.4725097620000011E-06, 5.5000000000000007E-06, 5.5000000000000007E-06
DataValue, 6.5000000000000004E-06, -3.4062356000000005E-08, -0.00038519597728700004, 6.5000000000000004E-06, 6.5000000000000004E-06
DataValue, 7.5E-06, 9.419701E-09, -0.000251406338066, 7.5E-06, 7.5E-06
DataValue, 8.5E-06, -3.0627533E-08, -0.00032886350527400003, 8.5E-06, 8.5E-06
DataValue, 9.5E-06, -1.4474777300000002E-07, -0.00021619853214400003, 9.5E-06, 9.5E-06
DataValue, 1.0500000000000001E-05, 4.1303945900000005E-07, -0.000121137476526, 1.0500000000000001E-05, 1.0500000000000001E-05
DataValue, 1.15E-05, -2.85337194E-07, -0.00051546486793100006, 1.15E-05, 1.15E-05
DataValue, 1.25E-05, -2.6071135000000002E-08, -0.000476736255223, 1.25E-05, 1.25E-05
DataValue, 1.3500000000000001E-05, -1.5766664E-08, -0.000413362227846, 1.3500000000000001E-05, 1.3500000000000001E-05
DataValue, 1.45E-05, 2.1629418300000002E-07, -0.00037111286656, 1.45E-05, 1.45E-05
DataValue, 1.55E-05, -1.35417679E-07, -0.000476736255223, 1.55E-05, 1.55E-05
DataValue, 1.65E-05, -8.1161488E-08, -0.000233802435105, 1.65E-05, 1.65E-05
DataValue, 1.7500000000000002E-05, 1.3884944400000002E-07, -0.00036759208887800004, 1.7500000000000002E-05, 1.7500000000000002E-05
DataValue, 1.8500000000000002E-05, 3.5923918000000005E-08, -0.00024788556038400004, 1.8500000000000002E-05, 1.8500000000000002E-05
DataValue, 1.95E-05, -5.4229673E-08, -0.00022676087974100002, 1.95E-05, 1.95E-05
DataValue, 2.05E-05, 2.4687139000000003E-08, -0.000184511518455, 2.05E-05, 2.05E-05
DataValue, 2.15E-05, -4.144372E-08, -8.4725097620000011E-06, 2.15E-05, 2.15E-05
DataValue, 2.25E-05, 8.1607062000000011E-08, -0.00015282449021500002, 2.25E-05, 2.25E-05
DataValue, 2.3500000000000002E-05, -1.7553500700000002E-07, 5.1380753575E-05, 2.3500000000000002E-05, 2.3500000000000002E-05
DataValue, 2.4500000000000003E-05, 1.1235924500000001E-07, -0.00045561158913200005, 2.4500000000000003E-05, 2.4500000000000003E-05
DataValue, 2.5500000000000003E-05, -1.31408044E-07, -0.00013874137948700002, 2.5500000000000003E-05, 2.5500000000000003E-05
DataValue, 2.65E-05, 2.0012949200000002E-07, -0.00015986606013, 2.65E-05, 2.65E-05
DataValue, 2.75E-05, 3.1178253E-08, -0.000180990740773, 2.75E-05, 2.75E-05
DataValue, 2.85E-05, -2.1762210200000001E-07, -5.4242649639000004E-05, 2.85E-05, 2.85E-05
DataValue, 2.9500000000000002E-05, 7.9938722000000009E-08, -7.5367330282E-05, 2.9500000000000002E-05, 2.9500000000000002E-05
DataValue, 3.0500000000000003E-05, 1.35456673E-07, -7.888811524E-05, 3.0500000000000003E-05, 3.0500000000000003E-05
DataValue, 3.15E-05, -1.53727385E-07, -2.6076409995000002E-05, 3.15E-05, 3.15E-05
DataValue, 3.2500000000000004E-05, 3.0175848E-08, -5.7763430959E-05, 3.2500000000000004E-05, 3.2500000000000004E-05
DataValue, 3.35E-05, 1.3245646400000002E-07, -4.3680309318E-05, 3.35E-05, 3.35E-05
DataValue, 3.4500000000000005E-05, -3.33179372E-07, 3.3776850614E-05, 3.4500000000000005E-05, 3.4500000000000005E-05
DataValue, 3.55E-05, 3.7698080700000005E-07, 9.0109329903E-05, 3.55E-05, 3.55E-05
DataValue, 3.65E-05, -4.4079421000000006E-08, -0.000195073851501, 3.65E-05, 3.65E-05
DataValue, 3.7500000000000003E-05, -9.5265293E-08, -0.000251406338066, 3.7500000000000003E-05, 3.7500000000000003E-05
DataValue, 3.85E-05, -5.6914445E-08, -9.2971233244E-05, 3.85E-05, 3.85E-05
DataValue, 3.9500000000000005E-05, 9.8430689000000013E-08, -0.000124658254208, 3.9500000000000005E-05, 3.9500000000000005E-05
DataValue, 4.05E-05, 1.5055880000000002E-09, -0.000149303712533, 4.05E-05, 4.05E-05
DataValue, 4.1500000000000006E-05, -6.3896245000000007E-08, -0.00013874137948700002, 4.1500000000000006E-05, 4.1500000000000006E-05
DataValue, 4.25E-05, 1.70568981E-07, -0.00024084399046800001, 4.25E-05, 4.25E-05
DataValue, 4.35E-05, -1.60653116E-07, -0.00020211542141600002, 4.35E-05, 4.35E-05
DataValue, 4.4500000000000004E-05, -3.1545820000000006E-08, -0.00027957258862400003, 4.4500000000000004E-05, 4.4500000000000004E-05
DataValue, 4.55E-05, -1.5515739400000002E-07, -0.00019155307381900003, 4.55E-05, 4.55E-05
DataValue, 4.6500000000000005E-05, 1.04255868E-07, -0.00014226215716900002, 4.6500000000000005E-05, 4.6500000000000005E-05
DataValue, 4.75E-05, 4.1125193200000005E-07, -0.000156345267897, 4.75E-05, 4.75E-05
DataValue, 4.85E-05, -4.4505645700000005E-07, -0.000459132366814, 4.85E-05, 4.85E-05
DataValue, 4.9500000000000004E-05, 1.76947935E-07, -0.00037463364424200006, 4.9500000000000004E-05, 4.9500000000000004E-05
DataValue, 5.05E-05, 1.55504836E-07, -4.7201090638000005E-05, 5.05E-05, 5.05E-05
DataValue, 5.1500000000000005E-05, -1.80217583E-07, -0.000511944061145, 5.1500000000000005E-05, 5.1500000000000005E-05
DataValue, 5.25E-05, 3.5909899E-08, -0.00061756744980800006, 5.25E-05, 5.25E-05
DataValue, 5.3500000000000006E-05, 1.01038346E-07, -0.00071967008989300011, 5.3500000000000006E-05, 5.3500000000000006E-05
DataValue, 5.45E-05, -1.1256558700000001E-07, -0.00051546486793100006, 5.45E-05, 5.45E-05
DataValue, 5.55E-05, 9.3741100000000011E-08, -0.00044504925608600005, 5.55E-05, 5.55E-05
DataValue, 5.6500000000000005E-05, 3.987072E-09, -0.000409841450164, 5.6500000000000005E-05, 5.6500000000000005E-05
DataValue, 5.75E-05, -8.2156888E-08, -0.000469694699859, 5.75E-05, 5.75E-05
DataValue, 5.8500000000000006E-05, 2.4287578000000003E-08, -0.0004027998948, 5.8500000000000006E-05, 5.8500000000000006E-05
DataValue, 5.95E-05, 7.5908062000000007E-08, -0.000438007671619, 5.95E-05, 5.95E-05
DataValue, 6.0500000000000007E-05, -6.9721423E-08, -0.000195073851501, 6.0500000000000007E-05, 6.0500000000000007E-05
DataValue, 6.15E-05, 2.4589001000000003E-08, -0.000149303712533, 6.15E-05, 6.15E-05
DataValue, 6.25E-05, 1.4147813900000002E-07, -0.00037815442192400004, 6.25E-05, 6.25E-05
DataValue, 6.35E-05, -1.52640865E-07, -0.000251406338066, 6.35E-05, 6.35E-05
DataValue, 6.4500000000000009E-05, 9.7042737E-08, -0.00022676087974100002, 6.4500000000000009E-05, 6.4500000000000009E-05
DataValue, 6.55E-05, -5.6262529000000004E-08, -0.000476736255223, 6.55E-05, 6.55E-05
DataValue, 6.65E-05, -1.98877785E-07, -0.000349988171365, 6.65E-05, 6.65E-05
DataValue, 6.75E-05, 1.4180759000000002E-07, -8.5929670604000007E-05, 6.75E-05, 6.75E-05
DataValue, 6.85E-05, 2.599124E-09, -5.4242649639000004E-05, 6.85E-05, 6.85E-05
DataValue, 6.9500000000000009E-05, 1.1501625E-08, -0.00016690761549400003, 6.9500000000000009E-05, 6.9500000000000009E-05
DataValue, 7.05E-05, -1.2324858300000002E-07, -0.000311259587761, 7.05E-05, 7.05E-05
DataValue, 7.15E-05, -2.83332383E-07, -0.000254927115748, 7.15E-05, 7.15E-05
DataValue, 7.25E-05, 5.11100154E-07, -0.00016338683781200002, 7.25E-05, 7.25E-05
DataValue, 7.3500000000000011E-05, -3.36908613E-07, -0.00044504925608600005, 7.3500000000000011E-05, 7.3500000000000011E-05
DataValue, 7.4500000000000008E-05, 1.6277402900000003E-07, -0.000269010226475, 7.4500000000000008E-05, 7.4500000000000008E-05
DataValue, 7.55E-05, -9.7711727000000011E-08, -0.000276051810943, 7.55E-05, 7.55E-05
DataValue, 7.65E-05, 1.8030564800000002E-07, -0.000663337588776, 7.65E-05, 7.65E-05
DataValue, 7.75E-05, -1.5689583700000002E-07, -0.00042392456089100004, 7.75E-05, 7.75E-05
DataValue, 7.8500000000000011E-05, 9.9285884000000009E-08, -0.00042392456089100004, 7.8500000000000011E-05, 7.8500000000000011E-05
DataValue, 7.9500000000000008E-05, -1.7796742200000002E-07, -0.00037111286656, 7.9500000000000008E-05, 7.9500000000000008E-05
DataValue, 8.05E-05, 4.3024887000000003E-08, -0.0004027998948, 8.05E-05, 8.05E-05
DataValue, 8.15E-05, 2.33678591E-07, -0.000293655699352, 8.15E-05, 8.15E-05
DataValue, 8.25E-05, -2.7023097000000003E-07, -0.00048025703290500006, 8.25E-05, 8.25E-05
DataValue, 8.350000000000001E-05, 1.5971073700000002E-07, -0.00031478036544300004, 8.350000000000001E-05, 8.350000000000001E-05
DataValue, 8.4500000000000008E-05, 2.42349785E-07, -0.00046617392217700003, 8.4500000000000008E-05, 8.4500000000000008E-05
DataValue, 8.55E-05, -3.8506621500000003E-07, -0.000184511518455, 8.55E-05, 8.55E-05
DataValue, 8.65E-05, 9.6587101000000012E-08, -0.00019859462918200003, 8.65E-05, 8.65E-05
DataValue, 8.75E-05, 7.597142E-09, -0.00029717647703400005, 8.75E-05, 8.75E-05
DataValue, 8.850000000000001E-05, 1.7228666E-08, -0.00034294661600100005, 8.850000000000001E-05, 8.850000000000001E-05
DataValue, 8.9500000000000007E-05, -2.3080761500000002E-07, 3.7297631934E-05, 8.9500000000000007E-05, 8.9500000000000007E-05
DataValue, 9.05E-05, 2.0561118700000002E-07, -4.0159531636E-05, 9.05E-05, 9.05E-05
DataValue, 9.15E-05, -8.9874725000000011E-08, 5.610610515E-06, 9.15E-05, 9.15E-05
DataValue, 9.2500000000000012E-05, -1.8388347E-08, 0.00038585485890500006, 9.2500000000000012E-05, 9.2500000000000012E-05
DataValue, 9.3500000000000009E-05, 2.51217216E-07, 0.00023798209440400003, 9.3500000000000009E-05, 9.3500000000000009E-05
DataValue, 9.45E-05, -1.9669070600000002E-07, 7.9546989582E-05, 9.45E-05, 9.45E-05
DataValue, 9.55E-05, -5.3143147000000005E-08, 9.7150892543E-05, 9.55E-05, 9.55E-05
DataValue, 9.65E-05, -1.5737249700000002E-07, -6.8325774919E-05, 9.65E-05, 9.65E-05
DataValue, 9.7500000000000012E-05, 5.9841477200000007E-07, -0.000103533573565, 9.7500000000000012E-05, 9.7500000000000012E-05
DataValue, 9.8500000000000009E-05, -4.75612353E-07, 4.4339190936000006E-05, 9.8500000000000009E-05, 9.8500000000000009E-05
DataValue, 9.95E-05, 4.7511450000000006E-09, -5.7763430959E-05, 9.95E-05, 9.95E-05
DataValue, 0.0001005, 1.1468651500000001E-07, 0.002216660417616, 0.0001005, 0.0001005
DataValue, 0.0001015, -6.57552846E-07, 0.007170398253947, 0.0001015, 0.0001015
DataValue, 0.00010250000000000001, -6.2718591E-08, 0.012356507591903002, 0.00010250000000000001, 0.00010250000000000001
DataValue, 0.00010350000000000001, -2.5126235000000004E-07, 0.017000416293740002, 0.00010350000000000001, 0.00010350000000000001
DataValue, 0.0001045, -4.2627709700000003E-07, 0.022087942808866, 0.0001045, 0.0001045
DataValue, 0.0001055, -2.1783941400000002E-07, 0.026816351339221, 0.0001055, 0.0001055
DataValue, 0.0001065, -2.8732799300000004E-07, 0.032101042568684006, 0.0001065, 0.0001065
DataValue, 0.00010750000000000001, -3.2005692700000004E-07, 0.037304755300283, 0.00010750000000000001, 0.00010750000000000001
DataValue, 0.00010850000000000001, -4.4242776200000006E-07, 0.042258493602276, 0.00010850000000000001, 0.00010850000000000001
DataValue, 0.0001095, 5.7584334E-08, 0.04719814658165, 0.0001095, 0.0001095
DataValue, 0.0001105, -7.09334529E-07, 0.052246946841478, 0.0001105, 0.0001105
DataValue, 0.00011150000000000001, -2.6370480600000003E-07, 0.057000000029802, 0.00011150000000000001, 0.00011150000000000001
DataValue, 0.00011250000000000001, -2.0480109700000002E-07, 0.061946693807840007, 0.00011250000000000001, 0.00011250000000000001
DataValue, 0.00011350000000000001, -3.5721612300000004E-07, 0.067361652851105, 0.00011350000000000001, 0.00011350000000000001
DataValue, 0.0001145, -3.85563908E-07, 0.072290748357773008, 0.0001145, 0.0001145
DataValue, 0.0001155, -5.42654504E-07, 0.077103652060032, 0.0001155, 0.0001155
DataValue, 0.00011650000000000001, -4.006278E-08, 0.081965848803520008, 0.00011650000000000001, 0.00011650000000000001
DataValue, 0.00011750000000000001, -5.11201335E-07, 0.086641445755959, 0.00011750000000000001, 0.00011750000000000001
DataValue, 0.00011850000000000001, -5.0155580300000007E-07, 0.091676160693169, 0.00011850000000000001, 0.00011850000000000001
DataValue, 0.0001195, -2.590713E-07, 0.096721440553665008, 0.0001195, 0.0001195
DataValue, 0.0001205, -4.75317961E-07, 0.101692780852318, 0.0001205, 0.0001205
DataValue, 0.00012150000000000001, -6.0915687100000007E-07, 0.106516249477863, 0.00012150000000000001, 0.00012150000000000001
DataValue, 0.0001225, -1.7925696E-08, 0.11154392361640901, 0.0001225, 0.0001225
DataValue, 0.00012350000000000002, -5.1254022500000008E-07, 0.11636739224195501, 0.00012350000000000002, 0.00012350000000000002
DataValue, 0.00012450000000000002, -4.0505830200000004E-07, 0.12138450145721401, 0.00012450000000000002, 0.00012450000000000002
DataValue, 0.00012550000000000002, -2.83535655E-07, 0.12627486884594, 0.00012550000000000002, 0.00012550000000000002
DataValue, 0.0001265, -3.42705732E-07, 0.131401121616363, 0.0001265, 0.0001265
DataValue, 0.0001275, -5.26917404E-07, 0.136386543512344, 0.0001275, 0.0001275
DataValue, 0.0001285, -2.37852504E-07, 0.141280427575111, 0.0001285, 0.0001285
DataValue, 0.0001295, -6.1172949E-07, 0.146441891789436, 0.0001295, 0.0001295
DataValue, 0.0001305, -3.7757269000000003E-07, 0.15135690569877602, 0.0001305, 0.0001305
DataValue, 0.0001315, -3.8789821100000005E-07, 0.156359940767288, 0.0001315, 0.0001315
DataValue, 0.0001325, -5.8334666200000006E-07, 0.16133831441402402, 0.0001325, 0.0001325
DataValue, 0.00013350000000000002, -4.7903319E-07, 0.16655963659286502, 0.00013350000000000002, 0.00013350000000000002
DataValue, 0.00013450000000000002, 8.809844E-09, 0.17144295573234603, 0.00013450000000000002, 0.00013450000000000002
DataValue, 0.00013550000000000001, -8.45255386E-07, 0.17651991546154, 0.00013550000000000001, 0.00013550000000000001
DataValue, 0.0001365, -5.21996469E-07, 0.181346908211708, 0.0001365, 0.0001365
DataValue, 0.0001375, -2.4833221300000003E-07, 0.186487257480621, 0.0001375, 0.0001375
DataValue, 0.0001385, -6.26674478E-07, 0.19116637110710102, 0.0001385, 0.0001385
DataValue, 0.0001395, -5.05109767E-07, 0.19634543359279602, 0.0001395, 0.0001395
DataValue, 0.0001405, -4.4251888200000004E-07, 0.201813206076622, 0.0001405, 0.0001405
DataValue, 0.0001415, -5.47259958E-07, 0.206900730729103, 0.0001415, 0.0001415
DataValue, 0.00014250000000000002, -3.9260180500000004E-07, 0.212062194943428, 0.00014250000000000002, 0.00014250000000000002
DataValue, 0.00014350000000000002, -3.39677484E-07, 0.217371538281441, 0.00014350000000000002, 0.00014350000000000002
DataValue, 0.00014450000000000002, -5.66389815E-07, 0.22243793308734902, 0.00014450000000000002, 0.00014450000000000002
DataValue, 0.0001455, -5.1495158000000006E-07, 0.227120578289032, 0.0001455, 0.0001455
DataValue, 0.0001465, -8.41091548E-07, 0.23212008178234103, 0.0001465, 0.0001465
DataValue, 0.0001475, 7.8053077E-08, 0.23703861236572302, 0.0001475, 0.0001475
DataValue, 0.0001485, -6.9894593900000009E-07, 0.24191136658191703, 0.0001485, 0.0001485
DataValue, 0.0001495, -6.2030955E-07, 0.247118607163429, 0.0001495, 0.0001495
DataValue, 0.0001505, -4.6725662600000006E-07, 0.251854062080383, 0.0001505, 0.0001505
DataValue, 0.0001515, -5.04254558E-07, 0.257004946470261, 0.0001515, 0.0001515
DataValue, 0.00015250000000000002, -6.38696349E-07, 0.262050241231918, 0.00015250000000000002, 0.00015250000000000002
DataValue, 0.00015350000000000002, -4.2057809000000003E-07, 0.26723986864090005, 0.00015350000000000002, 0.00015350000000000002
DataValue, 0.00015450000000000002, -4.6977317E-07, 0.27224642038345304, 0.00015450000000000002, 0.00015450000000000002
DataValue, 0.0001555, -6.62999469E-07, 0.277481824159622, 0.0001555, 0.0001555
DataValue, 0.0001565, -4.1009838000000005E-07, 0.282143324613571, 0.0001565, 0.0001565
DataValue, 0.0001575, -6.01354941E-07, 0.28717803955078103, 0.0001575, 0.0001575
DataValue, 0.0001585, -6.7007943000000008E-07, 0.29189941287040705, 0.0001585, 0.0001585
DataValue, 0.0001595, -1.3761175000000002E-07, 0.297018617391586, 0.0001595, 0.0001595
DataValue, 0.0001605, -7.8909255300000008E-07, 0.30181393027305603, 0.0001605, 0.0001605
DataValue, 0.00016150000000000002, -6.06240803E-07, 0.306774705648422, 0.00016150000000000002, 0.00016150000000000002
DataValue, 0.00016250000000000002, -5.06168249E-07, 0.311749577522278, 0.00016250000000000002, 0.00016250000000000002
DataValue, 0.00016350000000000002, -3.80621969E-07, 0.31656599044799805, 0.00016350000000000002, 0.00016350000000000002
DataValue, 0.00016450000000000001, -6.9084256900000007E-07, 0.32136130332946805, 0.00016450000000000001, 0.00016450000000000001
DataValue, 0.0001655, -6.662380090000001E-07, 0.32621294260025, 0.0001655, 0.0001655
DataValue, 0.0001665, -2.70609519E-07, 0.33122301101684604, 0.0001665, 0.0001665
DataValue, 0.0001675, -7.25015582E-07, 0.336518257856369, 0.0001675, 0.0001675
DataValue, 0.0001685, -5.5884726200000008E-07, 0.34118327498436, 0.0001685, 0.0001685
DataValue, 0.0001695, -4.7901915E-07, 0.346313059329987, 0.0001695, 0.0001695
DataValue, 0.0001705, -6.5457368200000009E-07, 0.351463973522186, 0.0001705, 0.0001705
DataValue, 0.00017150000000000002, -7.0945373E-07, 0.35634729266166704, 0.00017150000000000002, 0.00017150000000000002
DataValue, 0.00017250000000000002, -2.57430997E-07, 0.36160027980804404, 0.00017250000000000002, 0.00017250000000000002
DataValue, 0.00017350000000000002, -7.5343348300000008E-07, 0.36621251702308705, 0.00017350000000000002, 0.00017350000000000002
DataValue, 0.0001745, -6.7535080500000008E-07, 0.371123999357223, 0.0001745, 0.0001745
DataValue, 0.0001755, -3.33179372E-07, 0.376134067773819, 0.0001755, 0.0001755
DataValue, 0.0001765, -6.0376629600000008E-07, 0.381211042404175, 0.0001765, 0.0001765
DataValue, 0.0001775, -7.2790362500000007E-07, 0.38650277256965604, 0.0001775, 0.0001775
DataValue, 0.0001785, -6.27648831E-07, 0.39157974720001204, 0.0001785, 0.0001785
DataValue, 0.0001795, -6.42502698E-07, 0.39642080664634705, 0.0001795, 0.0001795
DataValue, 0.00018050000000000002, -4.48722602E-07, 0.40124428272247303, 0.00018050000000000002, 0.00018050000000000002
DataValue, 0.00018150000000000002, -7.2231677E-07, 0.406616985797882, 0.00018150000000000002, 0.00018150000000000002
DataValue, 0.00018250000000000002, -7.55080805E-07, 0.411602407693863, 0.00018250000000000002, 0.00018250000000000002
DataValue, 0.00018350000000000002, -7.39827385E-07, 0.416471660137176, 0.00018350000000000002, 0.00018350000000000002
DataValue, 0.0001845, -1.2027641100000002E-07, 0.421358495950699, 0.0001845, 0.0001845
DataValue, 0.0001855, -9.62480954E-07, 0.42665374279022206, 0.0001855, 0.0001855
