
SetupTitle, FE PUND 1.5V - reverse
ApplicationTest, WGFMU Pattern Editor, Public
TestParameter, Name, ExecutionMode, Enable1, Channel1, OperationMode1, VForceRange1, InitMeasRange1, Enable2, Channel2, OperationMode2, VForceRange2, InitMeasRange2, RepeatCount, WaveformCh1, WaveformCh2, MeasurementEvent, Output_to_File_for_PatternValidation, Output_Enable, Output_Filename, DataDisplay_for_RunVector, DataDisplay_PatternValidation, DataDisplay_Mode, LogToFile, LogFile, WarningLevel, IForceRange1, IForceRange2, Result_Update_Interval_s
TestParameter, Value, Run Vector, Enable, WGFMU1:RS	RSWGFMU, Fast IV Imeas, Auto, 10uA (Imeas), Enable, WGFMU2:RS	RSWGFMU, PG Vmeas, Auto, 5V (Vmeas), 1, , Disable, C:\WGFMUPatternEditor_Pattern.csv, , Disable, x(time)_y(meas), Disable, C:\WGFMUPatternEditor_Log.log, 2, 10mA, 10mA, 10
MetaData, TestRecord.EntryPoint, true
MetaData, TestRecord.RecordTime, 06/10/2021 10:57:11
MetaData, TestRecord.TestTarget, HZO5nmW_1_25um_E12
MetaData, TestRecord.IterationIndex, 4
MetaData, TestRecord.Preservation, true
MetaData, TestRecord.Flag, 
MetaData, TestRecord.Remarks, 
MetaData, TestRecord.LinkKey, 7cde0103-2e9f-4ae3-931e-ad82c667d43b
MetaData, TestRecord.Parameters, 
Dimension1, 5000, 5000, 5000, 5000, 5000
Dimension2, 1, 1, 1, 1, 1
DataName, Time, MeasResult1_value, MeasResult2_value, MeasResult1_time, MeasResult2_time
DataValue, 5.0000000000000008E-07, 5.4311E-09, -0.000691503868438, 5.0000000000000008E-07, 5.0000000000000008E-07
DataValue, 1.5E-06, -5.665481E-09, -0.000568276562262, 1.5E-06, 1.5E-06
DataValue, 2.5E-06, -1.6979100000000002E-09, -0.00065981684019800007, 2.5E-06, 2.5E-06
DataValue, 3.5000000000000004E-06, -1.2584196000000002E-08, -0.000504902505782, 3.5000000000000004E-06, 3.5000000000000004E-06
DataValue, 4.5E-06, 3.1206294E-08, -0.000818251923192, 4.5E-06, 4.5E-06
DataValue, 5.5000000000000007E-06, -5.991465500000001E-08, -0.000684462313075, 5.5000000000000007E-06, 5.5000000000000007E-06
DataValue, 6.5000000000000004E-06, 4.0543405E-08, -0.00083937658928300008, 6.5000000000000004E-06, 6.5000000000000004E-06
DataValue, 7.5E-06, 3.3982460000000003E-09, -0.00099781167227800012, 7.5E-06, 7.5E-06
DataValue, 8.5E-06, -1.6748043000000003E-08, -0.00085345975821800009, 8.5E-06, 8.5E-06
DataValue, 9.5E-06, 3.5804749000000005E-08, -0.000849938951433, 9.5E-06, 9.5E-06
DataValue, 1.0500000000000001E-05, -2.6582853000000003E-08, -0.00058940122835300006, 1.0500000000000001E-05, 1.0500000000000001E-05
DataValue, 1.15E-05, 1.1116083E-08, -0.00075839867349700011, 1.15E-05, 1.15E-05
DataValue, 1.25E-05, -8.006769000000001E-09, -0.0007478363113480001, 1.25E-05, 1.25E-05
DataValue, 1.3500000000000001E-05, 5.8028900000000006E-10, -0.000730232452042, 1.3500000000000001E-05, 1.3500000000000001E-05
DataValue, 1.45E-05, -3.5274790000000004E-09, -0.000635171367321, 1.45E-05, 1.45E-05
DataValue, 1.55E-05, 1.687844E-09, -0.00080416881246500008, 1.55E-05, 1.55E-05
DataValue, 1.65E-05, -4.3406210000000006E-09, -0.00084289739606900008, 1.65E-05, 1.65E-05
DataValue, 1.7500000000000002E-05, -5.490235E-09, -0.000557714200113, 1.7500000000000002E-05, 1.7500000000000002E-05
DataValue, 1.8500000000000002E-05, 3.7578239E-08, -0.000751357118133, 1.8500000000000002E-05, 1.8500000000000002E-05
DataValue, 1.95E-05, -2.3750877000000003E-08, -0.00092035456327700009, 1.95E-05, 1.95E-05
DataValue, 2.05E-05, 1.274263E-09, -0.00080416881246500008, 2.05E-05, 2.05E-05
DataValue, 2.15E-05, 7.120472E-09, -0.00045561158913200005, 2.15E-05, 2.15E-05
DataValue, 2.25E-05, -4.873369E-09, -0.00052602717187300008, 2.25E-05, 2.25E-05
DataValue, 2.3500000000000002E-05, 6.4124780000000008E-09, -0.000269010226475, 2.3500000000000002E-05, 2.3500000000000002E-05
DataValue, 2.4500000000000003E-05, -1.198836E-08, -0.000578838866204, 2.4500000000000003E-05, 2.4500000000000003E-05
DataValue, 2.5500000000000003E-05, 9.2164150000000012E-09, -0.000332384282956, 2.5500000000000003E-05, 2.5500000000000003E-05
DataValue, 2.65E-05, -9.219471000000001E-09, -0.00065981684019800007, 2.65E-05, 2.65E-05
DataValue, 2.75E-05, -9.212462E-09, -0.000712628534529, 2.75E-05, 2.75E-05
DataValue, 2.85E-05, -3.5134600000000004E-09, -0.0008851467864590001, 2.85E-05, 2.85E-05
DataValue, 2.9500000000000002E-05, 2.6923280000000002E-08, -0.000874584424309, 2.9500000000000002E-05, 2.9500000000000002E-05
DataValue, 3.0500000000000003E-05, -4.5390262E-08, -0.00085345975821800009, 3.0500000000000003E-05, 3.0500000000000003E-05
DataValue, 3.15E-05, 1.0043577000000001E-08, -0.00092035456327700009, 3.15E-05, 3.15E-05
DataValue, 3.2500000000000004E-05, 3.1795121000000003E-08, -0.00098020781297200013, 3.2500000000000004E-05, 3.2500000000000004E-05
DataValue, 3.35E-05, -2.8622717000000003E-08, -0.000976687064394, 3.35E-05, 3.35E-05
DataValue, 3.4500000000000005E-05, -2.8054650000000003E-09, -0.00101189489942, 3.4500000000000005E-05, 3.4500000000000005E-05
DataValue, 3.55E-05, -9.485846E-09, -0.0010471026180310001, 3.55E-05, 3.55E-05
DataValue, 3.65E-05, 9.4056820000000012E-09, -0.000585880421568, 3.65E-05, 3.65E-05
DataValue, 3.7500000000000003E-05, -7.663287000000001E-09, -0.00098724942654400015, 3.7500000000000003E-05, 3.7500000000000003E-05
DataValue, 3.85E-05, 1.2356825000000002E-08, -0.001071748090908, 3.85E-05, 3.85E-05
DataValue, 3.9500000000000005E-05, 4.97546E-09, -0.001078789704479, 3.9500000000000005E-05, 3.9500000000000005E-05
DataValue, 4.05E-05, -1.0151781E-08, -0.001138642895967, 4.05E-05, 4.05E-05
DataValue, 4.1500000000000006E-05, -2.321786E-09, -0.001332285813987, 4.1500000000000006E-05, 4.1500000000000006E-05
DataValue, 4.25E-05, 1.3366242000000001E-08, -0.0013358065625650002, 4.25E-05, 4.25E-05
DataValue, 4.35E-05, -2.6582590000000004E-09, -0.001099914312363, 4.35E-05, 4.35E-05
DataValue, 4.4500000000000004E-05, 1.2286726000000001E-08, -0.0011984962038700002, 4.4500000000000004E-05, 4.4500000000000004E-05
DataValue, 4.55E-05, -3.870961E-09, -0.0009590831468810001, 4.55E-05, 4.55E-05
DataValue, 4.6500000000000005E-05, -2.2552193E-08, -0.00069502461701600007, 4.6500000000000005E-05, 4.6500000000000005E-05
DataValue, 4.75E-05, -2.9036030000000003E-09, -0.001149205258116, 4.75E-05, 4.75E-05
DataValue, 4.85E-05, 2.2149576E-08, -0.000955562340096, 4.85E-05, 4.85E-05
DataValue, 4.9500000000000004E-05, -6.7379870000000005E-09, -0.00086050131358200005, 4.9500000000000004E-05, 4.9500000000000004E-05
DataValue, 5.05E-05, -7.7263750000000012E-09, -0.000821772729978, 5.05E-05, 5.05E-05
DataValue, 5.1500000000000005E-05, 1.9009166E-08, -0.00072671164525700007, 5.1500000000000005E-05, 5.1500000000000005E-05
DataValue, 5.25E-05, -1.9965562E-08, -0.00087810517288700008, 5.25E-05, 5.25E-05
DataValue, 5.3500000000000006E-05, 5.87973E-09, -0.00087106361752400008, 5.3500000000000006E-05, 5.3500000000000006E-05
DataValue, 5.45E-05, 2.3635662000000002E-08, -0.00080768961925100009, 5.45E-05, 5.45E-05
DataValue, 5.55E-05, -3.4763339000000004E-08, -0.000783044146374, 5.55E-05, 5.55E-05
DataValue, 5.6500000000000005E-05, 1.3990118000000001E-08, -0.000677420757711, 5.6500000000000005E-05, 5.6500000000000005E-05
DataValue, 5.75E-05, 4.814234E-09, -0.0007548778667110001, 5.75E-05, 5.75E-05
DataValue, 5.8500000000000006E-05, -2.4627106000000003E-08, -0.000797127257101, 5.8500000000000006E-05, 5.8500000000000006E-05
DataValue, 5.95E-05, 5.3820310000000006E-09, -0.000730232452042, 5.95E-05, 5.95E-05
DataValue, 6.0500000000000007E-05, 9.9387E-10, -0.0007091077277440001, 6.0500000000000007E-05, 6.0500000000000007E-05
DataValue, 6.15E-05, 3.8819250000000005E-09, -0.000976687064394, 6.15E-05, 6.15E-05
DataValue, 6.25E-05, -1.2766452000000002E-08, -0.00074431556277, 6.25E-05, 6.25E-05
DataValue, 6.35E-05, 5.2909030000000005E-09, -0.00082529347855600011, 6.35E-05, 6.35E-05
DataValue, 6.4500000000000009E-05, -6.352446E-09, -0.000828814285342, 6.4500000000000009E-05, 6.4500000000000009E-05
DataValue, 6.55E-05, 1.3205016000000002E-08, -0.000797127257101, 6.55E-05, 6.55E-05
DataValue, 6.65E-05, -9.520895000000001E-09, -0.000607005145866, 6.65E-05, 6.65E-05
DataValue, 6.75E-05, 1.3702715E-08, -0.000469694699859, 6.75E-05, 6.75E-05
DataValue, 6.85E-05, -1.7960746000000003E-08, -0.00061756744980800006, 6.85E-05, 6.85E-05
DataValue, 6.9500000000000009E-05, -2.2369937E-08, -0.00082529347855600011, 6.9500000000000009E-05, 6.9500000000000009E-05
DataValue, 7.05E-05, 1.2819474000000001E-08, -0.00098020781297200013, 7.05E-05, 7.05E-05
DataValue, 7.15E-05, 1.1761260000000001E-09, -0.000751357118133, 7.15E-05, 7.15E-05
DataValue, 7.25E-05, -5.181802E-09, -0.001061185728759, 7.25E-05, 7.25E-05
DataValue, 7.3500000000000011E-05, 3.223E-09, -0.00124426628463, 7.3500000000000011E-05, 7.3500000000000011E-05
DataValue, 7.4500000000000008E-05, -1.109083E-09, -0.00084289739606900008, 7.4500000000000008E-05, 7.4500000000000008E-05
DataValue, 7.55E-05, 1.5469196E-08, -0.001040061120875, 7.55E-05, 7.55E-05
DataValue, 7.65E-05, -3.05782E-09, -0.001033019507304, 7.65E-05, 7.65E-05
DataValue, 7.75E-05, 2.402848E-09, -0.000673899950925, 7.75E-05, 7.75E-05
DataValue, 7.8500000000000011E-05, -7.2847550000000009E-09, -0.000973166257609, 7.8500000000000011E-05, 7.8500000000000011E-05
DataValue, 7.9500000000000008E-05, 1.2868544000000001E-08, -0.000856980506796, 7.9500000000000008E-05, 7.9500000000000008E-05
DataValue, 8.05E-05, -1.6005E-08, -0.00067037914414000009, 8.05E-05, 8.05E-05
DataValue, 8.15E-05, 1.3681685000000002E-08, -0.00079360645031600007, 8.15E-05, 8.15E-05
DataValue, 8.25E-05, -1.2051448E-08, -0.000684462313075, 8.25E-05, 8.25E-05
DataValue, 8.350000000000001E-05, 1.6107360000000001E-09, -0.0007478363113480001, 8.350000000000001E-05, 8.350000000000001E-05
DataValue, 8.4500000000000008E-05, -1.1013991E-08, -0.00090275064576400012, 8.4500000000000008E-05, 8.4500000000000008E-05
DataValue, 8.55E-05, 6.363409E-09, -0.0007548778667110001, 8.55E-05, 8.55E-05
DataValue, 8.65E-05, 7.5620920000000014E-09, -0.000800648063887, 8.65E-05, 8.65E-05
DataValue, 8.75E-05, -2.742377E-09, -0.00051546486793100006, 8.75E-05, 8.75E-05
DataValue, 8.850000000000001E-05, -1.6418310000000002E-09, -0.000508423312567, 8.850000000000001E-05, 8.850000000000001E-05
DataValue, 8.9500000000000007E-05, -6.569751E-09, -0.000504902505782, 8.9500000000000007E-05, 8.9500000000000007E-05
DataValue, 9.05E-05, -5.938865E-09, -0.00046617392217700003, 9.05E-05, 9.05E-05
DataValue, 9.15E-05, -1.6264364000000003E-08, -0.000607005145866, 9.15E-05, 9.15E-05
DataValue, 9.2500000000000012E-05, 1.2013342000000001E-08, -0.00043096611625500006, 9.2500000000000012E-05, 9.2500000000000012E-05
DataValue, 9.3500000000000009E-05, 4.323545E-09, -0.000504902505782, 9.3500000000000009E-05, 9.3500000000000009E-05
DataValue, 9.45E-05, 1.351372E-09, -0.000631650560535, 9.45E-05, 9.45E-05
DataValue, 9.55E-05, -5.8968060000000008E-09, -0.000783044146374, 9.55E-05, 9.55E-05
DataValue, 9.65E-05, 1.9051490000000003E-09, -0.000856980506796, 9.65E-05, 9.65E-05
DataValue, 9.7500000000000012E-05, -3.5555190000000002E-09, -0.000811210367829, 9.7500000000000012E-05, 9.7500000000000012E-05
DataValue, 9.8500000000000009E-05, -9.226482E-09, -0.00056475575547700009, 9.8500000000000009E-05, 9.8500000000000009E-05
DataValue, 9.95E-05, 9.251464E-09, -0.000716149341315, 9.95E-05, 9.95E-05
DataValue, 0.0001005, -1.7568221700000002E-07, 0.0017519175307830002, 0.0001005, 0.0001005
DataValue, 0.0001015, -2.87762589E-07, 0.006635239347816, 0.0001015, 0.0001015
DataValue, 0.00010250000000000001, -2.7801189600000003E-07, 0.011557290330529001, 0.00010250000000000001, 0.00010250000000000001
DataValue, 0.00010350000000000001, -2.79301702E-07, 0.016669463366270003, 0.00010350000000000001, 0.00010350000000000001
DataValue, 0.0001045, -2.71976432E-07, 0.021401390433311, 0.0001045, 0.0001045
DataValue, 0.0001055, -3.1965737400000005E-07, 0.02651004306972, 0.0001055, 0.0001055
DataValue, 0.0001065, -2.6976133E-07, 0.031541239470243, 0.0001065, 0.0001065
DataValue, 0.00010750000000000001, -2.83795032E-07, 0.036301333457232, 0.00010750000000000001, 0.00010750000000000001
DataValue, 0.00010850000000000001, -2.80065791E-07, 0.041269153356552006, 0.00010850000000000001, 0.00010850000000000001
DataValue, 0.0001095, -2.84706289E-07, 0.046398930251598004, 0.0001095, 0.0001095
DataValue, 0.0001105, -2.8511988100000005E-07, 0.051644891500473, 0.0001105, 0.0001105
DataValue, 0.00011150000000000001, -2.9103620100000003E-07, 0.056278239935637006, 0.00011150000000000001, 0.00011150000000000001
DataValue, 0.00011250000000000001, -3.0382915400000004E-07, 0.061291828751564005, 0.00011250000000000001, 0.00011250000000000001
DataValue, 0.00011350000000000001, -3.03745026E-07, 0.066037841141224, 0.00011350000000000001, 0.00011350000000000001
DataValue, 0.0001145, -2.9344056400000005E-07, 0.070871874690056, 0.0001145, 0.0001145
DataValue, 0.0001155, -2.8924867500000004E-07, 0.076230503618717, 0.0001155, 0.0001155
DataValue, 0.00011650000000000001, -3.18739097E-07, 0.080765262246132008, 0.00011650000000000001, 0.00011650000000000001
DataValue, 0.00011750000000000001, -2.81243445E-07, 0.085465505719185, 0.00011750000000000001, 0.00011750000000000001
DataValue, 0.00011850000000000001, -2.7368682300000003E-07, 0.090880468487740007, 0.00011850000000000001, 0.00011850000000000001
DataValue, 0.0001195, -3.2434695600000004E-07, 0.095953911542892012, 0.0001195, 0.0001195
DataValue, 0.0001205, -3.0727798600000004E-07, 0.10094285756349601, 0.0001205, 0.0001205
DataValue, 0.00012150000000000001, -3.08869232E-07, 0.10572759807109801, 0.00012150000000000001, 0.00012150000000000001
DataValue, 0.0001225, -2.97253933E-07, 0.11076582968235, 0.0001225, 0.0001225
DataValue, 0.00012350000000000002, -3.0799299100000004E-07, 0.11551184207201001, 0.00012350000000000002, 0.00012350000000000002
DataValue, 0.00012450000000000002, -3.2812528200000005E-07, 0.12041629105806301, 0.00012450000000000002, 0.00012450000000000002
DataValue, 0.00012550000000000002, -3.0162104300000005E-07, 0.125440448522568, 0.00012550000000000002, 0.00012550000000000002
DataValue, 0.0001265, -3.35815059E-07, 0.13058078289032002, 0.0001265, 0.0001265
DataValue, 0.0001275, -2.9663004900000005E-07, 0.13538312911987302, 0.0001275, 0.0001275
DataValue, 0.0001285, -3.29527239E-07, 0.140576273202896, 0.0001285, 0.0001285
DataValue, 0.0001295, -3.0657000100000003E-07, 0.145096957683563, 0.0001295, 0.0001295
DataValue, 0.0001305, -3.37981106E-07, 0.15006478130817402, 0.0001305, 0.0001305
DataValue, 0.0001315, -3.2155705300000003E-07, 0.1551593542099, 0.0001315, 0.0001315
DataValue, 0.0001325, -3.24382E-07, 0.159880712628365, 0.0001325, 0.0001325
DataValue, 0.00013350000000000002, -3.3556270300000003E-07, 0.16465137898922003, 0.00013350000000000002, 0.00013350000000000002
DataValue, 0.00013450000000000002, -3.16538006E-07, 0.16960158944129902, 0.00013450000000000002, 0.00013450000000000002
DataValue, 0.00013550000000000001, -3.52330261E-07, 0.17454828321933702, 0.00013550000000000001, 0.00013550000000000001
DataValue, 0.0001365, -3.1130866800000004E-07, 0.179593563079834, 0.0001365, 0.0001365
DataValue, 0.0001375, -3.32029742E-07, 0.18446984887123102, 0.0001375, 0.0001375
DataValue, 0.0001385, -3.4975062100000005E-07, 0.18940949440002403, 0.0001385, 0.0001385
DataValue, 0.0001395, -3.27711689E-07, 0.19455336034297902, 0.0001395, 0.0001395
DataValue, 0.0001405, -3.69882912E-07, 0.19985213875770602, 0.0001405, 0.0001405
DataValue, 0.0001415, -3.4669435000000005E-07, 0.205136820673943, 0.0001415, 0.0001415
DataValue, 0.00014250000000000002, -3.7041564800000005E-07, 0.21019618213176702, 0.00014250000000000002, 0.00014250000000000002
DataValue, 0.00014350000000000002, -2.91807282E-07, 0.215308353304863, 0.00014350000000000002, 0.00014350000000000002
DataValue, 0.00014450000000000002, -3.7303732400000004E-07, 0.22040644288063002, 0.00014450000000000002, 0.00014450000000000002
DataValue, 0.0001455, -3.46750426E-07, 0.22532145678997, 0.0001455, 0.0001455
DataValue, 0.0001465, -3.4267770800000005E-07, 0.23037025332450903, 0.0001465, 0.0001465
DataValue, 0.0001475, -3.7804235800000005E-07, 0.23538032174110402, 0.0001475, 0.0001475
DataValue, 0.0001485, -3.31209606E-07, 0.24039392173290203, 0.0001485, 0.0001485
DataValue, 0.0001495, -3.70724081E-07, 0.24537581205368003, 0.0001495, 0.0001495
DataValue, 0.0001505, -3.44815703E-07, 0.25025561451911904, 0.0001505, 0.0001505
DataValue, 0.0001515, -3.57741868E-07, 0.255381882190704, 0.0001515, 0.0001515
DataValue, 0.00015250000000000002, -3.6553680600000004E-07, 0.260258167982101, 0.00015250000000000002, 0.00015250000000000002
DataValue, 0.00015350000000000002, -3.56893651E-07, 0.265321046113968, 0.00015350000000000002, 0.00015350000000000002
DataValue, 0.00015450000000000002, -3.7080820900000004E-07, 0.270130425691605, 0.00015450000000000002, 0.00015450000000000002
DataValue, 0.0001555, -3.6874732200000004E-07, 0.27525669336319003, 0.0001555, 0.0001555
DataValue, 0.0001565, -3.9882655800000004E-07, 0.280270278453827, 0.0001565, 0.0001565
DataValue, 0.0001575, -3.49806726E-07, 0.284917712211609, 0.0001575, 0.0001575
DataValue, 0.0001585, -3.80565893E-07, 0.28978693485260004, 0.0001585, 0.0001585
DataValue, 0.0001595, -3.72967236E-07, 0.294797003269196, 0.0001595, 0.0001595
DataValue, 0.0001605, -3.75995484E-07, 0.300004243850708, 0.0001605, 0.0001605
DataValue, 0.00016150000000000002, -3.96660511E-07, 0.30481010675430303, 0.00016150000000000002, 0.00016150000000000002
DataValue, 0.00016250000000000002, -3.72133059E-07, 0.30950683355331404, 0.00016250000000000002, 0.00016250000000000002
DataValue, 0.00016350000000000002, -3.88480004E-07, 0.314242273569107, 0.00016350000000000002, 0.00016350000000000002
DataValue, 0.00016450000000000001, -3.65487722E-07, 0.31911152601242104, 0.00016450000000000001, 0.00016450000000000001
DataValue, 0.0001655, -3.9050587500000004E-07, 0.32437157630920405, 0.0001655, 0.0001655
DataValue, 0.0001665, -3.9729138700000003E-07, 0.329170376062393, 0.0001665, 0.0001665
DataValue, 0.0001675, -4.0383156400000005E-07, 0.33412763476371804, 0.0001675, 0.0001675
DataValue, 0.0001685, -3.7722222100000005E-07, 0.338866621255875, 0.0001685, 0.0001685
DataValue, 0.0001695, -4.0351614000000003E-07, 0.34378513693809504, 0.0001695, 0.0001695
DataValue, 0.0001705, -4.08338906E-07, 0.348583966493607, 0.0001705, 0.0001705
DataValue, 0.00017150000000000002, -3.83923606E-07, 0.35358700156211803, 0.00017150000000000002, 0.00017150000000000002
DataValue, 0.00017250000000000002, -4.0187583700000004E-07, 0.358561843633652, 0.00017250000000000002, 0.00017250000000000002
DataValue, 0.00017350000000000002, -3.91543324E-07, 0.36373388767242404, 0.00017350000000000002, 0.00017350000000000002
DataValue, 0.0001745, -4.0517747400000003E-07, 0.36886367201805104, 0.0001745, 0.0001745
DataValue, 0.0001755, -4.0963573200000004E-07, 0.37372937798500105, 0.0001755, 0.0001755
DataValue, 0.0001765, -4.2770710700000005E-07, 0.37869718670845004, 0.0001765, 0.0001765
DataValue, 0.0001775, -3.9272097800000004E-07, 0.38357698917388905, 0.0001775, 0.0001775
DataValue, 0.0001785, -3.83797442E-07, 0.38895675539970404, 0.0001785, 0.0001785
DataValue, 0.0001795, -4.12208323E-07, 0.39400202035903903, 0.0001795, 0.0001795
DataValue, 0.00018050000000000002, -4.48259954E-07, 0.398536801338196, 0.00018050000000000002, 0.00018050000000000002
DataValue, 0.00018150000000000002, -4.1420614100000003E-07, 0.403902471065521, 0.00018150000000000002, 0.00018150000000000002
DataValue, 0.00018250000000000002, -4.31064819E-07, 0.409299820661545, 0.00018250000000000002, 0.00018250000000000002
DataValue, 0.00018350000000000002, -4.3438046800000006E-07, 0.41423594951629605, 0.00018350000000000002, 0.00018350000000000002
DataValue, 0.0001845, -4.0716125200000004E-07, 0.41909110546112105, 0.0001845, 0.0001845
DataValue, 0.0001855, -4.29950234E-07, 0.42410469055175803, 0.0001855, 0.0001855
