
SetupTitle, FE PUND 2V - reverse
ApplicationTest, WGFMU Pattern Editor, Public
TestParameter, Name, ExecutionMode, Enable1, Channel1, OperationMode1, VForceRange1, InitMeasRange1, Enable2, Channel2, OperationMode2, VForceRange2, InitMeasRange2, RepeatCount, WaveformCh1, WaveformCh2, MeasurementEvent, Output_to_File_for_PatternValidation, Output_Enable, Output_Filename, DataDisplay_for_RunVector, DataDisplay_PatternValidation, DataDisplay_Mode, LogToFile, LogFile, WarningLevel, IForceRange1, IForceRange2, Result_Update_Interval_s
TestParameter, Value, Run Vector, Enable, WGFMU1:RS	RSWGFMU, Fast IV Imeas, Auto, 10uA (Imeas), Enable, WGFMU2:RS	RSWGFMU, PG Vmeas, Auto, 5V (Vmeas), 1, , Disable, C:\WGFMUPatternEditor_Pattern.csv, , Disable, x(time)_y(meas), Disable, C:\WGFMUPatternEditor_Log.log, 2, 10mA, 10mA, 10
MetaData, TestRecord.EntryPoint, true
MetaData, TestRecord.RecordTime, 06/10/2021 11:04:14
MetaData, TestRecord.TestTarget, HZO5nmW_1_25um_E12
MetaData, TestRecord.IterationIndex, 9
MetaData, TestRecord.Preservation, true
MetaData, TestRecord.Flag, 
MetaData, TestRecord.Remarks, 
MetaData, TestRecord.LinkKey, 6cf5b56a-554d-42d7-8a09-88a0e2aa8421
MetaData, TestRecord.Parameters, 
Dimension1, 5000, 5000, 5000, 5000, 5000
Dimension2, 1, 1, 1, 1, 1
DataName, Time, MeasResult1_value, MeasResult2_value, MeasResult1_time, MeasResult2_time
DataValue, 5.0000000000000008E-07, -1.285758E-08, -0.0010365402558820001, 5.0000000000000008E-07, 5.0000000000000008E-07
DataValue, 1.5E-06, 3.9803300000000005E-10, -0.00085345975821800009, 1.5E-06, 1.5E-06
DataValue, 2.5E-06, -1.179182E-09, -0.001096393563785, 2.5E-06, 2.5E-06
DataValue, 3.5000000000000004E-06, 3.6506E-09, -0.000797127257101, 3.5000000000000004E-06, 3.5000000000000004E-06
DataValue, 4.5E-06, -3.899001E-09, -0.001029498758726, 4.5E-06, 4.5E-06
DataValue, 5.5000000000000007E-06, -7.9366700000000009E-09, -0.00068798306165300006, 5.5000000000000007E-06, 5.5000000000000007E-06
DataValue, 6.5000000000000004E-06, -1.6544757000000002E-08, -0.000856980506796, 6.5000000000000004E-06, 6.5000000000000004E-06
DataValue, 7.5E-06, 2.7287790000000002E-08, -0.001159767620265, 7.5E-06, 7.5E-06
DataValue, 8.5E-06, 1.2504032000000001E-08, -0.00073727400740600008, 8.5E-06, 8.5E-06
DataValue, 9.5E-06, -3.5548442000000004E-08, -0.00085345975821800009, 9.5E-06, 9.5E-06
DataValue, 1.0500000000000001E-05, 1.7109498E-08, -0.000955562340096, 1.0500000000000001E-05, 1.0500000000000001E-05
DataValue, 1.15E-05, 3.923984E-09, -0.000828814285342, 1.15E-05, 1.15E-05
DataValue, 1.25E-05, -4.0882670000000007E-09, -0.001050623366609, 1.25E-05, 1.25E-05
DataValue, 1.3500000000000001E-05, 6.5036060000000008E-09, -0.00083937658928300008, 1.3500000000000001E-05, 1.3500000000000001E-05
DataValue, 1.45E-05, -3.4363510000000003E-09, -0.000730232452042, 1.45E-05, 1.45E-05
DataValue, 1.55E-05, -5.69325E-10, -0.0009520415915180001, 1.55E-05, 1.55E-05
DataValue, 1.65E-05, -4.1583650000000005E-09, -0.00090627145255, 1.65E-05, 1.65E-05
DataValue, 1.7500000000000002E-05, -1.7469790000000002E-09, -0.00065629603341200006, 1.7500000000000002E-05, 1.7500000000000002E-05
DataValue, 1.8500000000000002E-05, -5.882786E-09, -0.00075839867349700011, 1.8500000000000002E-05, 1.8500000000000002E-05
DataValue, 1.95E-05, 1.6457584E-08, -0.0005753181176260001, 1.95E-05, 1.95E-05
DataValue, 2.05E-05, -1.4960532E-08, -0.000740794755984, 2.05E-05, 2.05E-05
DataValue, 2.15E-05, -2.1024047000000002E-08, -0.00071967008989300011, 2.15E-05, 2.15E-05
DataValue, 2.25E-05, 6.2407103E-08, -0.0007091077277440001, 2.25E-05, 2.25E-05
DataValue, 2.3500000000000002E-05, -5.924171E-08, -0.00082529347855600011, 2.3500000000000002E-05, 2.3500000000000002E-05
DataValue, 2.4500000000000003E-05, 6.3563990000000006E-09, -0.00085345975821800009, 2.4500000000000003E-05, 2.4500000000000003E-05
DataValue, 2.5500000000000003E-05, 1.9387697E-08, -0.00093443767400500013, 2.5500000000000003E-05, 2.5500000000000003E-05
DataValue, 2.65E-05, 1.42147E-09, -0.00118793384172, 2.65E-05, 2.65E-05
DataValue, 2.75E-05, -7.3828930000000005E-09, -0.001240745536052, 2.75E-05, 2.75E-05
DataValue, 2.85E-05, -6.1631800000000006E-09, -0.001149205258116, 2.85E-05, 2.85E-05
DataValue, 2.9500000000000002E-05, 1.3709725000000002E-08, -0.001159767620265, 2.9500000000000002E-05, 2.9500000000000002E-05
DataValue, 3.0500000000000003E-05, -1.9664137E-08, -0.001057664980181, 3.0500000000000003E-05, 3.0500000000000003E-05
DataValue, 3.15E-05, 4.8212440000000006E-09, -0.0010858312016350001, 3.15E-05, 3.15E-05
DataValue, 3.2500000000000004E-05, -4.550916E-09, -0.0010189363965760001, 3.2500000000000004E-05, 3.2500000000000004E-05
DataValue, 3.35E-05, -5.72156E-09, -0.0011808923445640002, 3.35E-05, 3.35E-05
DataValue, 3.4500000000000005E-05, -2.7900704E-08, -0.00101189489942, 3.4500000000000005E-05, 3.4500000000000005E-05
DataValue, 3.55E-05, 6.1341609E-08, -0.0013146819546820002, 3.55E-05, 3.55E-05
DataValue, 3.65E-05, -8.231083000000001E-09, -0.0012196208117530001, 3.65E-05, 3.65E-05
DataValue, 3.7500000000000003E-05, -1.6341472000000002E-08, -0.0011984962038700002, 3.7500000000000003E-05, 3.7500000000000003E-05
DataValue, 3.85E-05, -1.3824939000000002E-08, -0.001106955925934, 3.85E-05, 3.85E-05
DataValue, 3.9500000000000005E-05, 2.080395E-09, -0.001212579314597, 3.9500000000000005E-05, 3.9500000000000005E-05
DataValue, 4.05E-05, 3.2678361E-08, -0.0013252443168310002, 4.05E-05, 4.05E-05
DataValue, 4.1500000000000006E-05, -2.9015268E-08, -0.0012301831739020002, 4.1500000000000006E-05, 4.1500000000000006E-05
DataValue, 4.25E-05, 6.0269370000000006E-09, -0.001293557230383, 4.25E-05, 4.25E-05
DataValue, 4.35E-05, 1.1382457E-08, -0.0011421637609600002, 4.35E-05, 4.35E-05
DataValue, 4.4500000000000004E-05, 5.5011990000000005E-09, -0.001121039036661, 4.4500000000000004E-05, 4.4500000000000004E-05
DataValue, 4.55E-05, -2.9526987000000003E-08, -0.0013498897897080001, 4.55E-05, 4.55E-05
DataValue, 4.6500000000000005E-05, 5.557277E-09, -0.0014942417619750001, 4.6500000000000005E-05, 4.6500000000000005E-05
DataValue, 4.75E-05, 5.2488176E-08, -0.001194975455292, 4.75E-05, 4.75E-05
DataValue, 4.85E-05, -7.567278E-08, -0.0012970779789610002, 4.85E-05, 4.85E-05
DataValue, 4.9500000000000004E-05, 2.7925687E-08, -0.0012759533710780002, 4.9500000000000004E-05, 4.9500000000000004E-05
DataValue, 5.05E-05, 1.9640051000000002E-08, -0.001149205258116, 5.05E-05, 5.05E-05
DataValue, 5.1500000000000005E-05, -3.0438265E-08, -0.0012724326225, 5.1500000000000005E-05, 5.1500000000000005E-05
DataValue, 5.25E-05, 6.111055E-09, -0.0012724326225, 5.25E-05, 5.25E-05
DataValue, 5.3500000000000006E-05, 1.5013555000000002E-08, -0.0011245597852390001, 5.3500000000000006E-05, 5.3500000000000006E-05
DataValue, 5.45E-05, -5.2098410000000006E-09, -0.0010083740344270001, 5.45E-05, 5.45E-05
DataValue, 5.55E-05, -1.2177625000000001E-08, -0.001089351950213, 5.55E-05, 5.55E-05
DataValue, 5.6500000000000005E-05, 2.1778055000000003E-08, -0.001360452035442, 5.6500000000000005E-05, 5.6500000000000005E-05
DataValue, 5.75E-05, -1.9355705E-08, -0.0012477871496230002, 5.75E-05, 5.75E-05
DataValue, 5.8500000000000006E-05, -4.459788E-09, -0.001462554675527, 5.8500000000000006E-05, 5.8500000000000006E-05
DataValue, 5.95E-05, -6.5417120000000008E-09, -0.0014977625105530002, 5.95E-05, 5.95E-05
DataValue, 6.0500000000000007E-05, 7.3658170000000008E-09, -0.0010928728152070002, 6.0500000000000007E-05, 6.0500000000000007E-05
DataValue, 6.15E-05, 1.6072041E-08, -0.0014027014840390002, 6.15E-05, 6.15E-05
DataValue, 6.25E-05, -8.658684E-09, -0.0013358065625650002, 6.25E-05, 6.25E-05
DataValue, 6.35E-05, 1.5420126000000002E-08, -0.001606906647794, 6.35E-05, 6.35E-05
DataValue, 6.4500000000000009E-05, -1.1778065E-08, -0.00156817806419, 6.4500000000000009E-05, 6.4500000000000009E-05
DataValue, 6.55E-05, -3.183997E-09, -0.001501283259131, 6.55E-05, 6.55E-05
DataValue, 6.65E-05, 3.012704E-09, -0.001540011842735, 6.65E-05, 6.65E-05
DataValue, 6.75E-05, -1.1182228E-08, -0.001177371479571, 6.75E-05, 6.75E-05
DataValue, 6.85E-05, -4.9574870000000007E-09, -0.001156246871687, 6.85E-05, 6.85E-05
DataValue, 6.9500000000000009E-05, 7.393856E-09, -0.0015752196777610002, 6.9500000000000009E-05, 6.9500000000000009E-05
DataValue, 7.05E-05, 1.0232843000000001E-08, -0.001388618256897, 7.05E-05, 7.05E-05
DataValue, 7.15E-05, 7.1274820000000005E-09, -0.001360452035442, 7.15E-05, 7.15E-05
DataValue, 7.25E-05, 7.176551E-09, -0.001194975455292, 7.25E-05, 7.25E-05
DataValue, 7.3500000000000011E-05, -2.8938160000000002E-08, -0.0013252443168310002, 7.3500000000000011E-05, 7.3500000000000011E-05
DataValue, 7.4500000000000008E-05, 6.5246350000000008E-09, -0.001540011842735, 7.4500000000000008E-05, 7.4500000000000008E-05
DataValue, 7.55E-05, 6.125075E-09, -0.00151184562128, 7.55E-05, 7.55E-05
DataValue, 7.65E-05, 1.4361640000000001E-08, -0.0016914054285730002, 7.65E-05, 7.65E-05
DataValue, 7.75E-05, -1.5654507000000002E-08, -0.001515366369858, 7.75E-05, 7.75E-05
DataValue, 7.8500000000000011E-05, -1.9089331000000003E-08, -0.0016878846799950002, 7.8500000000000011E-05, 7.8500000000000011E-05
DataValue, 7.9500000000000008E-05, 4.0494335E-08, -0.001635072869249, 7.9500000000000008E-05, 7.9500000000000008E-05
DataValue, 8.05E-05, -1.9923501E-08, -0.0015259287320080002, 8.05E-05, 8.05E-05
DataValue, 8.15E-05, -2.504042E-09, -0.001617469009943, 8.15E-05, 8.15E-05
DataValue, 8.25E-05, -3.0157610000000003E-09, -0.001645635231398, 8.25E-05, 8.25E-05
DataValue, 8.350000000000001E-05, 8.2350380000000012E-09, -0.00126187026035, 8.350000000000001E-05, 8.350000000000001E-05
DataValue, 8.4500000000000008E-05, -1.8185061E-08, -0.0012301831739020002, 8.4500000000000008E-05, 8.4500000000000008E-05
DataValue, 8.55E-05, 2.3327500000000002E-09, -0.001233704038896, 8.55E-05, 8.55E-05
DataValue, 8.65E-05, 1.8939067E-08, -0.0012372247874740002, 8.65E-05, 8.65E-05
DataValue, 8.75E-05, -1.5500291E-08, -0.0012689117575060002, 8.75E-05, 8.75E-05
DataValue, 8.850000000000001E-05, 6.3563990000000006E-09, -0.001339327427559, 8.850000000000001E-05, 8.850000000000001E-05
DataValue, 8.9500000000000007E-05, -6.7239680000000009E-09, -0.0011139974230900001, 8.9500000000000007E-05, 8.9500000000000007E-05
DataValue, 9.05E-05, 4.940411E-09, -0.001395659870468, 9.05E-05, 9.05E-05
DataValue, 9.15E-05, -5.3149890000000006E-09, -0.001138642895967, 9.15E-05, 9.15E-05
DataValue, 9.2500000000000012E-05, 1.3744774E-08, -0.0012970779789610002, 9.2500000000000012E-05, 9.2500000000000012E-05
DataValue, 9.3500000000000009E-05, -2.2390967E-08, -0.001121039036661, 9.3500000000000009E-05, 9.3500000000000009E-05
DataValue, 9.45E-05, 1.7382883E-08, -0.0012196208117530001, 9.45E-05, 9.45E-05
DataValue, 9.55E-05, -1.3572584000000002E-08, -0.0012372247874740002, 9.55E-05, 9.55E-05
DataValue, 9.65E-05, -1.9222517E-08, -0.0011245597852390001, 9.65E-05, 9.65E-05
DataValue, 9.7500000000000012E-05, 3.6582843000000004E-08, -0.001226662425324, 9.7500000000000012E-05, 9.7500000000000012E-05
DataValue, 9.8500000000000009E-05, -8.7147630000000012E-09, -0.0014872001484040002, 9.8500000000000009E-05, 9.8500000000000009E-05
DataValue, 9.95E-05, -1.6586817000000003E-08, -0.0013041195925330002, 9.95E-05, 9.95E-05
DataValue, 0.0001005, -1.9746180200000002E-07, 0.0011780303902920002, 0.0001005, 0.0001005
DataValue, 0.0001015, -3.27753753E-07, 0.0060437484644350007, 0.0001015, 0.0001015
DataValue, 0.00010250000000000001, -3.3159514600000005E-07, 0.011081985197961, 0.00010250000000000001, 0.00010250000000000001
DataValue, 0.00010350000000000001, -3.4057475800000004E-07, 0.016053326427937, 0.00010350000000000001, 0.00010350000000000001
DataValue, 0.0001045, -3.35121086E-07, 0.020961293950677, 0.0001045, 0.0001045
DataValue, 0.0001055, -3.7563799500000003E-07, 0.02595023997128, 0.0001055, 0.0001055
DataValue, 0.0001065, -3.2423480400000005E-07, 0.031129306182265004, 0.0001065, 0.0001065
DataValue, 0.00010750000000000001, -3.4947726100000005E-07, 0.036061920225620006, 0.00010750000000000001, 0.00010750000000000001
DataValue, 0.00010850000000000001, -3.82837101E-07, 0.041212819516659005, 0.00010850000000000001, 0.00010850000000000001
DataValue, 0.0001095, -3.3630576000000005E-07, 0.046057414263487, 0.0001095, 0.0001095
DataValue, 0.0001105, -4.1468982200000006E-07, 0.051056921482086, 0.0001105, 0.0001105
DataValue, 0.00011150000000000001, -3.5317143000000003E-07, 0.055838141590357007, 0.00011150000000000001, 0.00011150000000000001
DataValue, 0.00011250000000000001, -3.8361517300000006E-07, 0.060957357287407005, 0.00011250000000000001, 0.00011250000000000001
DataValue, 0.00011350000000000001, -3.41093482E-07, 0.065808989107609, 0.00011350000000000001, 0.00011350000000000001
DataValue, 0.0001145, -3.95433773E-07, 0.071058474481106, 0.0001145, 0.0001145
DataValue, 0.0001155, -4.07350512E-07, 0.075646050274372, 0.0001155, 0.0001155
DataValue, 0.00011650000000000001, -3.65613914E-07, 0.08093073964119, 0.00011650000000000001, 0.00011650000000000001
DataValue, 0.00011750000000000001, -3.9631703400000003E-07, 0.086148537695408, 0.00011750000000000001, 0.00011750000000000001
DataValue, 0.00011850000000000001, -4.09180075E-07, 0.090880468487740007, 0.00011850000000000001, 0.00011850000000000001
DataValue, 0.0001195, -3.9872139700000005E-07, 0.095922224223614, 0.0001195, 0.0001195
DataValue, 0.0001205, -3.87821103E-07, 0.100858360528946, 0.0001205, 0.0001205
DataValue, 0.00012150000000000001, -4.64235399E-07, 0.10584378242492701, 0.00012150000000000001, 0.00012150000000000001
DataValue, 0.0001225, -3.61309873E-07, 0.11055458337068601, 0.0001225, 0.0001225
DataValue, 0.00012350000000000002, -4.0981098000000005E-07, 0.115870960056782, 0.00012350000000000002, 0.00012350000000000002
DataValue, 0.00012450000000000002, -4.7135037600000004E-07, 0.120930321514606, 0.00012450000000000002, 0.00012450000000000002
DataValue, 0.00012550000000000002, -4.1822980300000003E-07, 0.125880539417267, 0.00012550000000000002, 0.00012550000000000002
DataValue, 0.0001265, -4.14150065E-07, 0.13100327551364902, 0.0001265, 0.0001265
DataValue, 0.0001275, -4.3778726400000003E-07, 0.13571408390998802, 0.0001275, 0.0001275
DataValue, 0.0001285, -4.43156779E-07, 0.14085441827774, 0.0001285, 0.0001285
DataValue, 0.0001295, -4.27335578E-07, 0.14568141102790802, 0.0001295, 0.0001295
DataValue, 0.0001305, -4.6773331500000003E-07, 0.15057881176471702, 0.0001305, 0.0001305
DataValue, 0.0001315, -4.41495445E-07, 0.155536070466042, 0.0001315, 0.0001315
DataValue, 0.0001325, -4.3952570600000006E-07, 0.16064120829105402, 0.0001325, 0.0001325
DataValue, 0.00013350000000000002, -4.7247195300000004E-07, 0.16567239165306102, 0.00013350000000000002, 0.00013350000000000002
DataValue, 0.00013450000000000002, -4.21790787E-07, 0.170376166701317, 0.00013450000000000002, 0.00013450000000000002
DataValue, 0.00013550000000000001, -5.21568893E-07, 0.17542847990989702, 0.00013550000000000001, 0.00013550000000000001
DataValue, 0.0001365, -4.30384858E-07, 0.180480793118477, 0.0001365, 0.0001365
DataValue, 0.0001375, -4.6347130900000004E-07, 0.185508474707603, 0.0001375, 0.0001375
DataValue, 0.0001385, -4.76313346E-07, 0.190497413277626, 0.0001385, 0.0001385
DataValue, 0.0001395, -4.8704544E-07, 0.19533497095108002, 0.0001395, 0.0001395
DataValue, 0.0001405, -5.17166711E-07, 0.200883716344833, 0.0001405, 0.0001405
DataValue, 0.0001415, -4.7318695800000005E-07, 0.206108555197716, 0.0001415, 0.0001415
DataValue, 0.00014250000000000002, -4.89379715E-07, 0.21143549680709803, 0.00014250000000000002, 0.00014250000000000002
DataValue, 0.00014350000000000002, -4.7611007400000005E-07, 0.21638923883438102, 0.00014350000000000002, 0.00014350000000000002
DataValue, 0.00014450000000000002, -5.05214928E-07, 0.22111764550209, 0.00014450000000000002, 0.00014450000000000002
DataValue, 0.0001455, -4.89540923E-07, 0.22650443017482802, 0.0001455, 0.0001455
DataValue, 0.0001465, -5.00216913E-07, 0.23147578537464103, 0.0001465, 0.0001465
DataValue, 0.0001475, -4.9322807200000008E-07, 0.236587956547737, 0.0001475, 0.0001475
DataValue, 0.0001485, -4.8785153700000009E-07, 0.24114383757114402, 0.0001485, 0.0001485
DataValue, 0.0001495, -5.0206051600000006E-07, 0.24634051322937, 0.0001495, 0.0001495
DataValue, 0.0001505, -5.1815510500000006E-07, 0.25146678090095503, 0.0001505, 0.0001505
DataValue, 0.0001515, -5.0059543400000008E-07, 0.25634303689003, 0.0001515, 0.0001515
DataValue, 0.00015250000000000002, -5.1685128700000009E-07, 0.261321425437927, 0.00015250000000000002, 0.00015250000000000002
DataValue, 0.00015350000000000002, -5.08299252E-07, 0.266359657049179, 0.00015350000000000002, 0.00015350000000000002
DataValue, 0.00015450000000000002, -5.3674523300000006E-07, 0.27134507894516, 0.00015450000000000002, 0.00015450000000000002
DataValue, 0.0001555, -4.9975426500000008E-07, 0.27634108066558805, 0.0001555, 0.0001555
DataValue, 0.0001565, -5.17482135E-07, 0.28109765052795405, 0.0001565, 0.0001565
DataValue, 0.0001575, -5.4790490400000008E-07, 0.285977452993393, 0.0001575, 0.0001575
DataValue, 0.0001585, -4.91475646E-07, 0.29100513458251903, 0.0001585, 0.0001585
DataValue, 0.0001595, -4.9888501500000006E-07, 0.29596942663192705, 0.0001595, 0.0001595
DataValue, 0.0001605, -5.94085748E-07, 0.301042884588242, 0.0001605, 0.0001605
DataValue, 0.00016150000000000002, -5.08572668E-07, 0.30581703782081604, 0.00016150000000000002, 0.00016150000000000002
DataValue, 0.00016250000000000002, -5.1372489900000006E-07, 0.31082358956337003, 0.00016250000000000002, 0.00016250000000000002
DataValue, 0.00016350000000000002, -5.5115742700000006E-07, 0.31529146432876604, 0.00016350000000000002, 0.00016350000000000002
DataValue, 0.00016450000000000001, -5.54010455E-07, 0.320357859134674, 0.00016450000000000001, 0.00016450000000000001
DataValue, 0.0001655, -5.27408076E-07, 0.32536792755126903, 0.0001655, 0.0001655
DataValue, 0.0001665, -5.5069477900000009E-07, 0.33037802577018704, 0.0001665, 0.0001665
DataValue, 0.0001675, -5.42584417E-07, 0.335303574800491, 0.0001675, 0.0001675
DataValue, 0.0001685, -5.4887925700000009E-07, 0.34037703275680503, 0.0001685, 0.0001685
DataValue, 0.0001695, -5.52110805E-07, 0.345475107431412, 0.0001695, 0.0001695
DataValue, 0.0001705, -5.5220192500000008E-07, 0.350499272346497, 0.0001705, 0.0001705
DataValue, 0.00017150000000000002, -5.8647305000000009E-07, 0.35544949769973805, 0.00017150000000000002, 0.00017150000000000002
DataValue, 0.00017250000000000002, -5.52166853E-07, 0.36075529456138605, 0.00017250000000000002, 0.00017250000000000002
DataValue, 0.00017350000000000002, -5.18148113E-07, 0.36557877063751204, 0.00017350000000000002, 0.00017350000000000002
DataValue, 0.0001745, -5.84292991E-07, 0.37045153975486805, 0.0001745, 0.0001745
DataValue, 0.0001755, -5.6013004700000009E-07, 0.375317245721817, 0.0001755, 0.0001755
DataValue, 0.0001765, -5.58160252E-07, 0.380302667617798, 0.0001765, 0.0001765
DataValue, 0.0001775, -5.6478455700000007E-07, 0.385516941547394, 0.0001775, 0.0001775
DataValue, 0.0001785, -5.94099731E-07, 0.390805155038834, 0.0001785, 0.0001785
DataValue, 0.0001795, -5.61496961E-07, 0.39545258879661604, 0.0001795, 0.0001795
DataValue, 0.00018050000000000002, -5.52846814E-07, 0.40088868141174305, 0.00018050000000000002, 0.00018050000000000002
DataValue, 0.00018150000000000002, -6.55849419E-07, 0.40607127547264105, 0.00018150000000000002, 0.00018150000000000002
DataValue, 0.00018250000000000002, -5.6101328E-07, 0.41105669736862205, 0.00018250000000000002, 0.00018250000000000002
DataValue, 0.00018350000000000002, -5.70904149E-07, 0.41582030057907104, 0.00018350000000000002, 0.00018350000000000002
DataValue, 0.0001845, -5.68611938E-07, 0.42059096693992604, 0.0001845, 0.0001845
DataValue, 0.0001855, -6.4768295300000006E-07, 0.425977766513824, 0.0001855, 0.0001855
