
SetupTitle, FE PUND 2V - reverse
ApplicationTest, WGFMU Pattern Editor, Public
TestParameter, Name, ExecutionMode, Enable1, Channel1, OperationMode1, VForceRange1, InitMeasRange1, Enable2, Channel2, OperationMode2, VForceRange2, InitMeasRange2, RepeatCount, WaveformCh1, WaveformCh2, MeasurementEvent, Output_to_File_for_PatternValidation, Output_Enable, Output_Filename, DataDisplay_for_RunVector, DataDisplay_PatternValidation, DataDisplay_Mode, LogToFile, LogFile, WarningLevel, IForceRange1, IForceRange2, Result_Update_Interval_s
TestParameter, Value, Run Vector, Enable, WGFMU1:RS	RSWGFMU, Fast IV Imeas, Auto, 10uA (Imeas), Enable, WGFMU2:RS	RSWGFMU, PG Vmeas, Auto, 5V (Vmeas), 1, , Disable, C:\WGFMUPatternEditor_Pattern.csv, , Disable, x(time)_y(meas), Disable, C:\WGFMUPatternEditor_Log.log, 2, 10mA, 10mA, 10
MetaData, TestRecord.EntryPoint, true
MetaData, TestRecord.RecordTime, 06/10/2021 10:32:43
MetaData, TestRecord.TestTarget, HZO5nmTiN_3_25um_E13
MetaData, TestRecord.IterationIndex, 3
MetaData, TestRecord.Preservation, true
MetaData, TestRecord.Flag, 
MetaData, TestRecord.Remarks, 
MetaData, TestRecord.LinkKey, 226588ab-667c-4481-8629-4bb6a7d5da01
MetaData, TestRecord.Parameters, 
Dimension1, 5000, 5000, 5000, 5000, 5000
Dimension2, 1, 1, 1, 1, 1
DataName, Time, MeasResult1_value, MeasResult2_value, MeasResult1_time, MeasResult2_time
DataValue, 5.0000000000000008E-07, -2.1795129000000002E-08, -0.00048025703290500006, 5.0000000000000008E-07, 5.0000000000000008E-07
DataValue, 1.5E-06, 3.6155242E-08, -0.00031830117222900005, 1.5E-06, 1.5E-06
DataValue, 2.5E-06, 3.7583120600000003E-07, -0.00019859462918200003, 2.5E-06, 2.5E-06
DataValue, 3.5000000000000004E-06, -3.63679192E-07, -0.00036759208887800004, 3.5000000000000004E-06, 3.5000000000000004E-06
DataValue, 4.5E-06, -1.8483706300000002E-07, -0.00036759208887800004, 4.5E-06, 4.5E-06
DataValue, 5.5000000000000007E-06, 2.55703526E-07, -0.00049434014363200008, 5.5000000000000007E-06, 5.5000000000000007E-06
DataValue, 6.5000000000000004E-06, 1.3419490600000002E-07, -0.00049434014363200008, 6.5000000000000004E-06, 6.5000000000000004E-06
DataValue, 7.5E-06, -4.51743858E-07, -0.000438007671619, 7.5E-06, 7.5E-06
DataValue, 8.5E-06, 1.4180759000000002E-07, -0.000490819395054, 8.5E-06, 8.5E-06
DataValue, 9.5E-06, 2.2499340000000003E-07, -0.00046265314449600006, 9.5E-06, 9.5E-06
DataValue, 1.0500000000000001E-05, -2.46488639E-07, -0.000490819395054, 1.0500000000000001E-05, 1.0500000000000001E-05
DataValue, 1.15E-05, -1.44453367E-07, -0.00057179731084000009, 1.15E-05, 1.15E-05
DataValue, 1.25E-05, 7.60510375E-07, -0.000272531004157, 1.25E-05, 1.25E-05
DataValue, 1.3500000000000001E-05, -6.7588359800000007E-07, -0.00057179731084000009, 1.3500000000000001E-05, 1.3500000000000001E-05
DataValue, 1.45E-05, 2.08085666E-07, -0.00032182194991, 1.45E-05, 1.45E-05
DataValue, 1.55E-05, 2.8637859400000004E-07, -0.00016338683781200002, 1.55E-05, 1.55E-05
DataValue, 1.65E-05, -1.8100269E-07, -0.00015986606013, 1.65E-05, 1.65E-05
DataValue, 1.7500000000000002E-05, -1.7608177000000001E-07, -0.00033942583832000003, 1.7500000000000002E-05, 1.7500000000000002E-05
DataValue, 1.8500000000000002E-05, 2.3414826000000003E-07, -0.00031830117222900005, 1.8500000000000002E-05, 1.8500000000000002E-05
DataValue, 1.95E-05, -1.5890064700000002E-07, -0.00019859462918200003, 1.95E-05, 1.95E-05
DataValue, 2.05E-05, 2.30471E-09, -0.000205636199098, 2.05E-05, 2.05E-05
DataValue, 2.15E-05, 2.2078749900000001E-07, -1.1993290173000002E-05, 2.15E-05, 2.15E-05
DataValue, 2.25E-05, -5.5063843E-08, 9.0109329903E-05, 2.25E-05, 2.25E-05
DataValue, 2.3500000000000002E-05, 8.242047E-09, -0.000135220587254, 2.3500000000000002E-05, 2.3500000000000002E-05
DataValue, 2.4500000000000003E-05, 2.0742673700000002E-07, -8.9450455562000008E-05, 2.4500000000000003E-05, 2.4500000000000003E-05
DataValue, 2.5500000000000003E-05, -1.4905883500000002E-07, -0.00011057513620500002, 2.5500000000000003E-05, 2.5500000000000003E-05
DataValue, 2.65E-05, -1.3304134000000002E-07, -0.000300697254715, 2.65E-05, 2.65E-05
DataValue, 2.75E-05, 3.4508602200000005E-07, -0.00040632067248200004, 2.75E-05, 2.75E-05
DataValue, 2.85E-05, -3.8414091800000005E-07, -0.000205636199098, 2.85E-05, 2.85E-05
DataValue, 2.9500000000000002E-05, 1.5528752300000002E-07, -0.000180990740773, 2.9500000000000002E-05, 2.9500000000000002E-05
DataValue, 3.0500000000000003E-05, -4.2495195000000004E-08, -0.000124658254208, 3.0500000000000003E-05, 3.0500000000000003E-05
DataValue, 3.15E-05, -4.2789608E-08, -3.6638750316E-05, 3.15E-05, 3.15E-05
DataValue, 3.2500000000000004E-05, -4.1205386E-08, -4.9517298070000006E-06, 3.2500000000000004E-05, 3.2500000000000004E-05
DataValue, 3.35E-05, -1.36251842E-07, -0.000269010226475, 3.35E-05, 3.35E-05
DataValue, 3.4500000000000005E-05, 3.0066465200000003E-07, -0.000233802435105, 3.4500000000000005E-05, 3.4500000000000005E-05
DataValue, 3.55E-05, -5.7923887200000008E-07, -0.000684462313075, 3.55E-05, 3.55E-05
DataValue, 3.65E-05, 3.9430213400000004E-07, -0.000438007671619, 3.65E-05, 3.65E-05
DataValue, 3.7500000000000003E-05, 5.3528413E-07, -0.00047321547754100004, 3.7500000000000003E-05, 3.7500000000000003E-05
DataValue, 3.85E-05, -8.2703684300000011E-07, -0.000409841450164, 3.85E-05, 3.85E-05
DataValue, 3.9500000000000005E-05, 2.5269631000000004E-07, -0.000490819395054, 3.9500000000000005E-05, 3.9500000000000005E-05
DataValue, 4.05E-05, 1.20098107E-07, -0.00061052589444400009, 4.05E-05, 4.05E-05
DataValue, 4.1500000000000006E-05, -7.232908700000001E-08, -0.000131699809572, 4.1500000000000006E-05, 4.1500000000000006E-05
DataValue, 4.25E-05, -4.2001028100000003E-07, -0.0006422129226850001, 4.25E-05, 4.25E-05
DataValue, 4.35E-05, 6.4782011600000009E-07, -0.00029013492167000003, 4.35E-05, 4.35E-05
DataValue, 4.4500000000000004E-05, -3.3611650000000003E-07, -0.00018803229613700002, 4.4500000000000004E-05, 4.4500000000000004E-05
DataValue, 4.55E-05, -7.085702E-08, -0.00044504925608600005, 4.55E-05, 4.55E-05
DataValue, 4.6500000000000005E-05, 3.4766566200000003E-07, -0.000293655699352, 4.6500000000000005E-05, 4.6500000000000005E-05
DataValue, 4.75E-05, -1.2289108E-07, -0.00044857003376800003, 4.75E-05, 4.75E-05
DataValue, 4.85E-05, -9.7571530000000011E-08, -0.000511944061145, 4.85E-05, 4.85E-05
DataValue, 4.9500000000000004E-05, 2.3654561700000002E-07, -0.00049434014363200008, 4.9500000000000004E-05, 4.9500000000000004E-05
DataValue, 5.05E-05, -2.0739474800000002E-07, -0.00039223753265100005, 5.05E-05, 5.05E-05
DataValue, 5.1500000000000005E-05, -1.8859434200000002E-07, -0.00032886350527400003, 5.1500000000000005E-05, 5.1500000000000005E-05
DataValue, 5.25E-05, 4.71648747E-07, -0.00052602717187300008, 5.25E-05, 5.25E-05
DataValue, 5.3500000000000006E-05, -1.48119511E-07, -0.000233802435105, 5.3500000000000006E-05, 5.3500000000000006E-05
DataValue, 5.45E-05, -3.8313851300000003E-07, -0.00044504925608600005, 5.45E-05, 5.45E-05
DataValue, 5.55E-05, 4.6431645700000003E-07, -0.000293655699352, 5.55E-05, 5.55E-05
DataValue, 5.6500000000000005E-05, -1.5676265300000002E-07, -0.00042040378321, 5.6500000000000005E-05, 5.6500000000000005E-05
DataValue, 5.75E-05, 2.1741576000000002E-07, -0.00037815442192400004, 5.75E-05, 5.75E-05
DataValue, 5.8500000000000006E-05, -2.08327052E-07, -0.000135220587254, 5.8500000000000006E-05, 5.8500000000000006E-05
DataValue, 5.95E-05, 2.7003864000000004E-07, -4.9517298070000006E-06, 5.95E-05, 5.95E-05
DataValue, 6.0500000000000007E-05, -2.1716645900000002E-07, -0.00015282449021500002, 6.0500000000000007E-05, 6.0500000000000007E-05
DataValue, 6.15E-05, -3.68635142E-07, -0.00020915697678, 6.15E-05, 6.15E-05
DataValue, 6.25E-05, 7.8424568500000007E-07, -0.000149303712533, 6.25E-05, 6.25E-05
DataValue, 6.35E-05, -6.71944065E-07, -0.000244364782702, 6.35E-05, 6.35E-05
DataValue, 6.4500000000000009E-05, 3.1560964E-07, -0.000311259587761, 6.4500000000000009E-05, 6.4500000000000009E-05
DataValue, 6.55E-05, -1.43745368E-07, -0.00032886350527400003, 6.55E-05, 6.55E-05
DataValue, 6.65E-05, 2.9542130200000005E-07, -0.00024084399046800001, 6.65E-05, 6.65E-05
DataValue, 6.75E-05, -3.6028643500000004E-07, -0.00034646739368300003, 6.75E-05, 6.75E-05
DataValue, 6.85E-05, 1.21724398E-07, -0.00032182194991, 6.85E-05, 6.85E-05
DataValue, 6.9500000000000009E-05, 3.6560385300000005E-07, -0.000135220587254, 6.9500000000000009E-05, 6.9500000000000009E-05
DataValue, 7.05E-05, -4.45210674E-07, -0.000427445338573, 7.05E-05, 7.05E-05
DataValue, 7.15E-05, 1.0546155900000001E-07, -0.0004027998948, 7.15E-05, 7.15E-05
DataValue, 7.25E-05, 1.2886042100000002E-07, -0.000300697254715, 7.25E-05, 7.25E-05
DataValue, 7.3500000000000011E-05, -1.5632102200000001E-07, -0.00030421803239700005, 7.3500000000000011E-05, 7.3500000000000011E-05
DataValue, 7.4500000000000008E-05, -1.01335822E-07, -0.000561235006899, 7.4500000000000008E-05, 7.4500000000000008E-05
DataValue, 7.55E-05, -1.2062690800000002E-07, -0.000508423312567, 7.55E-05, 7.55E-05
DataValue, 7.65E-05, 4.0846902000000005E-07, -0.000261968671111, 7.65E-05, 7.65E-05
DataValue, 7.75E-05, -3.12612485E-07, -0.00033590506063800005, 7.75E-05, 7.75E-05
DataValue, 7.8500000000000011E-05, 1.6511532400000002E-07, -0.00031478036544300004, 7.8500000000000011E-05, 7.8500000000000011E-05
DataValue, 7.9500000000000008E-05, 9.6888520000000007E-08, -0.00024788556038400004, 7.9500000000000008E-05, 7.9500000000000008E-05
DataValue, 8.05E-05, -4.3735938E-08, -0.00020211542141600002, 8.05E-05, 8.05E-05
DataValue, 8.15E-05, -1.2207092900000002E-07, -0.00025844789343000004, 8.15E-05, 8.15E-05
DataValue, 8.25E-05, 8.174726E-08, -0.00033590506063800005, 8.25E-05, 8.25E-05
DataValue, 8.350000000000001E-05, -2.2997345200000002E-07, -0.000568276562262, 8.350000000000001E-05, 8.350000000000001E-05
DataValue, 8.4500000000000008E-05, 7.0166998E-08, -0.000349988171365, 8.4500000000000008E-05, 8.4500000000000008E-05
DataValue, 8.55E-05, 2.02253474E-07, -0.000561235006899, 8.55E-05, 8.55E-05
DataValue, 8.65E-05, -4.3211628100000004E-07, -0.00042392456089100004, 8.65E-05, 8.65E-05
DataValue, 8.75E-05, 4.37118274E-07, -0.00027957258862400003, 8.75E-05, 8.75E-05
DataValue, 8.850000000000001E-05, -4.1604945E-08, -0.00028661414398800005, 8.850000000000001E-05, 8.850000000000001E-05
DataValue, 8.9500000000000007E-05, -9.2419299E-08, -0.000349988171365, 8.9500000000000007E-05, 8.9500000000000007E-05
DataValue, 9.05E-05, 9.1967614000000009E-08, -0.00023028165742300003, 9.05E-05, 9.05E-05
DataValue, 9.15E-05, 1.6984697000000002E-07, -0.00055419345153500006, 9.15E-05, 9.15E-05
DataValue, 9.2500000000000012E-05, -2.8951504300000003E-07, -0.000399279088015, 9.2500000000000012E-05, 9.2500000000000012E-05
DataValue, 9.3500000000000009E-05, 3.60535722E-07, -0.00035350894904700005, 9.3500000000000009E-05, 9.3500000000000009E-05
DataValue, 9.45E-05, -4.80680455E-07, -0.00031830117222900005, 9.45E-05, 9.45E-05
DataValue, 9.55E-05, 1.47338355E-07, -0.000195073851501, 9.55E-05, 9.55E-05
DataValue, 9.65E-05, 2.3663702E-08, -0.00028661414398800005, 9.65E-05, 9.65E-05
DataValue, 9.7500000000000012E-05, -4.7367038E-08, -0.00027957258862400003, 9.7500000000000012E-05, 9.7500000000000012E-05
DataValue, 9.8500000000000009E-05, 1.7768397200000002E-07, -0.00016690761549400003, 9.8500000000000009E-05, 9.8500000000000009E-05
DataValue, 9.95E-05, 2.02891371E-07, -0.00036759208887800004, 9.95E-05, 9.95E-05
DataValue, 0.0001005, -4.4964789900000006E-07, 0.001956122694537, 0.0001005, 0.0001005
DataValue, 0.0001015, -8.165918800000001E-08, 0.0069380267523230007, 0.0001015, 0.0001015
DataValue, 0.00010250000000000001, -2.55489283E-07, 0.012152302078903, 0.00010250000000000001, 0.00010250000000000001
DataValue, 0.00010350000000000001, 2.08085666E-07, 0.017514450475574, 0.00010350000000000001, 0.00010350000000000001
DataValue, 0.0001045, -7.616840780000001E-07, 0.022214692085981, 0.0001045, 0.0001045
DataValue, 0.0001055, -1.75457899E-07, 0.027182511985302003, 0.0001055, 0.0001055
DataValue, 0.0001065, 1.60776224E-07, 0.032083436846733, 0.0001065, 0.0001065
DataValue, 0.00010750000000000001, -2.7697418E-08, 0.037255465984344004, 0.00010750000000000001, 0.00010750000000000001
DataValue, 0.00010850000000000001, -5.51402763E-07, 0.042240887880325005, 0.00010850000000000001, 0.00010850000000000001
DataValue, 0.0001095, -1.10841164E-07, 0.047050274908543, 0.0001095, 0.0001095
DataValue, 0.0001105, 1.57530678E-07, 0.052077949047089005, 0.0001105, 0.0001105
DataValue, 0.00011150000000000001, -9.58296141E-07, 0.056831002235413007, 0.00011150000000000001, 0.00011150000000000001
DataValue, 0.00011250000000000001, 6.5095349600000007E-07, 0.061971340328455006, 0.00011250000000000001, 0.00011250000000000001
DataValue, 0.00011350000000000001, -4.12215343E-07, 0.067016616463661, 0.00011350000000000001, 0.00011350000000000001
DataValue, 0.0001145, -4.42441774E-07, 0.072132311761379, 0.0001145, 0.0001145
DataValue, 0.0001155, -1.3567704100000002E-07, 0.076874800026417, 0.0001155, 0.0001155
DataValue, 0.00011650000000000001, -1.7449754400000002E-07, 0.081916563212872009, 0.00011650000000000001, 0.00011650000000000001
DataValue, 0.00011750000000000001, -2.75979033E-07, 0.08688086271286001, 0.00011750000000000001, 0.00011750000000000001
DataValue, 0.00011850000000000001, -3.7230830700000003E-07, 0.092049367725849013, 0.00011850000000000001, 0.00011850000000000001
DataValue, 0.0001195, 1.70078295E-07, 0.096837624907494008, 0.0001195, 0.0001195
DataValue, 0.0001205, -4.5269717900000006E-07, 0.10177023708820301, 0.0001205, 0.0001205
DataValue, 0.00012150000000000001, -2.39128298E-07, 0.10655497759580601, 0.00012150000000000001, 0.00012150000000000001
DataValue, 0.0001225, 1.9029468500000002E-07, 0.11167419701814602, 0.0001225, 0.0001225
DataValue, 0.00012350000000000002, -6.22139112E-07, 0.116469494998455, 0.00012350000000000002, 0.00012350000000000002
DataValue, 0.00012450000000000002, -7.7957992E-08, 0.12140914797782901, 0.00012450000000000002, 0.00012450000000000002
DataValue, 0.00012550000000000002, -4.78878974E-07, 0.12628895044326802, 0.00012550000000000002, 0.00012550000000000002
DataValue, 0.0001265, -4.7654442000000006E-08, 0.131436333060265, 0.0001265, 0.0001265
DataValue, 0.0001275, -3.6681959200000005E-07, 0.13594645261764501, 0.0001275, 0.0001275
DataValue, 0.0001285, -2.3476818000000002E-07, 0.140949472784996, 0.0001285, 0.0001285
DataValue, 0.0001295, -8.6720298000000007E-08, 0.146360918879509, 0.0001295, 0.0001295
DataValue, 0.0001305, -3.9595249700000005E-07, 0.150962576270103, 0.0001305, 0.0001305
DataValue, 0.0001315, -6.5774884000000008E-08, 0.155993774533272, 0.0001315, 0.0001315
DataValue, 0.0001325, -2.65331096E-07, 0.161091864109039, 0.0001325, 0.0001325
DataValue, 0.00013350000000000002, -3.1531126900000003E-07, 0.166024476289749, 0.00013350000000000002, 0.00013350000000000002
DataValue, 0.00013450000000000002, -5.0220768300000006E-07, 0.171013414859772, 0.00013450000000000002, 0.00013450000000000002
DataValue, 0.00013550000000000001, 2.41964244E-07, 0.176322758197784, 0.00013550000000000001, 0.00013550000000000001
DataValue, 0.0001365, -4.9069052500000006E-07, 0.181128621101379, 0.0001365, 0.0001365
DataValue, 0.0001375, -2.4723166800000004E-07, 0.18623375892639202, 0.0001375, 0.0001375
DataValue, 0.0001385, -3.2087007200000004E-07, 0.191000893712044, 0.0001385, 0.0001385
DataValue, 0.0001395, 5.89375E-09, 0.196003913879394, 0.0001395, 0.0001395
DataValue, 0.0001405, -3.61302853E-07, 0.20164421200752303, 0.0001405, 0.0001405
DataValue, 0.0001415, -4.9781255E-07, 0.20691481232643103, 0.0001415, 0.0001415
DataValue, 0.00014250000000000002, 6.6150363E-08, 0.211703076958656, 0.00014250000000000002, 0.00014250000000000002
DataValue, 0.00014350000000000002, -1.1075003700000001E-07, 0.21693494915962203, 0.00014350000000000002, 0.00014350000000000002
DataValue, 0.00014450000000000002, -7.51134223E-07, 0.221860527992248, 0.00014450000000000002, 0.00014450000000000002
DataValue, 0.0001455, 2.45013524E-07, 0.22699734568595903, 0.0001455, 0.0001455
DataValue, 0.0001465, -5.40187045E-07, 0.23212008178234103, 0.0001465, 0.0001465
DataValue, 0.0001475, -2.63823978E-07, 0.23703861236572302, 0.0001475, 0.0001475
DataValue, 0.0001485, -4.7545114500000006E-07, 0.241622671484947, 0.0001485, 0.0001485
DataValue, 0.0001495, 4.17686977E-07, 0.24665033817291301, 0.0001495, 0.0001495
DataValue, 0.0001505, -8.3374521900000009E-07, 0.25165688991546603, 0.0001505, 0.0001505
DataValue, 0.0001515, -1.2007312500000002E-07, 0.256564855575562, 0.0001515, 0.0001515
DataValue, 0.00015250000000000002, 1.6095849300000002E-07, 0.26181080937385603, 0.00015250000000000002, 0.00015250000000000002
DataValue, 0.00015350000000000002, -8.4882339000000007E-07, 0.26683497428894004, 0.00015350000000000002, 0.00015350000000000002
DataValue, 0.00015450000000000002, 6.0935037000000011E-08, 0.271757036447525, 0.00015450000000000002, 0.00015450000000000002
DataValue, 0.0001555, -2.27050336E-07, 0.277112126350403, 0.0001555, 0.0001555
DataValue, 0.0001565, -4.66590706E-07, 0.281815886497498, 0.0001565, 0.0001565
DataValue, 0.0001575, -1.0048762500000001E-07, 0.28684356808662403, 0.0001575, 0.0001575
DataValue, 0.0001585, -4.5238874700000005E-07, 0.291857153177261, 0.0001585, 0.0001585
DataValue, 0.0001595, -1.54295179E-07, 0.29667711257934604, 0.0001595, 0.0001595
DataValue, 0.0001605, -6.8362243200000006E-07, 0.30152520537376404, 0.0001605, 0.0001605
DataValue, 0.00016150000000000002, -1.11219698E-07, 0.30634868144989, 0.00016150000000000002, 0.00016150000000000002
DataValue, 0.00016250000000000002, -1.4884152200000002E-07, 0.311559438705444, 0.00016250000000000002, 0.00016250000000000002
DataValue, 0.00016350000000000002, -3.6846691400000005E-07, 0.316210389137268, 0.00016350000000000002, 0.00016350000000000002
DataValue, 0.00016450000000000001, -9.1052378000000008E-08, 0.32112187147140503, 0.00016450000000000001, 0.00016450000000000001
DataValue, 0.0001655, -6.2170448700000009E-07, 0.32631504535675004, 0.0001655, 0.0001655
DataValue, 0.0001665, -2.0065827800000003E-07, 0.33111032843589805, 0.0001665, 0.0001665
DataValue, 0.0001675, -3.1104929100000004E-07, 0.336028873920441, 0.0001675, 0.0001675
DataValue, 0.0001685, -4.72577113E-07, 0.341091752052307, 0.0001685, 0.0001685
DataValue, 0.0001695, -3.24255836E-07, 0.345925778150559, 0.0001695, 0.0001695
DataValue, 0.0001705, -4.9301754E-08, 0.35080558061599704, 0.0001705, 0.0001705
DataValue, 0.00017150000000000002, -5.47925879E-07, 0.35563257336616505, 0.00017150000000000002, 0.00017150000000000002
DataValue, 0.00017250000000000002, -4.3682689500000004E-07, 0.36095246672630305, 0.00017250000000000002, 0.00017250000000000002
DataValue, 0.00017350000000000002, 9.363622E-09, 0.365973085165024, 0.00017350000000000002, 0.00017350000000000002
DataValue, 0.0001745, 6.741941E-09, 0.371293008327484, 0.0001745, 0.0001745
DataValue, 0.0001755, -1.0031731110000002E-06, 0.37604606151580805, 0.0001755, 0.0001755
DataValue, 0.0001765, 1.08181382E-07, 0.381239205598831, 0.0001765, 0.0001765
DataValue, 0.0001775, -4.9708326E-08, 0.386478126049042, 0.0001775, 0.0001775
DataValue, 0.0001785, -6.6885269200000009E-07, 0.391597330570221, 0.0001785, 0.0001785
DataValue, 0.0001795, -3.5250550900000004E-07, 0.396463066339493, 0.0001795, 0.0001795
DataValue, 0.00018050000000000002, 2.0971923000000003E-08, 0.401638597249985, 0.00018050000000000002, 0.00018050000000000002
DataValue, 0.00018150000000000002, -8.01030296E-07, 0.40652191638946505, 0.00018150000000000002, 0.00018150000000000002
DataValue, 0.00018250000000000002, -5.4720363E-08, 0.41152143478393605, 0.00018250000000000002, 0.00018250000000000002
DataValue, 0.00018350000000000002, -2.45927851E-07, 0.41658079624176003, 0.00018350000000000002, 0.00018350000000000002
DataValue, 0.0001845, -4.4841417E-07, 0.42162957787513705, 0.0001845, 0.0001845
