
SetupTitle, FE PUND 2V - reverse
ApplicationTest, WGFMU Pattern Editor, Public
TestParameter, Name, ExecutionMode, Enable1, Channel1, OperationMode1, VForceRange1, InitMeasRange1, Enable2, Channel2, OperationMode2, VForceRange2, InitMeasRange2, RepeatCount, WaveformCh1, WaveformCh2, MeasurementEvent, Output_to_File_for_PatternValidation, Output_Enable, Output_Filename, DataDisplay_for_RunVector, DataDisplay_PatternValidation, DataDisplay_Mode, LogToFile, LogFile, WarningLevel, IForceRange1, IForceRange2, Result_Update_Interval_s
TestParameter, Value, Run Vector, Enable, WGFMU1:RS	RSWGFMU, Fast IV Imeas, Auto, 10uA (Imeas), Enable, WGFMU2:RS	RSWGFMU, PG Vmeas, Auto, 5V (Vmeas), 1, , Disable, C:\WGFMUPatternEditor_Pattern.csv, , Disable, x(time)_y(meas), Disable, C:\WGFMUPatternEditor_Log.log, 2, 10mA, 10mA, 10
MetaData, TestRecord.EntryPoint, true
MetaData, TestRecord.RecordTime, 06/10/2021 11:27:56
MetaData, TestRecord.TestTarget, ZrO2_1_25um_D1
MetaData, TestRecord.IterationIndex, 5
MetaData, TestRecord.Preservation, true
MetaData, TestRecord.Flag, 
MetaData, TestRecord.Remarks, 
MetaData, TestRecord.LinkKey, 16333329-276d-4f87-9b04-93527d5f4ade
MetaData, TestRecord.Parameters, 
Dimension1, 5000, 5000, 5000, 5000, 5000
Dimension2, 1, 1, 1, 1, 1
DataName, Time, MeasResult1_value, MeasResult2_value, MeasResult1_time, MeasResult2_time
DataValue, 5.0000000000000008E-07, -7.5441190000000011E-09, -0.00041688300552800004, 5.0000000000000008E-07, 5.0000000000000008E-07
DataValue, 1.5E-06, -4.6350340000000007E-09, -0.000501381698996, 1.5E-06, 1.5E-06
DataValue, 2.5E-06, -7.7962100000000005E-10, -0.000381675199606, 2.5E-06, 2.5E-06
DataValue, 3.5000000000000004E-06, 4.043151E-09, -0.00062108825659400006, 3.5000000000000004E-06, 3.5000000000000004E-06
DataValue, 4.5E-06, -1.1140169E-08, -0.00080768961925100009, 4.5E-06, 4.5E-06
DataValue, 5.5000000000000007E-06, 5.494189E-09, -0.00056475575547700009, 5.5000000000000007E-06, 5.5000000000000007E-06
DataValue, 6.5000000000000004E-06, -3.821893E-09, -0.000585880421568, 6.5000000000000004E-06, 6.5000000000000004E-06
DataValue, 7.5E-06, 5.6343860000000008E-09, -0.000761919480283, 7.5E-06, 7.5E-06
DataValue, 8.5E-06, -2.9947310000000004E-09, -0.000740794755984, 8.5E-06, 8.5E-06
DataValue, 9.5E-06, 8.8171200000000007E-10, -0.000684462313075, 9.5E-06, 9.5E-06
DataValue, 1.0500000000000001E-05, 6.019927E-09, -0.00078656489495200011, 1.0500000000000001E-05, 1.0500000000000001E-05
DataValue, 1.15E-05, -3.8359120000000005E-09, -0.000800648063887, 1.15E-05, 1.15E-05
DataValue, 1.25E-05, -4.621015E-09, -0.000740794755984, 1.25E-05, 1.25E-05
DataValue, 1.3500000000000001E-05, 5.662425E-09, -0.0011316013988110002, 1.3500000000000001E-05, 1.3500000000000001E-05
DataValue, 1.45E-05, 7.2536590000000005E-09, -0.00086402206216000012, 1.45E-05, 1.45E-05
DataValue, 1.55E-05, -2.941483E-08, -0.0009520415915180001, 1.55E-05, 1.55E-05
DataValue, 1.65E-05, 1.8160975E-08, -0.001202016952448, 1.65E-05, 1.65E-05
DataValue, 1.7500000000000002E-05, 5.339972E-09, -0.000888667535037, 1.7500000000000002E-05, 1.7500000000000002E-05
DataValue, 1.8500000000000002E-05, -1.2689344E-08, -0.001015415647998, 1.8500000000000002E-05, 1.8500000000000002E-05
DataValue, 1.95E-05, 1.1739959000000001E-08, -0.001117518288083, 1.95E-05, 1.95E-05
DataValue, 2.05E-05, -1.5325044E-08, -0.0009590831468810001, 2.05E-05, 2.05E-05
DataValue, 2.15E-05, 1.0541275000000002E-08, -0.001043581869453, 2.15E-05, 2.15E-05
DataValue, 2.25E-05, 8.052782000000001E-09, -0.00065981684019800007, 2.25E-05, 2.25E-05
DataValue, 2.3500000000000002E-05, -4.3125810000000007E-09, -0.000945000036154, 2.3500000000000002E-05, 2.3500000000000002E-05
DataValue, 2.4500000000000003E-05, -2.195609E-09, -0.000666858395562, 2.4500000000000003E-05, 2.4500000000000003E-05
DataValue, 2.5500000000000003E-05, 2.192553E-09, -0.00045561158913200005, 2.5500000000000003E-05, 2.5500000000000003E-05
DataValue, 2.65E-05, -5.8547470000000006E-09, -0.00038519597728700004, 2.65E-05, 2.65E-05
DataValue, 2.75E-05, 9.5882E-10, -0.00051546486793100006, 2.75E-05, 2.75E-05
DataValue, 2.85E-05, 4.435702E-09, -0.000438007671619, 2.85E-05, 2.85E-05
DataValue, 2.9500000000000002E-05, -2.1395300000000004E-09, -0.00073727400740600008, 2.9500000000000002E-05, 2.9500000000000002E-05
DataValue, 3.0500000000000003E-05, 3.5805020000000004E-09, -0.00058940122835300006, 3.0500000000000003E-05, 3.0500000000000003E-05
DataValue, 3.15E-05, -4.7752310000000006E-09, -0.000311259587761, 3.15E-05, 3.15E-05
DataValue, 3.2500000000000004E-05, 2.5290250000000004E-09, -0.00051546486793100006, 3.2500000000000004E-05, 3.2500000000000004E-05
DataValue, 3.35E-05, 1.6457850000000002E-09, -0.00017746994854000002, 3.35E-05, 3.35E-05
DataValue, 3.4500000000000005E-05, -1.5184847E-08, -0.000244364782702, 3.4500000000000005E-05, 3.4500000000000005E-05
DataValue, 3.55E-05, 7.4499350000000005E-09, -5.7763430959E-05, 3.55E-05, 3.55E-05
DataValue, 3.65E-05, 5.0876180000000005E-09, -0.000145782934851, 3.65E-05, 3.65E-05
DataValue, 3.7500000000000003E-05, -3.0375176E-08, -0.00043448689393700004, 3.7500000000000003E-05, 3.7500000000000003E-05
DataValue, 3.85E-05, 1.5504245E-08, -0.00035350894904700005, 3.85E-05, 3.85E-05
DataValue, 3.9500000000000005E-05, 7.5901320000000012E-09, -0.00030773881007900003, 3.9500000000000005E-05, 3.9500000000000005E-05
DataValue, 4.05E-05, -8.083877E-09, -0.00040632067248200004, 4.05E-05, 4.05E-05
DataValue, 4.1500000000000006E-05, -6.7940660000000007E-09, -0.00010705435124700001, 4.1500000000000006E-05, 4.1500000000000006E-05
DataValue, 4.25E-05, 1.4670073000000002E-08, -0.000529547978658, 4.25E-05, 4.25E-05
DataValue, 4.35E-05, -5.8687670000000005E-09, -0.000261968671111, 4.35E-05, 4.35E-05
DataValue, 4.4500000000000004E-05, -6.5627410000000008E-09, -0.00033590506063800005, 4.4500000000000004E-05, 4.4500000000000004E-05
DataValue, 4.55E-05, 3.6996690000000004E-09, -0.000624609005172, 4.55E-05, 4.55E-05
DataValue, 4.6500000000000005E-05, -3.47841E-09, -0.00021971930982500002, 4.6500000000000005E-05, 4.6500000000000005E-05
DataValue, 4.75E-05, 1.0920070000000001E-09, -0.00056475575547700009, 4.75E-05, 4.75E-05
DataValue, 4.85E-05, 6.5246350000000008E-09, -0.000638692174107, 4.85E-05, 4.85E-05
DataValue, 4.9500000000000004E-05, -1.038985E-09, -0.000800648063887, 4.9500000000000004E-05, 4.9500000000000004E-05
DataValue, 5.05E-05, -4.4317490000000006E-09, -0.000684462313075, 5.05E-05, 5.05E-05
DataValue, 5.1500000000000005E-05, -4.599985E-09, -0.00087106361752400008, 5.1500000000000005E-05, 5.1500000000000005E-05
DataValue, 5.25E-05, -5.7916580000000008E-09, -0.000856980506796, 5.25E-05, 5.25E-05
DataValue, 5.3500000000000006E-05, 1.3807862000000001E-08, -0.00085345975821800009, 5.3500000000000006E-05, 5.3500000000000006E-05
DataValue, 5.45E-05, -9.89916E-10, -0.001057664980181, 5.45E-05, 5.45E-05
DataValue, 5.55E-05, -1.1160930000000002E-09, -0.000962603895459, 5.55E-05, 5.55E-05
DataValue, 5.6500000000000005E-05, -8.364271E-09, -0.00083937658928300008, 5.6500000000000005E-05, 5.6500000000000005E-05
DataValue, 5.75E-05, 1.891129E-09, -0.000973166257609, 5.75E-05, 5.75E-05
DataValue, 5.8500000000000006E-05, 1.6948272E-08, -0.000818251923192, 5.8500000000000006E-05, 5.8500000000000006E-05
DataValue, 5.95E-05, 3.124862E-09, -0.000779523339588, 5.95E-05, 5.95E-05
DataValue, 6.0500000000000007E-05, -8.4270900000000007E-10, -0.00080768961925100009, 6.0500000000000007E-05, 6.0500000000000007E-05
DataValue, 6.15E-05, -1.4876150000000001E-09, -0.000712628534529, 6.15E-05, 6.15E-05
DataValue, 6.25E-05, -1.0053643E-08, -0.000638692174107, 6.25E-05, 6.25E-05
DataValue, 6.35E-05, 2.157504E-09, -0.00062108825659400006, 6.35E-05, 6.35E-05
DataValue, 6.4500000000000009E-05, 8.12989E-09, -0.00080768961925100009, 6.4500000000000009E-05, 6.4500000000000009E-05
DataValue, 6.55E-05, -9.212462E-09, -0.00067037914414000009, 6.55E-05, 6.55E-05
DataValue, 6.65E-05, 1.1901450000000001E-09, -0.00053658953402200009, 6.65E-05, 6.65E-05
DataValue, 6.75E-05, -4.410719E-09, -0.000233802435105, 6.75E-05, 6.75E-05
DataValue, 6.85E-05, 5.7956120000000006E-09, -0.000156345267897, 6.85E-05, 6.85E-05
DataValue, 6.9500000000000009E-05, -1.3593613000000002E-08, -0.00053306872723600008, 6.9500000000000009E-05, 6.9500000000000009E-05
DataValue, 7.05E-05, -1.2212410000000001E-09, -0.000635171367321, 7.05E-05, 7.05E-05
DataValue, 7.15E-05, -2.0624220000000002E-09, -0.00047321547754100004, 7.15E-05, 7.15E-05
DataValue, 7.25E-05, 1.8701E-09, -0.00041688300552800004, 7.25E-05, 7.25E-05
DataValue, 7.3500000000000011E-05, -4.9364570000000004E-09, -0.00064925447804900006, 7.3500000000000011E-05, 7.3500000000000011E-05
DataValue, 7.4500000000000008E-05, 4.232417E-09, -0.00059292203513900007, 7.4500000000000008E-05, 7.4500000000000008E-05
DataValue, 7.55E-05, 2.4519170000000002E-09, -0.000585880421568, 7.55E-05, 7.55E-05
DataValue, 7.65E-05, -8.076867E-09, -0.00057179731084000009, 7.65E-05, 7.65E-05
DataValue, 7.75E-05, 1.3506440000000002E-08, -0.000607005145866, 7.75E-05, 7.75E-05
DataValue, 7.8500000000000011E-05, -1.0894824000000001E-08, -0.000501381698996, 7.8500000000000011E-05, 7.8500000000000011E-05
DataValue, 7.9500000000000008E-05, 1.0362000000000001E-10, -0.00074431556277, 7.9500000000000008E-05, 7.9500000000000008E-05
DataValue, 8.05E-05, 7.5200330000000011E-09, -0.00055067264474900005, 8.05E-05, 8.05E-05
DataValue, 8.15E-05, -5.6234220000000006E-09, -0.000568276562262, 8.15E-05, 8.15E-05
DataValue, 8.25E-05, -7.0674500000000009E-09, -0.00082529347855600011, 8.25E-05, 8.25E-05
DataValue, 8.350000000000001E-05, 3.4823640000000004E-09, -0.00068798306165300006, 8.350000000000001E-05, 8.350000000000001E-05
DataValue, 8.4500000000000008E-05, 1.5546570000000002E-09, -0.000849938951433, 8.4500000000000008E-05, 8.4500000000000008E-05
DataValue, 8.55E-05, -2.0273730000000003E-09, -0.00084289739606900008, 8.55E-05, 8.55E-05
DataValue, 8.65E-05, 1.0723531000000002E-08, -0.00088162597967300009, 8.65E-05, 8.65E-05
DataValue, 8.75E-05, -4.9715070000000006E-09, -0.00061756744980800006, 8.75E-05, 8.75E-05
DataValue, 8.850000000000001E-05, -4.1583650000000005E-09, -0.00064925447804900006, 8.850000000000001E-05, 8.850000000000001E-05
DataValue, 8.9500000000000007E-05, 1.8455388E-08, -0.000585880421568, 8.9500000000000007E-05, 8.9500000000000007E-05
DataValue, 9.05E-05, -1.3859988000000001E-08, -0.00064925447804900006, 9.05E-05, 9.05E-05
DataValue, 9.15E-05, -6.3244060000000005E-09, -0.0006140467012300001, 9.15E-05, 9.15E-05
DataValue, 9.2500000000000012E-05, 1.3366242000000001E-08, -0.000438007671619, 9.2500000000000012E-05, 9.2500000000000012E-05
DataValue, 9.3500000000000009E-05, -5.7005300000000008E-09, -0.000705586979166, 9.3500000000000009E-05, 9.3500000000000009E-05
DataValue, 9.45E-05, -3.5765480000000002E-09, -0.00033590506063800005, 9.45E-05, 9.45E-05
DataValue, 9.55E-05, 4.260456E-09, -0.000427445338573, 9.55E-05, 9.55E-05
DataValue, 9.65E-05, 3.34944E-10, -0.00044504925608600005, 9.65E-05, 9.65E-05
DataValue, 9.7500000000000012E-05, -4.929448E-09, -0.0007091077277440001, 9.7500000000000012E-05, 9.7500000000000012E-05
DataValue, 9.8500000000000009E-05, 1.2686288000000001E-08, -0.00040632067248200004, 9.8500000000000009E-05, 9.8500000000000009E-05
DataValue, 9.95E-05, -1.2401940000000002E-08, -0.00045561158913200005, 9.95E-05, 9.95E-05
DataValue, 0.0001005, -8.0810999E-08, 0.0018293746979910002, 0.0001005, 0.0001005
DataValue, 0.0001015, -1.23851436E-07, 0.006853527855128, 0.0001015, 0.0001015
DataValue, 0.00010250000000000001, -1.1875528100000001E-07, 0.011930492706597, 0.00010250000000000001, 0.00010250000000000001
DataValue, 0.00010350000000000001, -1.208372E-07, 0.017049707472324, 0.00010350000000000001, 0.00010350000000000001
DataValue, 0.0001045, -1.2533752200000002E-07, 0.021908383816481, 0.0001045, 0.0001045
DataValue, 0.0001055, -1.1040655300000001E-07, 0.026893807575107002, 0.0001055, 0.0001055
DataValue, 0.0001065, -1.37001905E-07, 0.031720798462629, 0.0001065, 0.0001065
DataValue, 0.00010750000000000001, -1.1449329700000001E-07, 0.036445684731007004, 0.00010750000000000001, 0.00010750000000000001
DataValue, 0.00010850000000000001, -1.1918287900000001E-07, 0.041631795465946, 0.00010850000000000001, 0.00010850000000000001
DataValue, 0.0001095, -1.2200084100000001E-07, 0.046550322324038, 0.0001095, 0.0001095
DataValue, 0.0001105, -1.29725677E-07, 0.051761079579592, 0.0001105, 0.0001105
DataValue, 0.00011150000000000001, -1.17528558E-07, 0.056531734764576007, 0.00011150000000000001, 0.00011150000000000001
DataValue, 0.00011250000000000001, -1.14170838E-07, 0.061587575823069007, 0.00011250000000000001, 0.00011250000000000001
DataValue, 0.00011350000000000001, -1.4190177900000002E-07, 0.066333584487438008, 0.00011350000000000001, 0.00011350000000000001
DataValue, 0.0001145, -9.7333199000000009E-08, 0.07116761803627, 0.0001145, 0.0001145
DataValue, 0.0001155, -1.4080123400000002E-07, 0.076205857098103, 0.0001155, 0.0001155
DataValue, 0.00011650000000000001, -1.24944975E-07, 0.081381402909756012, 0.00011650000000000001, 0.00011650000000000001
DataValue, 0.00011750000000000001, -1.1446525100000001E-07, 0.086250640451908, 0.00011750000000000001, 0.00011750000000000001
DataValue, 0.00011850000000000001, -1.2242843200000002E-07, 0.091327607631683, 0.00011850000000000001, 0.00011850000000000001
DataValue, 0.0001195, -1.2429305200000002E-07, 0.09637288004159901, 0.0001195, 0.0001195
DataValue, 0.0001205, -1.26690423E-07, 0.101344227790832, 0.0001205, 0.0001205
DataValue, 0.00012150000000000001, -1.22393388E-07, 0.106315568089485, 0.00012150000000000001, 0.00012150000000000001
DataValue, 0.0001225, -1.2547070600000002E-07, 0.111209452152252, 0.0001225, 0.0001225
DataValue, 0.00012350000000000002, -1.2851998600000002E-07, 0.11595194041729001, 0.00012350000000000002, 0.00012350000000000002
DataValue, 0.00012450000000000002, -1.2137695600000002E-07, 0.12123662978410701, 0.00012450000000000002, 0.00012450000000000002
DataValue, 0.00012550000000000002, -1.39252066E-07, 0.12619036436080902, 0.00012550000000000002, 0.00012550000000000002
DataValue, 0.0001265, -1.2505712700000002E-07, 0.13118283450603502, 0.0001265, 0.0001265
DataValue, 0.0001275, -1.36062582E-07, 0.136013343930244, 0.0001275, 0.0001275
DataValue, 0.0001285, -1.19561406E-07, 0.141033977270126, 0.0001285, 0.0001285
DataValue, 0.0001295, -1.31541228E-07, 0.146213039755821, 0.0001295, 0.0001295
DataValue, 0.0001305, -1.2688669E-07, 0.15108932554721802, 0.0001305, 0.0001305
DataValue, 0.0001315, -1.39946039E-07, 0.156240224838257, 0.0001315, 0.0001315
DataValue, 0.0001325, -1.32172119E-07, 0.16110242903232602, 0.0001325, 0.0001325
DataValue, 0.00013350000000000002, -1.25779138E-07, 0.16624628007412, 0.00013350000000000002, 0.00013350000000000002
DataValue, 0.00013450000000000002, -1.4835784200000002E-07, 0.17116834223270402, 0.00013450000000000002, 0.00013450000000000002
DataValue, 0.00013550000000000001, -1.23304673E-07, 0.17616784572601302, 0.00013550000000000001, 0.00013550000000000001
DataValue, 0.0001365, -1.4357011900000002E-07, 0.18123424053192103, 0.0001365, 0.0001365
DataValue, 0.0001375, -1.2444726800000002E-07, 0.186018988490105, 0.0001375, 0.0001375
DataValue, 0.0001385, -1.3956750400000002E-07, 0.19112764298915902, 0.0001385, 0.0001385
DataValue, 0.0001395, -1.43044389E-07, 0.19593350589275402, 0.0001395, 0.0001395
DataValue, 0.0001405, -1.33973643E-07, 0.20101751387119302, 0.0001405, 0.0001405
DataValue, 0.0001415, -1.48477014E-07, 0.20660498738288902, 0.0001415, 0.0001415
DataValue, 0.00014250000000000002, -1.3360212800000002E-07, 0.21166434884071303, 0.00014250000000000002, 0.00014250000000000002
DataValue, 0.00014350000000000002, -1.47159156E-07, 0.216681465506554, 0.00014350000000000002, 0.00014350000000000002
DataValue, 0.00014450000000000002, -1.3220015700000002E-07, 0.22186757624149303, 0.00014450000000000002, 0.00014450000000000002
DataValue, 0.0001455, -1.5048883E-07, 0.22659245133400002, 0.0001455, 0.0001455
DataValue, 0.0001465, -1.36195766E-07, 0.23145817220211, 0.0001465, 0.0001465
DataValue, 0.0001475, -1.23977614E-07, 0.23665484786033603, 0.0001475, 0.0001475
DataValue, 0.0001485, -1.6061805800000002E-07, 0.241443112492561, 0.0001485, 0.0001485
DataValue, 0.0001495, -1.3296423200000002E-07, 0.24612222611904103, 0.0001495, 0.0001495
DataValue, 0.0001505, -1.3600650600000002E-07, 0.25138226151466403, 0.0001505, 0.0001505
DataValue, 0.0001515, -1.44425329E-07, 0.256265580654144, 0.0001515, 0.0001515
DataValue, 0.00015250000000000002, -1.49065841E-07, 0.26173335313797, 0.00015250000000000002, 0.00015250000000000002
DataValue, 0.00015350000000000002, -1.35333551E-07, 0.26682794094085704, 0.00015350000000000002, 0.00015350000000000002
DataValue, 0.00015450000000000002, -1.44859939E-07, 0.27188730239868203, 0.00015450000000000002, 0.00015450000000000002
DataValue, 0.0001555, -1.46745577E-07, 0.27681285142898604, 0.0001555, 0.0001555
DataValue, 0.0001565, -1.52339439E-07, 0.281710267066956, 0.0001565, 0.0001565
DataValue, 0.0001575, -1.44516449E-07, 0.28680482506752003, 0.0001575, 0.0001575
DataValue, 0.0001585, -1.42084033E-07, 0.29173743724823004, 0.0001585, 0.0001585
DataValue, 0.0001595, -1.43885572E-07, 0.29657149314880404, 0.0001595, 0.0001595
DataValue, 0.0001605, -1.5039070400000003E-07, 0.301810413599014, 0.0001605, 0.0001605
DataValue, 0.00016150000000000002, -1.6160645100000002E-07, 0.306581050157547, 0.00016150000000000002, 0.00016150000000000002
DataValue, 0.00016250000000000002, -1.45413708E-07, 0.31145733594894404, 0.00016250000000000002, 0.00016250000000000002
DataValue, 0.00016350000000000002, -1.5497514E-07, 0.31582662463188205, 0.00016350000000000002, 0.00016350000000000002
DataValue, 0.00016450000000000001, -1.52486649E-07, 0.321164131164551, 0.00016450000000000001, 0.00016450000000000001
DataValue, 0.0001655, -1.5472979000000002E-07, 0.326068580150604, 0.0001655, 0.0001655
DataValue, 0.0001665, -1.53461016E-07, 0.33128285408020003, 0.0001665, 0.0001665
DataValue, 0.0001675, -1.55052248E-07, 0.335891544818878, 0.0001675, 0.0001675
DataValue, 0.0001685, -1.5335585600000002E-07, 0.341021329164505, 0.0001685, 0.0001685
DataValue, 0.0001695, -1.6791530300000002E-07, 0.346281379461288, 0.0001695, 0.0001695
DataValue, 0.0001705, -1.60821344E-07, 0.35125625133514404, 0.0001705, 0.0001705
DataValue, 0.00017150000000000002, -1.51042613E-07, 0.356167733669281, 0.00017150000000000002, 0.00017150000000000002
DataValue, 0.00017250000000000002, -1.56517302E-07, 0.36113554239273105, 0.00017250000000000002, 0.00017250000000000002
DataValue, 0.00017350000000000002, -1.57842166E-07, 0.365797072649002, 0.00017350000000000002, 0.00017350000000000002
DataValue, 0.0001745, -1.5955257E-07, 0.370599418878555, 0.0001745, 0.0001745
DataValue, 0.0001755, -1.53054444E-07, 0.37571159005165106, 0.0001755, 0.0001755
DataValue, 0.0001765, -1.53187628E-07, 0.380714595317841, 0.0001765, 0.0001765
DataValue, 0.0001775, -1.86484385E-07, 0.38564720749855, 0.0001775, 0.0001775
DataValue, 0.0001785, -1.5543078300000002E-07, 0.39072066545486406, 0.0001785, 0.0001785
DataValue, 0.0001795, -1.4918501300000002E-07, 0.39553707838058505, 0.0001795, 0.0001795
DataValue, 0.00018050000000000002, -1.63779504E-07, 0.40077248215675304, 0.00018050000000000002, 0.00018050000000000002
DataValue, 0.00018150000000000002, -1.72310479E-07, 0.406036049127579, 0.00018150000000000002, 0.00018150000000000002
DataValue, 0.00018250000000000002, -1.72324505E-07, 0.41085600852966303, 0.00018250000000000002, 0.00018250000000000002
DataValue, 0.00018350000000000002, -1.5486999400000001E-07, 0.416182935237884, 0.00018350000000000002, 0.00018350000000000002
DataValue, 0.0001845, -1.66289027E-07, 0.421189486980438, 0.0001845, 0.0001845
DataValue, 0.0001855, -1.65609066E-07, 0.42602351307869, 0.0001855, 0.0001855
