
SetupTitle, FE PUND 2.5V - reverse
ApplicationTest, WGFMU Pattern Editor, Public
TestParameter, Name, ExecutionMode, Enable1, Channel1, OperationMode1, VForceRange1, InitMeasRange1, Enable2, Channel2, OperationMode2, VForceRange2, InitMeasRange2, RepeatCount, WaveformCh1, WaveformCh2, MeasurementEvent, Output_to_File_for_PatternValidation, Output_Enable, Output_Filename, DataDisplay_for_RunVector, DataDisplay_PatternValidation, DataDisplay_Mode, LogToFile, LogFile, WarningLevel, IForceRange1, IForceRange2, Result_Update_Interval_s
TestParameter, Value, Run Vector, Enable, WGFMU1:RS	RSWGFMU, Fast IV Imeas, Auto, 1uA (Imeas), Enable, WGFMU2:RS	RSWGFMU, PG Vmeas, Auto, 5V (Vmeas), 1, , Disable, C:\WGFMUPatternEditor_Pattern.csv, , Disable, x(time)_y(meas), Disable, C:\WGFMUPatternEditor_Log.log, 2, 10mA, 10mA, 10
MetaData, TestRecord.EntryPoint, true
MetaData, TestRecord.RecordTime, 06/10/2021 11:29:59
MetaData, TestRecord.TestTarget, ZrO2_1_25um_D1
MetaData, TestRecord.IterationIndex, 1
MetaData, TestRecord.Preservation, true
MetaData, TestRecord.Flag, 
MetaData, TestRecord.Remarks, 
MetaData, TestRecord.LinkKey, 77c71e59-fc1a-4691-b228-b1b36a511f97
MetaData, TestRecord.Parameters, 
Dimension1, 5000, 5000, 5000, 5000, 5000
Dimension2, 1, 1, 1, 1, 1
DataName, Time, MeasResult1_value, MeasResult2_value, MeasResult1_time, MeasResult2_time
DataValue, 5.0000000000000008E-07, -1.877147E-09, -0.000511944061145, 5.0000000000000008E-07, 5.0000000000000008E-07
DataValue, 1.5E-06, 3.5075720000000003E-09, -0.000501381698996, 1.5E-06, 1.5E-06
DataValue, 2.5E-06, -1.315581E-09, -0.000311259587761, 2.5E-06, 2.5E-06
DataValue, 3.5000000000000004E-06, -2.2197030000000002E-09, -0.000624609005172, 3.5000000000000004E-06, 3.5000000000000004E-06
DataValue, 4.5E-06, -3.11079E-10, -0.00044152844930100006, 4.5E-06, 4.5E-06
DataValue, 5.5000000000000007E-06, 1.023343E-09, -0.00041688300552800004, 5.5000000000000007E-06, 5.5000000000000007E-06
DataValue, 6.5000000000000004E-06, 3.54267E-09, -0.00029717647703400005, 6.5000000000000004E-06, 6.5000000000000004E-06
DataValue, 7.5E-06, -4.7674100000000006E-10, -0.00047321547754100004, 7.5E-06, 7.5E-06
DataValue, 8.5E-06, -8.0104600000000011E-10, -0.000293655699352, 8.5E-06, 8.5E-06
DataValue, 9.5E-06, 1.2423540000000002E-09, -0.000244364782702, 9.5E-06, 9.5E-06
DataValue, 1.0500000000000001E-05, -1.9901630000000002E-09, -0.00037463364424200006, 1.0500000000000001E-05, 1.0500000000000001E-05
DataValue, 1.15E-05, 2.490435E-09, -0.000364071311196, 1.15E-05, 1.15E-05
DataValue, 1.25E-05, -1.780277E-09, -0.00044152844930100006, 1.25E-05, 1.25E-05
DataValue, 1.3500000000000001E-05, -6.92944E-10, -0.00058235967299000006, 1.3500000000000001E-05, 1.3500000000000001E-05
DataValue, 1.45E-05, 2.771218E-09, -0.00031478036544300004, 1.45E-05, 1.45E-05
DataValue, 1.55E-05, 2.304416E-09, -0.000388716754969, 1.55E-05, 1.55E-05
DataValue, 1.65E-05, -5.1454640000000006E-09, -0.00010705435124700001, 1.65E-05, 1.65E-05
DataValue, 1.7500000000000002E-05, -3.3126510000000005E-09, -0.00020915697678, 1.7500000000000002E-05, 1.7500000000000002E-05
DataValue, 1.8500000000000002E-05, 3.2660990000000002E-09, -0.00012817903189000002, 1.8500000000000002E-05, 1.8500000000000002E-05
DataValue, 1.95E-05, -5.8284680000000004E-09, -0.000364071311196, 1.95E-05, 1.95E-05
DataValue, 2.05E-05, 4.509968E-09, -0.00023028165742300003, 2.05E-05, 2.05E-05
DataValue, 2.15E-05, 1.444518E-09, -8.2408892922000013E-05, 2.15E-05, 2.15E-05
DataValue, 2.25E-05, -3.3112470000000004E-09, -0.00016338683781200002, 2.25E-05, 2.25E-05
DataValue, 2.3500000000000002E-05, 5.1021200000000006E-10, -0.00058235967299000006, 2.3500000000000002E-05, 2.3500000000000002E-05
DataValue, 2.4500000000000003E-05, 4.3351800000000007E-09, -0.000364071311196, 2.4500000000000003E-05, 2.4500000000000003E-05
DataValue, 2.5500000000000003E-05, 1.637556E-09, -0.000276051810943, 2.5500000000000003E-05, 2.5500000000000003E-05
DataValue, 2.65E-05, 4.99682E-10, -0.00047321547754100004, 2.65E-05, 2.65E-05
DataValue, 2.75E-05, 1.752677E-09, -0.000490819395054, 2.75E-05, 2.75E-05
DataValue, 2.85E-05, -6.5925000000000008E-10, -0.000459132366814, 2.85E-05, 2.85E-05
DataValue, 2.9500000000000002E-05, -2.1403820000000002E-09, -0.00053658953402200009, 2.9500000000000002E-05, 2.9500000000000002E-05
DataValue, 3.0500000000000003E-05, 5.548866E-09, -0.00038519597728700004, 3.0500000000000003E-05, 3.0500000000000003E-05
DataValue, 3.15E-05, -4.8099280000000008E-09, -0.00045209081145, 3.15E-05, 3.15E-05
DataValue, 3.2500000000000004E-05, -2.45095E-10, -0.00044857003376800003, 3.2500000000000004E-05, 3.2500000000000004E-05
DataValue, 3.35E-05, 1.13605E-10, -0.00046265314449600006, 3.35E-05, 3.35E-05
DataValue, 3.4500000000000005E-05, -3.08271E-10, -0.00040632067248200004, 3.4500000000000005E-05, 3.4500000000000005E-05
DataValue, 3.55E-05, 1.216381E-09, -0.00014226215716900002, 3.55E-05, 3.55E-05
DataValue, 3.65E-05, 2.0685580000000003E-09, -0.000103533573565, 3.65E-05, 3.65E-05
DataValue, 3.7500000000000003E-05, 2.051009E-09, 0.000185170400073, 3.7500000000000003E-05, 3.7500000000000003E-05
DataValue, 3.85E-05, -7.0646160000000007E-09, 6.8984649261E-05, 3.85E-05, 3.85E-05
DataValue, 3.9500000000000005E-05, 1.4659700000000002E-10, -0.00011409591388700001, 3.9500000000000005E-05, 3.9500000000000005E-05
DataValue, 4.05E-05, 3.4556270000000003E-09, -0.000170428393176, 4.05E-05, 4.05E-05
DataValue, 4.1500000000000006E-05, -3.891065E-09, -0.000300697254715, 4.1500000000000006E-05, 4.1500000000000006E-05
DataValue, 4.25E-05, 5.4601100000000007E-10, -0.00025844789343000004, 4.25E-05, 4.25E-05
DataValue, 4.35E-05, 6.657959E-09, -9.2971233244E-05, 4.35E-05, 4.35E-05
DataValue, 4.4500000000000004E-05, -3.7871750000000006E-09, -0.00023028165742300003, 4.4500000000000004E-05, 4.4500000000000004E-05
DataValue, 4.55E-05, -1.5160000000000002E-12, -0.00032886350527400003, 4.55E-05, 4.55E-05
DataValue, 4.6500000000000005E-05, 3.1296100000000003E-10, -0.00034294661600100005, 4.6500000000000005E-05, 4.6500000000000005E-05
DataValue, 4.75E-05, -7.14003E-10, -0.000276051810943, 4.75E-05, 4.75E-05
DataValue, 4.85E-05, -1.0074210000000001E-09, -0.000332384282956, 4.85E-05, 4.85E-05
DataValue, 4.9500000000000004E-05, 1.478914E-09, -0.00014226215716900002, 4.9500000000000004E-05, 4.9500000000000004E-05
DataValue, 5.05E-05, -4.9397900000000008E-09, -0.000184511518455, 5.05E-05, 5.05E-05
DataValue, 5.1500000000000005E-05, 9.6157E-10, -0.000145782934851, 5.1500000000000005E-05, 5.1500000000000005E-05
DataValue, 5.25E-05, 2.4763960000000002E-09, -0.00029717647703400005, 5.25E-05, 5.25E-05
DataValue, 5.3500000000000006E-05, -5.2128510000000006E-09, -0.000261968671111, 5.3500000000000006E-05, 5.3500000000000006E-05
DataValue, 5.45E-05, -3.7355300000000004E-10, -0.000381675199606, 5.45E-05, 5.45E-05
DataValue, 5.55E-05, 4.898151E-09, -0.00017394917085800001, 5.55E-05, 5.55E-05
DataValue, 5.6500000000000005E-05, 1.7603990000000001E-09, -0.000121137476526, 5.6500000000000005E-05, 5.6500000000000005E-05
DataValue, 5.75E-05, -1.4398280000000002E-09, -0.00035350894904700005, 5.75E-05, 5.75E-05
DataValue, 5.8500000000000006E-05, 3.7188610000000004E-09, -0.00015986606013, 5.8500000000000006E-05, 5.8500000000000006E-05
DataValue, 5.95E-05, -3.213675E-09, -0.00037815442192400004, 5.95E-05, 5.95E-05
DataValue, 6.0500000000000007E-05, 3.2190670000000004E-09, -0.0006422129226850001, 6.0500000000000007E-05, 6.0500000000000007E-05
DataValue, 6.15E-05, 4.21063E-10, -0.0005401102826, 6.15E-05, 6.15E-05
DataValue, 6.25E-05, -4.1527000000000004E-11, -0.00080768961925100009, 6.25E-05, 6.25E-05
DataValue, 6.35E-05, 1.4803170000000002E-09, -0.00077600259101000008, 6.35E-05, 6.35E-05
DataValue, 6.4500000000000009E-05, -1.455973E-09, -0.00058235967299000006, 6.4500000000000009E-05, 6.4500000000000009E-05
DataValue, 6.55E-05, 4.246734E-09, -0.00033590506063800005, 6.55E-05, 6.55E-05
DataValue, 6.65E-05, -3.0178290000000002E-09, -0.00030773881007900003, 6.65E-05, 6.65E-05
DataValue, 6.75E-05, 9.5354000000000007E-11, -0.00044857003376800003, 6.75E-05, 6.75E-05
DataValue, 6.85E-05, 4.754951E-09, -0.000716149341315, 6.85E-05, 6.85E-05
DataValue, 6.9500000000000009E-05, -1.8146730000000002E-09, -0.00045561158913200005, 6.9500000000000009E-05, 6.9500000000000009E-05
DataValue, 7.05E-05, -1.3541890000000002E-09, -0.00064925447804900006, 7.05E-05, 7.05E-05
DataValue, 7.15E-05, -1.1042920000000001E-09, -0.00044857003376800003, 7.15E-05, 7.15E-05
DataValue, 7.25E-05, 4.757057E-09, -0.00034294661600100005, 7.25E-05, 7.25E-05
DataValue, 7.3500000000000011E-05, -2.346757E-09, -0.000691503868438, 7.3500000000000011E-05, 7.3500000000000011E-05
DataValue, 7.4500000000000008E-05, -2.9623740000000004E-09, -0.000730232452042, 7.4500000000000008E-05, 7.4500000000000008E-05
DataValue, 7.55E-05, 8.345160000000001E-10, -0.000599963590503, 7.55E-05, 7.55E-05
DataValue, 7.65E-05, -5.72208E-10, -0.00042392456089100004, 7.65E-05, 7.65E-05
DataValue, 7.75E-05, 2.1099740000000003E-09, -0.000585880421568, 7.75E-05, 7.75E-05
DataValue, 7.8500000000000011E-05, 1.487337E-09, -0.000691503868438, 7.8500000000000011E-05, 7.8500000000000011E-05
DataValue, 7.9500000000000008E-05, -1.9455400000000002E-10, -0.00032182194991, 7.9500000000000008E-05, 7.9500000000000008E-05
DataValue, 8.05E-05, -2.036492E-09, -0.000184511518455, 8.05E-05, 8.05E-05
DataValue, 8.15E-05, -5.02714E-10, -0.00029013492167000003, 8.15E-05, 8.15E-05
DataValue, 8.25E-05, -1.5781130000000002E-09, -0.000438007671619, 8.25E-05, 8.25E-05
DataValue, 8.350000000000001E-05, -3.898786E-09, -0.000596442783717, 8.350000000000001E-05, 8.350000000000001E-05
DataValue, 8.4500000000000008E-05, 4.3113140000000005E-09, -0.00076544022886100007, 8.4500000000000008E-05, 8.4500000000000008E-05
DataValue, 8.55E-05, -8.51587E-10, -0.0006457337294710001, 8.55E-05, 8.55E-05
DataValue, 8.65E-05, 1.609478E-09, -0.00035702972672900003, 8.65E-05, 8.65E-05
DataValue, 8.75E-05, 1.4304780000000002E-09, -0.00045209081145, 8.75E-05, 8.75E-05
DataValue, 8.850000000000001E-05, -2.0999700000000003E-10, -0.000381675199606, 8.850000000000001E-05, 8.850000000000001E-05
DataValue, 8.9500000000000007E-05, -1.3275140000000001E-09, -0.00032886350527400003, 8.9500000000000007E-05, 8.9500000000000007E-05
DataValue, 9.05E-05, 3.9252370000000007E-09, -0.000409841450164, 9.05E-05, 9.05E-05
DataValue, 9.15E-05, -3.904E-10, -0.00082529347855600011, 9.15E-05, 9.15E-05
DataValue, 9.2500000000000012E-05, -1.190632E-09, -0.000635171367321, 9.2500000000000012E-05, 9.2500000000000012E-05
DataValue, 9.3500000000000009E-05, 4.39625E-09, -0.000409841450164, 9.3500000000000009E-05, 9.3500000000000009E-05
DataValue, 9.45E-05, -3.1891070000000002E-09, -0.00033590506063800005, 9.45E-05, 9.45E-05
DataValue, 9.55E-05, -1.0832330000000001E-09, -0.000325342727592, 9.55E-05, 9.55E-05
DataValue, 9.65E-05, 1.0352760000000001E-09, -0.000251406338066, 9.65E-05, 9.65E-05
DataValue, 9.7500000000000012E-05, 2.39958E-10, -0.000180990740773, 9.7500000000000012E-05, 9.7500000000000012E-05
DataValue, 9.8500000000000009E-05, 1.318867E-09, -0.00034646739368300003, 9.8500000000000009E-05, 9.8500000000000009E-05
DataValue, 9.95E-05, 6.50603E-10, -0.00035350894904700005, 9.95E-05, 9.95E-05
DataValue, 0.0001005, -2.456513E-08, 0.0023539708927270003, 0.0001005, 0.0001005
DataValue, 0.0001015, -8.6069278E-08, 0.0087688323110340013, 0.0001015, 0.0001015
DataValue, 0.00010250000000000001, -1.2058876600000002E-07, 0.014930197969079002, 0.00010250000000000001, 0.00010250000000000001
DataValue, 0.00010350000000000001, -1.3490239300000002E-07, 0.021232394501567, 0.00010350000000000001, 0.00010350000000000001
DataValue, 0.0001045, -1.45577758E-07, 0.027376154437661, 0.0001045, 0.0001045
DataValue, 0.0001055, -1.5079541500000002E-07, 0.033467106521130004, 0.0001055, 0.0001055
DataValue, 0.0001065, -1.52659112E-07, 0.039793945848942004, 0.0001065, 0.0001065
DataValue, 0.00010750000000000001, -1.55184054E-07, 0.046099662780762, 0.00010750000000000001, 0.00010750000000000001
DataValue, 0.00010850000000000001, -1.5512579000000002E-07, 0.052067387849092005, 0.00010850000000000001, 0.00010850000000000001
DataValue, 0.0001095, -1.56486195E-07, 0.058094963431358004, 0.0001095, 0.0001095
DataValue, 0.0001105, -1.5593444400000002E-07, 0.064618967473507011, 0.0001105, 0.0001105
DataValue, 0.00011150000000000001, -1.5641599300000002E-07, 0.070843704044819, 0.00011150000000000001, 0.00011150000000000001
DataValue, 0.00011250000000000001, -1.5417113300000002E-07, 0.076955780386925007, 0.00011250000000000001, 0.00011250000000000001
DataValue, 0.00011350000000000001, -1.58358318E-07, 0.083441056311131009, 0.00011350000000000001, 0.00011350000000000001
DataValue, 0.0001145, -1.54869582E-07, 0.089475676417351, 0.0001145, 0.0001145
DataValue, 0.0001155, -1.54258174E-07, 0.095753222703934007, 0.0001155, 0.0001155
DataValue, 0.00011650000000000001, -1.57213421E-07, 0.101928673684597, 0.00011650000000000001, 0.00011650000000000001
DataValue, 0.00011750000000000001, -1.6431933100000001E-07, 0.10800906270742401, 0.00011750000000000001, 0.00011750000000000001
DataValue, 0.00011850000000000001, -1.5308029300000002E-07, 0.113959178328514, 0.00011850000000000001, 0.00011850000000000001
DataValue, 0.0001195, -1.57269568E-07, 0.120578244328499, 0.0001195, 0.0001195
DataValue, 0.0001205, -1.66473654E-07, 0.126486122608185, 0.0001205, 0.0001205
DataValue, 0.00012150000000000001, -1.6117877500000002E-07, 0.13284815847873702, 0.00012150000000000001, 0.00012150000000000001
DataValue, 0.0001225, -1.5611907100000002E-07, 0.13894616067409502, 0.0001225, 0.0001225
DataValue, 0.00012350000000000002, -1.6877606900000001E-07, 0.14546312391758, 0.00012350000000000002, 0.00012350000000000002
DataValue, 0.00012450000000000002, -1.6408488100000002E-07, 0.15135338902473403, 0.00012450000000000002, 0.00012450000000000002
DataValue, 0.00012550000000000002, -1.6078708100000003E-07, 0.157863304018974, 0.00012550000000000002, 0.00012550000000000002
DataValue, 0.0001265, -1.63591409E-07, 0.164176061749458, 0.0001265, 0.0001265
DataValue, 0.0001275, -1.64986901E-07, 0.170274063944817, 0.0001275, 0.0001275
DataValue, 0.0001285, -1.6510904300000002E-07, 0.17641781270504, 0.0001285, 0.0001285
DataValue, 0.0001295, -1.65672716E-07, 0.182779863476753, 0.0001295, 0.0001295
DataValue, 0.0001305, -1.69476621E-07, 0.188846170902252, 0.0001305, 0.0001305
DataValue, 0.0001315, -1.68896108E-07, 0.19515541195869401, 0.0001315, 0.0001315
DataValue, 0.0001325, -1.71721481E-07, 0.201770961284637, 0.0001325, 0.0001325
DataValue, 0.00013350000000000002, -1.77382077E-07, 0.20830903947353402, 0.00013350000000000002, 0.00013350000000000002
DataValue, 0.00013450000000000002, -1.7344760300000002E-07, 0.21472743153572102, 0.00013450000000000002, 0.00013450000000000002
DataValue, 0.00013550000000000001, -1.7171235800000002E-07, 0.22096273303031902, 0.00013550000000000001, 0.00013550000000000001
DataValue, 0.0001365, -1.7117676500000002E-07, 0.22706423699855802, 0.0001365, 0.0001365
DataValue, 0.0001375, -1.7946689500000002E-07, 0.23340517282486, 0.0001375, 0.0001375
DataValue, 0.0001385, -1.73066439E-07, 0.23987987637519803, 0.0001385, 0.0001385
DataValue, 0.0001395, -1.7545589500000002E-07, 0.245918020606041, 0.0001395, 0.0001395
DataValue, 0.0001405, -1.77093568E-07, 0.25201952457428, 0.0001405, 0.0001405
DataValue, 0.0001415, -1.78257409E-07, 0.25844141840934703, 0.0001415, 0.0001415
DataValue, 0.00014250000000000002, -1.79212776E-07, 0.264451414346695, 0.00014250000000000002, 0.00014250000000000002
DataValue, 0.00014350000000000002, -1.77540713E-07, 0.270947247743607, 0.00014350000000000002, 0.00014350000000000002
DataValue, 0.00014450000000000002, -1.81198615E-07, 0.277031153440475, 0.00014450000000000002, 0.00014450000000000002
DataValue, 0.0001455, -1.7949075500000001E-07, 0.283030569553375, 0.0001455, 0.0001455
DataValue, 0.0001465, -1.7861962900000003E-07, 0.289188414812088, 0.0001465, 0.0001465
DataValue, 0.0001475, -1.8526225200000002E-07, 0.295483559370041, 0.0001475, 0.0001475
DataValue, 0.0001485, -1.8112631000000002E-07, 0.30184561014175404, 0.0001485, 0.0001485
DataValue, 0.0001495, -1.8712735500000002E-07, 0.30804923176765403, 0.0001495, 0.0001495
DataValue, 0.0001505, -1.8956105E-07, 0.313992291688919, 0.0001505, 0.0001505
DataValue, 0.0001515, -1.87058561E-07, 0.320136070251465, 0.0001515, 0.0001515
DataValue, 0.00015250000000000002, -1.9065329600000002E-07, 0.32625517249107405, 0.00015250000000000002, 0.00015250000000000002
DataValue, 0.00015350000000000002, -1.87135072E-07, 0.33251160383224504, 0.00015350000000000002, 0.00015350000000000002
DataValue, 0.00015450000000000002, -1.9047499200000001E-07, 0.338789165019989, 0.00015450000000000002, 0.00015450000000000002
DataValue, 0.0001555, -1.8835999100000002E-07, 0.344999819993973, 0.0001555, 0.0001555
DataValue, 0.0001565, -1.94492998E-07, 0.35108020901680004, 0.0001565, 0.0001565
DataValue, 0.0001575, -1.9054799300000002E-07, 0.357600688934326, 0.0001575, 0.0001575
DataValue, 0.0001585, -1.91230995E-07, 0.364019066095352, 0.0001585, 0.0001585
DataValue, 0.0001595, -1.96682407E-07, 0.37011706829071, 0.0001595, 0.0001595
DataValue, 0.0001605, -1.97490365E-07, 0.376468539237976, 0.0001605, 0.0001605
DataValue, 0.00016150000000000002, -1.97649001E-07, 0.38279187679290805, 0.00016150000000000002, 0.00016150000000000002
DataValue, 0.00016250000000000002, -2.00046188E-07, 0.388900429010391, 0.00016250000000000002, 0.00016250000000000002
DataValue, 0.00016350000000000002, -1.97470001E-07, 0.39526247978210405, 0.00016350000000000002, 0.00016350000000000002
DataValue, 0.00016450000000000001, -1.9909012400000002E-07, 0.401568174362183, 0.00016450000000000001, 0.00016450000000000001
DataValue, 0.0001655, -2.06575095E-07, 0.40827527642250105, 0.0001655, 0.0001655
DataValue, 0.0001665, -2.0305478200000002E-07, 0.41444015502929704, 0.0001665, 0.0001665
DataValue, 0.0001675, -2.04525378E-07, 0.420710653066635, 0.0001675, 0.0001675
DataValue, 0.0001685, -2.0504764100000002E-07, 0.426748812198639, 0.0001685, 0.0001685
DataValue, 0.0001695, -2.0462786700000002E-07, 0.43261441588401806, 0.0001695, 0.0001695
DataValue, 0.0001705, -2.0359598800000003E-07, 0.43914195895195, 0.0001705, 0.0001705
DataValue, 0.00017150000000000002, -2.10149466E-07, 0.445461750030518, 0.00017150000000000002, 0.00017150000000000002
DataValue, 0.00017250000000000002, -2.0540915100000003E-07, 0.45170760154724104, 0.00017250000000000002, 0.00017250000000000002
DataValue, 0.00017350000000000002, -2.0722721700000003E-07, 0.45754155516624406, 0.00017350000000000002, 0.00017350000000000002
DataValue, 0.0001745, -2.0951840400000002E-07, 0.46400922536850003, 0.0001745, 0.0001745
DataValue, 0.0001755, -2.1301485700000002E-07, 0.47024452686309803, 0.0001755, 0.0001755
DataValue, 0.0001765, -2.04462907E-07, 0.476416438817978, 0.0001765, 0.0001765
DataValue, 0.0001775, -2.1140036200000002E-07, 0.48248979449272206, 0.0001775, 0.0001775
DataValue, 0.0001785, -2.14295227E-07, 0.48871454596519504, 0.0001785, 0.0001785
DataValue, 0.0001795, -2.08534971E-07, 0.49490758776664706, 0.0001795, 0.0001795
DataValue, 0.00018050000000000002, -2.1308646600000003E-07, 0.500921070575714, 0.00018050000000000002, 0.00018050000000000002
DataValue, 0.00018150000000000002, -2.1664959600000002E-07, 0.5072021484375, 0.00018150000000000002, 0.00018150000000000002
DataValue, 0.00018250000000000002, -2.1469675500000002E-07, 0.513532519340515, 0.00018250000000000002, 0.00018250000000000002
DataValue, 0.00018350000000000002, -2.1750108200000002E-07, 0.519817113876343, 0.00018350000000000002, 0.00018350000000000002
DataValue, 0.0001845, -2.2369233900000003E-07, 0.52576017379760709, 0.0001845, 0.0001845
DataValue, 0.0001855, -2.1384246900000002E-07, 0.53227716684341408, 0.0001855, 0.0001855
