
SetupTitle, FE PUND 2V - reverse
ApplicationTest, WGFMU Pattern Editor, Public
TestParameter, Name, ExecutionMode, Enable1, Channel1, OperationMode1, VForceRange1, InitMeasRange1, Enable2, Channel2, OperationMode2, VForceRange2, InitMeasRange2, RepeatCount, WaveformCh1, WaveformCh2, MeasurementEvent, Output_to_File_for_PatternValidation, Output_Enable, Output_Filename, DataDisplay_for_RunVector, DataDisplay_PatternValidation, DataDisplay_Mode, LogToFile, LogFile, WarningLevel, IForceRange1, IForceRange2, Result_Update_Interval_s
TestParameter, Value, Run Vector, Enable, WGFMU1:RS	RSWGFMU, Fast IV Imeas, Auto, 10uA (Imeas), Enable, WGFMU2:RS	RSWGFMU, PG Vmeas, Auto, 5V (Vmeas), 1, , Disable, C:\WGFMUPatternEditor_Pattern.csv, , Disable, x(time)_y(meas), Disable, C:\WGFMUPatternEditor_Log.log, 2, 10mA, 10mA, 10
MetaData, TestRecord.EntryPoint, true
MetaData, TestRecord.RecordTime, 06/10/2021 09:38:06
MetaData, TestRecord.TestTarget, HZO5nmTiN_2_25um_D11
MetaData, TestRecord.IterationIndex, 12
MetaData, TestRecord.Preservation, true
MetaData, TestRecord.Flag, 
MetaData, TestRecord.Remarks, 
MetaData, TestRecord.LinkKey, 86466967-0bfe-4e8e-91ca-26fe5e2fc3f5
MetaData, TestRecord.Parameters, 
Dimension1, 5000, 5000, 5000, 5000, 5000
Dimension2, 1, 1, 1, 1, 1
DataName, Time, MeasResult1_value, MeasResult2_value, MeasResult1_time, MeasResult2_time
DataValue, 5.0000000000000008E-07, 3.19780497E-07, -0.000543631089386, 5.0000000000000008E-07, 5.0000000000000008E-07
DataValue, 1.5E-06, 4.1531791E-08, -0.000195073851501, 1.5E-06, 1.5E-06
DataValue, 2.5E-06, -2.2287247200000003E-07, -0.00045561158913200005, 2.5E-06, 2.5E-06
DataValue, 3.5000000000000004E-06, 1.29841794E-07, -0.00051546486793100006, 3.5000000000000004E-06, 3.5000000000000004E-06
DataValue, 4.5E-06, 5.8341396000000007E-08, -0.000469694699859, 4.5E-06, 4.5E-06
DataValue, 5.5000000000000007E-06, 4.4139455000000005E-08, -0.00033942583832000003, 5.5000000000000007E-06, 5.5000000000000007E-06
DataValue, 6.5000000000000004E-06, -2.84685E-08, -0.00026548944879300004, 6.5000000000000004E-06, 6.5000000000000004E-06
DataValue, 7.5E-06, 1.15015979E-07, -0.000311259587761, 7.5E-06, 7.5E-06
DataValue, 8.5E-06, -2.0238971400000002E-07, -0.000233802435105, 8.5E-06, 8.5E-06
DataValue, 9.5E-06, 2.0922853E-08, -0.00024084399046800001, 9.5E-06, 9.5E-06
DataValue, 1.0500000000000001E-05, 2.69674132E-07, -0.000261968671111, 1.0500000000000001E-05, 1.0500000000000001E-05
DataValue, 1.15E-05, -3.85577948E-07, -0.00019155307381900003, 1.15E-05, 1.15E-05
DataValue, 1.25E-05, 1.95888532E-07, -0.000325342727592, 1.25E-05, 1.25E-05
DataValue, 1.3500000000000001E-05, 1.586873E-07, -0.00023732321278700002, 1.3500000000000001E-05, 1.3500000000000001E-05
DataValue, 1.45E-05, -1.1107248800000001E-07, -0.000276051810943, 1.45E-05, 1.45E-05
DataValue, 1.55E-05, -3.359243E-09, -0.00010001279588300001, 1.55E-05, 1.55E-05
DataValue, 1.65E-05, -5.3149890000000006E-09, -0.00025844789343000004, 1.65E-05, 1.65E-05
DataValue, 1.7500000000000002E-05, 4.7090598000000005E-08, -0.00029717647703400005, 1.7500000000000002E-05, 1.7500000000000002E-05
DataValue, 1.8500000000000002E-05, -2.32532045E-07, -0.00037815442192400004, 1.8500000000000002E-05, 1.8500000000000002E-05
DataValue, 1.95E-05, 3.53028184E-07, -0.00043096611625500006, 1.95E-05, 1.95E-05
DataValue, 2.05E-05, -1.4864524200000002E-07, -0.000409841450164, 2.05E-05, 2.05E-05
DataValue, 2.15E-05, -2.1026878E-07, -0.00048377781058700004, 2.15E-05, 2.15E-05
DataValue, 2.25E-05, 2.9846650000000003E-09, -0.00037463364424200006, 2.25E-05, 2.25E-05
DataValue, 2.3500000000000002E-05, 5.33202183E-07, -0.00049434014363200008, 2.3500000000000002E-05, 2.3500000000000002E-05
DataValue, 2.4500000000000003E-05, -3.5668335800000005E-07, -0.000501381698996, 2.4500000000000003E-05, 2.4500000000000003E-05
DataValue, 2.5500000000000003E-05, -3.0571453000000005E-08, -0.00053658953402200009, 2.5500000000000003E-05, 2.5500000000000003E-05
DataValue, 2.65E-05, 1.37538606E-07, -0.000469694699859, 2.65E-05, 2.65E-05
DataValue, 2.75E-05, -2.1833010100000002E-07, -0.00030773881007900003, 2.75E-05, 2.75E-05
DataValue, 2.85E-05, 2.0501535400000003E-07, -0.000518985616509, 2.85E-05, 2.85E-05
DataValue, 2.9500000000000002E-05, 1.3161528000000001E-07, -4.0159531636E-05, 2.9500000000000002E-05, 2.9500000000000002E-05
DataValue, 3.0500000000000003E-05, -4.9504365100000008E-07, -0.000135220587254, 3.0500000000000003E-05, 3.0500000000000003E-05
DataValue, 3.15E-05, 2.58563546E-07, -0.00019155307381900003, 3.15E-05, 3.15E-05
DataValue, 3.2500000000000004E-05, 2.8514780000000004E-09, -0.000427445338573, 3.2500000000000004E-05, 3.2500000000000004E-05
DataValue, 3.35E-05, -1.8413608400000002E-07, -0.000508423312567, 3.35E-05, 3.35E-05
DataValue, 3.4500000000000005E-05, 2.1408608600000002E-07, -0.0005753181176260001, 3.4500000000000005E-05, 3.4500000000000005E-05
DataValue, 3.55E-05, 7.0882002E-08, -0.000269010226475, 3.55E-05, 3.55E-05
DataValue, 3.65E-05, -2.41013936E-07, -0.00044857003376800003, 3.65E-05, 3.65E-05
DataValue, 3.7500000000000003E-05, 7.8655923000000012E-08, -0.00041688300552800004, 3.7500000000000003E-05, 3.7500000000000003E-05
DataValue, 3.85E-05, 2.40646386E-07, -0.0005401102826, 3.85E-05, 3.85E-05
DataValue, 3.9500000000000005E-05, -1.7155341E-07, -0.00048729861737200003, 3.9500000000000005E-05, 3.9500000000000005E-05
DataValue, 4.05E-05, -3.9151502000000005E-08, -0.000578838866204, 4.05E-05, 4.05E-05
DataValue, 4.1500000000000006E-05, 1.23420776E-07, -0.00062108825659400006, 4.1500000000000006E-05, 4.1500000000000006E-05
DataValue, 4.25E-05, -8.131570400000001E-08, -0.000624609005172, 4.25E-05, 4.25E-05
DataValue, 4.35E-05, -1.0712569000000001E-08, -0.00064925447804900006, 4.35E-05, 4.35E-05
DataValue, 4.4500000000000004E-05, 1.7316261800000002E-07, -0.000332384282956, 4.4500000000000004E-05, 4.4500000000000004E-05
DataValue, 4.55E-05, 6.7370074E-08, -0.00034646739368300003, 4.55E-05, 4.55E-05
DataValue, 4.6500000000000005E-05, -3.1937699400000005E-07, -0.00062812981195700006, 4.6500000000000005E-05, 4.6500000000000005E-05
DataValue, 4.75E-05, 1.0427689300000001E-07, -0.00048729861737200003, 4.75E-05, 4.75E-05
DataValue, 4.85E-05, 6.39471409E-07, -0.00033942583832000003, 4.85E-05, 4.85E-05
DataValue, 4.9500000000000004E-05, -6.81736822E-07, -0.0004027998948, 4.9500000000000004E-05, 4.9500000000000004E-05
DataValue, 5.05E-05, 2.6653373200000003E-07, -0.00027957258862400003, 5.05E-05, 5.05E-05
DataValue, 5.1500000000000005E-05, -4.6567916000000003E-08, -0.000272531004157, 5.1500000000000005E-05, 5.1500000000000005E-05
DataValue, 5.25E-05, -1.2421594400000001E-07, -0.0004027998948, 5.25E-05, 5.25E-05
DataValue, 5.3500000000000006E-05, -1.7021426E-08, -0.00039223753265100005, 5.3500000000000006E-05, 5.3500000000000006E-05
DataValue, 5.45E-05, 1.3890552000000002E-07, -0.00022676087974100002, 5.45E-05, 5.45E-05
DataValue, 5.55E-05, -1.1490687500000001E-07, -0.00024788556038400004, 5.55E-05, 5.55E-05
DataValue, 5.6500000000000005E-05, 6.1103272000000009E-08, -0.00061052589444400009, 5.6500000000000005E-05, 5.6500000000000005E-05
DataValue, 5.75E-05, 1.64547529E-07, -0.000543631089386, 5.75E-05, 5.75E-05
DataValue, 5.8500000000000006E-05, -1.9064822300000002E-07, -0.00034294661600100005, 5.8500000000000006E-05, 5.8500000000000006E-05
DataValue, 5.95E-05, -1.59272176E-07, -0.00037111286656, 5.95E-05, 5.95E-05
DataValue, 6.0500000000000007E-05, 2.6056835600000003E-07, -0.000325342727592, 6.0500000000000007E-05, 6.0500000000000007E-05
DataValue, 6.15E-05, -1.0597633300000001E-07, -0.000543631089386, 6.15E-05, 6.15E-05
DataValue, 6.25E-05, -1.1416383200000002E-07, -0.000476736255223, 6.25E-05, 6.25E-05
DataValue, 6.35E-05, 6.5077856E-08, -0.0005753181176260001, 6.35E-05, 6.35E-05
DataValue, 6.4500000000000009E-05, 1.15121125E-07, -0.00083233503392000007, 6.4500000000000009E-05, 6.4500000000000009E-05
DataValue, 6.55E-05, -1.7963576200000002E-07, -0.000511944061145, 6.55E-05, 6.55E-05
DataValue, 6.65E-05, 4.4342737E-08, -0.000730232452042, 6.65E-05, 6.65E-05
DataValue, 6.75E-05, 1.220819E-07, -0.0010189363965760001, 6.75E-05, 6.75E-05
DataValue, 6.85E-05, -9.2860915000000009E-08, -0.000856980506796, 6.85E-05, 6.85E-05
DataValue, 6.9500000000000009E-05, -5.9010386000000008E-08, -0.0009520415915180001, 6.9500000000000009E-05, 6.9500000000000009E-05
DataValue, 7.05E-05, 1.87553837E-07, -0.000783044146374, 7.05E-05, 7.05E-05
DataValue, 7.15E-05, -9.5377452E-08, -0.000800648063887, 7.15E-05, 7.15E-05
DataValue, 7.25E-05, -3.45755012E-07, -0.000705586979166, 7.25E-05, 7.25E-05
DataValue, 7.3500000000000011E-05, 6.5467577300000006E-07, -0.00040632067248200004, 7.3500000000000011E-05, 7.3500000000000011E-05
DataValue, 7.4500000000000008E-05, -4.2047995000000005E-07, -0.000761919480283, 7.4500000000000008E-05, 7.4500000000000008E-05
DataValue, 7.55E-05, -4.9574870000000007E-09, -0.00070206617238, 7.55E-05, 7.55E-05
DataValue, 7.65E-05, 1.9363837100000003E-07, -0.000578838866204, 7.65E-05, 7.65E-05
DataValue, 7.75E-05, 6.6683107E-08, -0.00031478036544300004, 7.75E-05, 7.75E-05
DataValue, 7.8500000000000011E-05, -1.64052878E-07, -0.00043448689393700004, 7.8500000000000011E-05, 7.8500000000000011E-05
DataValue, 7.9500000000000008E-05, 1.61694516E-07, -0.00046617392217700003, 7.9500000000000008E-05, 7.9500000000000008E-05
DataValue, 8.05E-05, 1.1873146000000002E-08, -0.0004027998948, 8.05E-05, 8.05E-05
DataValue, 8.15E-05, -1.73432056E-07, -0.000691503868438, 8.15E-05, 8.15E-05
DataValue, 8.25E-05, 9.5563664000000007E-08, -0.000666858395562, 8.25E-05, 8.25E-05
DataValue, 8.350000000000001E-05, -1.0397125E-08, -0.000325342727592, 8.350000000000001E-05, 8.350000000000001E-05
DataValue, 8.4500000000000008E-05, -1.3262776100000002E-07, -0.000399279088015, 8.4500000000000008E-05, 8.4500000000000008E-05
DataValue, 8.55E-05, 1.2738134100000001E-07, -0.00024788556038400004, 8.55E-05, 8.55E-05
DataValue, 8.65E-05, -1.6328179700000002E-07, -0.00055419345153500006, 8.65E-05, 8.65E-05
DataValue, 8.75E-05, -1.2825361800000002E-07, -0.00044857003376800003, 8.75E-05, 8.75E-05
DataValue, 8.850000000000001E-05, 1.31257778E-07, -0.00042040378321, 8.850000000000001E-05, 8.850000000000001E-05
DataValue, 8.9500000000000007E-05, -1.4042244000000001E-08, -0.00028661414398800005, 8.9500000000000007E-05, 8.9500000000000007E-05
DataValue, 9.05E-05, 3.4662147E-08, -0.00043096611625500006, 9.05E-05, 9.05E-05
DataValue, 9.15E-05, 8.1817362E-08, -0.000557714200113, 9.15E-05, 9.15E-05
DataValue, 9.2500000000000012E-05, -1.6103137000000003E-08, -0.00086402206216000012, 9.2500000000000012E-05, 9.2500000000000012E-05
DataValue, 9.3500000000000009E-05, -5.4685312E-08, -0.000427445338573, 9.3500000000000009E-05, 9.3500000000000009E-05
DataValue, 9.45E-05, -2.83493591E-07, -0.00043096611625500006, 9.45E-05, 9.45E-05
DataValue, 9.55E-05, 3.22647537E-07, -0.00059292203513900007, 9.55E-05, 9.55E-05
DataValue, 9.65E-05, -1.6851115E-07, -0.000508423312567, 9.65E-05, 9.65E-05
DataValue, 9.7500000000000012E-05, -3.6361609500000005E-07, -0.000631650560535, 9.7500000000000012E-05, 9.7500000000000012E-05
DataValue, 9.8500000000000009E-05, 7.61940385E-07, -0.00042392456089100004, 9.8500000000000009E-05, 9.8500000000000009E-05
DataValue, 9.95E-05, -3.54117759E-07, -0.000501381698996, 9.95E-05, 9.95E-05
DataValue, 0.0001005, -1.4841391800000002E-07, 0.001843457808718, 0.0001005, 0.0001005
DataValue, 0.0001015, -2.6777752300000005E-07, 0.0068183201365170009, 0.0001015, 0.0001015
DataValue, 0.00010250000000000001, -2.1493032400000002E-07, 0.012039637193084, 0.00010250000000000001, 0.00010250000000000001
DataValue, 0.00010350000000000001, -4.3458374000000003E-07, 0.016901833936572002, 0.00010350000000000001, 0.00010350000000000001
DataValue, 0.0001045, -2.30365998E-07, 0.021690094843507, 0.0001045, 0.0001045
DataValue, 0.0001055, -2.6137053100000004E-07, 0.026953661814332, 0.0001055, 0.0001055
DataValue, 0.0001065, -4.10715245E-07, 0.032065834850073, 0.0001065, 0.0001065
DataValue, 0.00010750000000000001, -1.42841103E-07, 0.037079423666000005, 0.00010750000000000001, 0.00010750000000000001
DataValue, 0.00010850000000000001, -4.78304116E-07, 0.042251452803612005, 0.00010850000000000001, 0.00010850000000000001
DataValue, 0.0001095, -4.9892707900000008E-07, 0.047078441828489005, 0.0001095, 0.0001095
DataValue, 0.0001105, 1.9933037300000003E-07, 0.052482839673758004, 0.0001105, 0.0001105
DataValue, 0.00011150000000000001, -5.9658822200000009E-07, 0.057264056056738004, 0.00011150000000000001, 0.00011150000000000001
DataValue, 0.00011250000000000001, -3.6098740000000005E-07, 0.062098089605570006, 0.00011250000000000001, 0.00011250000000000001
DataValue, 0.00011350000000000001, -3.98896645E-07, 0.067171536386013, 0.00011350000000000001, 0.00011350000000000001
DataValue, 0.0001145, -3.6803204E-08, 0.071966834366322008, 0.0001145, 0.0001145
DataValue, 0.0001155, -7.03158889E-07, 0.076934657990932, 0.0001155, 0.0001155
DataValue, 0.00011650000000000001, -3.1271764600000005E-07, 0.081905998289585, 0.00011650000000000001, 0.00011650000000000001
DataValue, 0.00011750000000000001, -3.2963939100000005E-07, 0.086884379386902008, 0.00011750000000000001, 0.00011750000000000001
DataValue, 0.00011850000000000001, -4.22351576E-07, 0.091725453734398013, 0.00011850000000000001, 0.00011850000000000001
DataValue, 0.0001195, -4.3925931E-07, 0.09674256294965701, 0.0001195, 0.0001195
DataValue, 0.0001205, -3.58008236E-07, 0.101485058665276, 0.0001205, 0.0001205
DataValue, 0.00012150000000000001, -2.73069958E-07, 0.10643526911735501, 0.00012150000000000001, 0.00012150000000000001
DataValue, 0.0001225, -5.25185953E-07, 0.11126226186752301, 0.0001225, 0.0001225
DataValue, 0.00012350000000000002, -2.8409644400000003E-07, 0.116311058402061, 0.00012350000000000002, 0.00012350000000000002
DataValue, 0.00012450000000000002, -4.1670864400000003E-07, 0.121458441019058, 0.00012450000000000002, 0.00012450000000000002
DataValue, 0.00012550000000000002, -5.01282386E-07, 0.126493155956268, 0.00012550000000000002, 0.00012550000000000002
DataValue, 0.0001265, -5.04913487E-07, 0.131538435816765, 0.0001265, 0.0001265
DataValue, 0.0001275, -4.21937983E-07, 0.13626684248447402, 0.0001275, 0.0001275
DataValue, 0.0001285, -4.16540416E-07, 0.141129046678543, 0.0001285, 0.0001285
DataValue, 0.0001295, -5.24968641E-07, 0.145945459604263, 0.0001295, 0.0001295
DataValue, 0.0001305, -4.2793141100000003E-07, 0.15090624988079102, 0.0001305, 0.0001305
DataValue, 0.0001315, -3.90463811E-07, 0.15616276860237102, 0.0001315, 0.0001315
DataValue, 0.0001325, -5.07016466E-07, 0.161493226885796, 0.0001325, 0.0001325
DataValue, 0.00013350000000000002, -3.6108554000000003E-07, 0.16661244630813601, 0.00013350000000000002, 0.00013350000000000002
DataValue, 0.00013450000000000002, -6.377990760000001E-07, 0.17140071094036102, 0.00013450000000000002, 0.00013450000000000002
DataValue, 0.00013550000000000001, -1.0299014300000001E-07, 0.17658329010009802, 0.00013550000000000001, 0.00013550000000000001
DataValue, 0.0001365, -6.96029872E-07, 0.18146662414073903, 0.0001365, 0.0001365
DataValue, 0.0001375, -4.3226350500000004E-07, 0.18641331791877702, 0.0001375, 0.0001375
DataValue, 0.0001385, -5.63060155E-07, 0.191430419683456, 0.0001385, 0.0001385
DataValue, 0.0001395, -3.7497906600000004E-07, 0.196729198098183, 0.0001395, 0.0001395
DataValue, 0.0001405, -5.09168501E-07, 0.202144160866737, 0.0001405, 0.0001405
DataValue, 0.0001415, -6.1334174E-07, 0.207411244511604, 0.0001415, 0.0001415
DataValue, 0.00014250000000000002, -4.3410707900000006E-07, 0.21222415566444403, 0.00014250000000000002, 0.00014250000000000002
DataValue, 0.00014350000000000002, -3.3048058900000005E-07, 0.21744194626808203, 0.00014350000000000002, 0.00014350000000000002
DataValue, 0.00014450000000000002, -6.71930025E-07, 0.22225837409496302, 0.00014450000000000002, 0.00014450000000000002
DataValue, 0.0001455, -6.2758573400000006E-07, 0.22746208310127303, 0.0001455, 0.0001455
DataValue, 0.0001465, -3.4252349200000004E-07, 0.23227851092815402, 0.0001465, 0.0001465
DataValue, 0.0001475, -6.0257463E-07, 0.237334355711937, 0.0001475, 0.0001475
DataValue, 0.0001485, -5.67357176E-07, 0.242185994982719, 0.0001485, 0.0001485
DataValue, 0.0001495, -5.00371129E-07, 0.247206628322601, 0.0001495, 0.0001495
DataValue, 0.0001505, -5.1472727600000008E-07, 0.25218501687049905, 0.0001505, 0.0001505
DataValue, 0.0001515, -6.96990242E-07, 0.257057756185532, 0.0001515, 0.0001515
DataValue, 0.00015250000000000002, -3.2239123000000003E-07, 0.262004464864731, 0.00015250000000000002, 0.00015250000000000002
DataValue, 0.00015350000000000002, -5.50820971E-07, 0.267113119363785, 0.00015350000000000002, 0.00015350000000000002
DataValue, 0.00015450000000000002, -7.2334023600000008E-07, 0.27214080095291104, 0.00015450000000000002, 0.00015450000000000002
DataValue, 0.0001555, -3.4445821500000004E-07, 0.277326911687851, 0.0001555, 0.0001555
DataValue, 0.0001565, -5.8473460700000006E-07, 0.281917989253998, 0.0001565, 0.0001565
DataValue, 0.0001575, -5.1411746E-07, 0.286801308393478, 0.0001575, 0.0001575
DataValue, 0.0001585, -6.2622586900000007E-07, 0.29186066985130305, 0.0001585, 0.0001585
DataValue, 0.0001595, -7.264525830000001E-07, 0.29688483476638805, 0.0001595, 0.0001595
DataValue, 0.0001605, -2.8204956900000004E-07, 0.30175405740737904, 0.0001605, 0.0001605
DataValue, 0.00016150000000000002, -7.9396437500000009E-07, 0.306489527225494, 0.00016150000000000002, 0.00016150000000000002
DataValue, 0.00016250000000000002, -2.7042023E-07, 0.31173899769783003, 0.00016250000000000002, 0.00016250000000000002
DataValue, 0.00016350000000000002, -9.6112114500000015E-07, 0.31671035289764404, 0.00016350000000000002, 0.00016350000000000002
DataValue, 0.00016450000000000001, -3.68389806E-07, 0.321312010288239, 0.00016450000000000001, 0.00016450000000000001
DataValue, 0.0001655, -5.33723949E-07, 0.326494604349136, 0.0001655, 0.0001655
DataValue, 0.0001665, -5.88758212E-07, 0.33143776655197105, 0.0001665, 0.0001665
DataValue, 0.0001675, -7.1565745E-07, 0.33633869886398304, 0.0001675, 0.0001675
DataValue, 0.0001685, -4.1452858600000005E-07, 0.341405093669891, 0.0001685, 0.0001685
DataValue, 0.0001695, -7.1505456800000009E-07, 0.34660530090332003, 0.0001695, 0.0001695
DataValue, 0.0001705, -6.72673082E-07, 0.351428747177124, 0.0001705, 0.0001705
DataValue, 0.00017150000000000002, -4.5955982800000003E-07, 0.35637193918228105, 0.00017150000000000002, 0.00017150000000000002
DataValue, 0.00017250000000000002, -7.29284579E-07, 0.361367911100388, 0.00017250000000000002, 0.00017250000000000002
DataValue, 0.00017350000000000002, -6.667847860000001E-07, 0.36648714542388905, 0.00017350000000000002, 0.00017350000000000002
DataValue, 0.0001745, -5.69586348E-07, 0.37149369716644304, 0.0001745, 0.0001745
DataValue, 0.0001755, -5.2372092800000006E-07, 0.37614464759826705, 0.0001755, 0.0001755
DataValue, 0.0001765, -6.5786827000000008E-07, 0.38147157430648804, 0.0001765, 0.0001765
DataValue, 0.0001775, -6.62396644E-07, 0.38632321357727, 0.0001775, 0.0001775
DataValue, 0.0001785, -3.1785583600000005E-07, 0.39156565070152305, 0.0001785, 0.0001785
DataValue, 0.0001795, -1.0426105060000002E-06, 0.396399676799774, 0.0001795, 0.0001795
DataValue, 0.00018050000000000002, -4.0896978200000004E-07, 0.40163508057594305, 0.00018050000000000002, 0.00018050000000000002
DataValue, 0.00018150000000000002, -5.94162827E-07, 0.40706059336662304, 0.00018150000000000002, 0.00018150000000000002
DataValue, 0.00018250000000000002, -8.38848393E-07, 0.41221502423286405, 0.00018250000000000002, 0.00018250000000000002
DataValue, 0.00018350000000000002, -5.2544533000000009E-07, 0.417027920484543, 0.00018350000000000002, 0.00018350000000000002
DataValue, 0.0001845, -8.8707611200000011E-07, 0.42180210351944003, 0.0001845, 0.0001845
