
SetupTitle, FE PUND 1.5V - reverse
ApplicationTest, WGFMU Pattern Editor, Public
TestParameter, Name, ExecutionMode, Enable1, Channel1, OperationMode1, VForceRange1, InitMeasRange1, Enable2, Channel2, OperationMode2, VForceRange2, InitMeasRange2, RepeatCount, WaveformCh1, WaveformCh2, MeasurementEvent, Output_to_File_for_PatternValidation, Output_Enable, Output_Filename, DataDisplay_for_RunVector, DataDisplay_PatternValidation, DataDisplay_Mode, LogToFile, LogFile, WarningLevel, IForceRange1, IForceRange2, Result_Update_Interval_s
TestParameter, Value, Run Vector, Enable, WGFMU1:RS	RSWGFMU, Fast IV Imeas, Auto, 10uA (Imeas), Enable, WGFMU2:RS	RSWGFMU, PG Vmeas, Auto, 5V (Vmeas), 1, , Disable, C:\WGFMUPatternEditor_Pattern.csv, , Disable, x(time)_y(meas), Disable, C:\WGFMUPatternEditor_Log.log, 2, 10mA, 10mA, 10
MetaData, TestRecord.EntryPoint, true
MetaData, TestRecord.RecordTime, 06/10/2021 11:25:40
MetaData, TestRecord.TestTarget, ZrO2_1_25um_D2
MetaData, TestRecord.IterationIndex, 3
MetaData, TestRecord.Preservation, true
MetaData, TestRecord.Flag, 
MetaData, TestRecord.Remarks, 
MetaData, TestRecord.LinkKey, a8fd8b6f-5a30-47ea-b419-d0d1416b0ba8
MetaData, TestRecord.Parameters, 
Dimension1, 5000, 5000, 5000, 5000, 5000
Dimension2, 1, 1, 1, 1, 1
DataName, Time, MeasResult1_value, MeasResult2_value, MeasResult1_time, MeasResult2_time
DataValue, 5.0000000000000008E-07, 5.353992E-09, -0.00049786095041800009, 5.0000000000000008E-07, 5.0000000000000008E-07
DataValue, 1.5E-06, -1.0712569000000001E-08, -0.00085345975821800009, 1.5E-06, 1.5E-06
DataValue, 2.5E-06, 6.798019E-09, -0.000712628534529, 2.5E-06, 2.5E-06
DataValue, 3.5000000000000004E-06, 1.5034585000000002E-08, -0.0006140467012300001, 3.5000000000000004E-06, 3.5000000000000004E-06
DataValue, 4.5E-06, -3.0683612E-08, -0.000800648063887, 4.5E-06, 4.5E-06
DataValue, 5.5000000000000007E-06, 1.6149150000000003E-08, -0.00088162597967300009, 5.5000000000000007E-06, 5.5000000000000007E-06
DataValue, 6.5000000000000004E-06, 4.9614410000000005E-09, -0.000818251923192, 6.5000000000000004E-06, 6.5000000000000004E-06
DataValue, 7.5E-06, -7.3758830000000009E-09, -0.0007091077277440001, 7.5E-06, 7.5E-06
DataValue, 8.5E-06, 1.42147E-09, -0.00061756744980800006, 8.5E-06, 8.5E-06
DataValue, 9.5E-06, 1.2812465E-08, -0.00061756744980800006, 9.5E-06, 9.5E-06
DataValue, 1.0500000000000001E-05, -1.1035021000000001E-08, -0.000849938951433, 1.0500000000000001E-05, 1.0500000000000001E-05
DataValue, 1.15E-05, -6.478623E-09, -0.000945000036154, 1.15E-05, 1.15E-05
DataValue, 1.25E-05, 2.0137751E-08, -0.000976687064394, 1.25E-05, 1.25E-05
DataValue, 1.3500000000000001E-05, -1.7133585E-08, -0.0009942909237, 1.3500000000000001E-05, 1.3500000000000001E-05
DataValue, 1.45E-05, -2.511052E-09, -0.00096964550903100007, 1.45E-05, 1.45E-05
DataValue, 1.55E-05, 8.157929E-09, -0.00098020781297200013, 1.55E-05, 1.55E-05
DataValue, 1.65E-05, 3.9102300000000004E-10, -0.00083937658928300008, 1.65E-05, 1.65E-05
DataValue, 1.7500000000000002E-05, -1.0600140000000002E-09, -0.000867542868946, 1.7500000000000002E-05, 1.7500000000000002E-05
DataValue, 1.8500000000000002E-05, 2.6692220000000002E-09, -0.00080416881246500008, 1.8500000000000002E-05, 1.8500000000000002E-05
DataValue, 1.95E-05, -7.004361E-09, -0.000677420757711, 1.95E-05, 1.95E-05
DataValue, 2.05E-05, 6.1040450000000007E-09, -0.00072671164525700007, 2.05E-05, 2.05E-05
DataValue, 2.15E-05, -5.826708E-09, -0.00074431556277, 2.15E-05, 2.15E-05
DataValue, 2.25E-05, 1.3485410000000001E-08, -0.00072671164525700007, 2.25E-05, 2.25E-05
DataValue, 2.3500000000000002E-05, -1.4715188000000002E-08, -0.00053306872723600008, 2.3500000000000002E-05, 2.3500000000000002E-05
DataValue, 2.4500000000000003E-05, -2.097471E-09, -0.00087106361752400008, 2.4500000000000003E-05, 2.4500000000000003E-05
DataValue, 2.5500000000000003E-05, -1.0530050000000001E-09, -0.000716149341315, 2.5500000000000003E-05, 2.5500000000000003E-05
DataValue, 2.65E-05, 1.4621004E-08, -0.00084289739606900008, 2.65E-05, 2.65E-05
DataValue, 2.75E-05, -5.8337180000000006E-09, -0.00081473117461400009, 2.75E-05, 2.75E-05
DataValue, 2.85E-05, 4.8983520000000008E-09, -0.00091331300791400009, 2.85E-05, 2.85E-05
DataValue, 2.9500000000000002E-05, -5.1187130000000005E-09, -0.000723190896679, 2.9500000000000002E-05, 2.9500000000000002E-05
DataValue, 3.0500000000000003E-05, -6.352446E-09, -0.000504902505782, 3.0500000000000003E-05, 3.0500000000000003E-05
DataValue, 3.15E-05, 9.826271E-09, -0.000716149341315, 3.15E-05, 3.15E-05
DataValue, 3.2500000000000004E-05, -2.104481E-09, -0.00052602717187300008, 3.2500000000000004E-05, 3.2500000000000004E-05
DataValue, 3.35E-05, -8.560546E-09, -0.000561235006899, 3.35E-05, 3.35E-05
DataValue, 3.4500000000000005E-05, 9.153327000000001E-09, -0.000797127257101, 3.4500000000000005E-05, 3.4500000000000005E-05
DataValue, 3.55E-05, 7.604151E-09, -0.00070206617238, 3.55E-05, 3.55E-05
DataValue, 3.65E-05, -7.4950500000000013E-09, -0.000856980506796, 3.65E-05, 3.65E-05
DataValue, 3.7500000000000003E-05, -1.613792E-09, -0.00058940122835300006, 3.7500000000000003E-05, 3.7500000000000003E-05
DataValue, 3.85E-05, 3.909964E-09, -0.000705586979166, 3.85E-05, 3.85E-05
DataValue, 3.9500000000000005E-05, 1.9331880000000002E-09, -0.000772481784225, 3.9500000000000005E-05, 3.9500000000000005E-05
DataValue, 4.05E-05, -1.1686937E-08, -0.000705586979166, 4.05E-05, 4.05E-05
DataValue, 4.1500000000000006E-05, 2.3271150000000002E-08, -0.00061052589444400009, 4.1500000000000006E-05, 4.1500000000000006E-05
DataValue, 4.25E-05, -1.4462834000000002E-08, -0.00073727400740600008, 4.25E-05, 4.25E-05
DataValue, 4.35E-05, -1.0186830000000001E-08, -0.00090275064576400012, 4.35E-05, 4.35E-05
DataValue, 4.4500000000000004E-05, 7.1485120000000008E-09, -0.0006809415062890001, 4.4500000000000004E-05, 4.4500000000000004E-05
DataValue, 4.55E-05, 6.7489510000000007E-09, -0.00039575831033300003, 4.55E-05, 4.55E-05
DataValue, 4.6500000000000005E-05, -9.1981800000000012E-10, -0.000561235006899, 4.6500000000000005E-05, 4.6500000000000005E-05
DataValue, 4.75E-05, -5.434156E-09, -0.00052602717187300008, 4.75E-05, 4.75E-05
DataValue, 4.85E-05, 7.68827E-09, -0.00038519597728700004, 4.85E-05, 4.85E-05
DataValue, 4.9500000000000004E-05, -1.9019232E-08, -0.00024084399046800001, 4.9500000000000004E-05, 4.9500000000000004E-05
DataValue, 5.05E-05, 1.1445546000000001E-08, -0.00055419345153500006, 5.05E-05, 5.05E-05
DataValue, 5.1500000000000005E-05, 7.67425E-09, -0.000261968671111, 5.1500000000000005E-05, 5.1500000000000005E-05
DataValue, 5.25E-05, -1.0144771E-08, -0.00022676087974100002, 5.25E-05, 5.25E-05
DataValue, 5.3500000000000006E-05, 6.4965960000000005E-09, -0.00035702972672900003, 5.3500000000000006E-05, 5.3500000000000006E-05
DataValue, 5.45E-05, -2.1143215000000002E-08, -0.00030421803239700005, 5.45E-05, 5.45E-05
DataValue, 5.55E-05, 1.793666E-08, -0.00011057513620500002, 5.55E-05, 5.55E-05
DataValue, 5.6500000000000005E-05, -5.847737E-09, -0.00041688300552800004, 5.6500000000000005E-05, 5.6500000000000005E-05
DataValue, 5.75E-05, 2.381819E-09, -0.00056475575547700009, 5.75E-05, 5.75E-05
DataValue, 5.8500000000000006E-05, -7.558139E-09, -0.00035350894904700005, 5.8500000000000006E-05, 5.8500000000000006E-05
DataValue, 5.95E-05, -8.0207880000000014E-09, -0.00044152844930100006, 5.95E-05, 5.95E-05
DataValue, 6.0500000000000007E-05, 1.4564925000000001E-08, -0.000543631089386, 6.0500000000000007E-05, 6.0500000000000007E-05
DataValue, 6.15E-05, -1.1371493000000001E-08, -0.0006457337294710001, 6.15E-05, 6.15E-05
DataValue, 6.25E-05, -2.237668E-09, -0.000772481784225, 6.25E-05, 6.25E-05
DataValue, 6.35E-05, 9.0832280000000009E-09, -0.000635171367321, 6.35E-05, 6.35E-05
DataValue, 6.4500000000000009E-05, 2.1154440000000003E-09, -0.000624609005172, 6.4500000000000009E-05, 6.4500000000000009E-05
DataValue, 6.55E-05, -1.5689556E-08, -0.000607005145866, 6.55E-05, 6.55E-05
DataValue, 6.65E-05, 2.3523505E-08, -0.00073375320062000007, 6.65E-05, 6.65E-05
DataValue, 6.75E-05, -5.343029E-09, -0.000684462313075, 6.75E-05, 6.75E-05
DataValue, 6.85E-05, -1.3824939000000002E-08, -0.00067037914414000009, 6.85E-05, 6.85E-05
DataValue, 6.9500000000000009E-05, 9.6089670000000013E-09, -0.000768961035646, 6.9500000000000009E-05, 6.9500000000000009E-05
DataValue, 7.05E-05, 7.1064530000000005E-09, -0.00051546486793100006, 7.05E-05, 7.05E-05
DataValue, 7.15E-05, -4.102286E-09, -0.000476736255223, 7.15E-05, 7.15E-05
DataValue, 7.25E-05, 6.6157630000000009E-09, -0.00061756744980800006, 7.25E-05, 7.25E-05
DataValue, 7.3500000000000011E-05, -5.293959E-09, -0.00046265314449600006, 7.3500000000000011E-05, 7.3500000000000011E-05
DataValue, 7.4500000000000008E-05, 2.073385E-09, -0.000438007671619, 7.4500000000000008E-05, 7.4500000000000008E-05
DataValue, 7.55E-05, 3.62984E-10, -0.00051546486793100006, 7.55E-05, 7.55E-05
DataValue, 7.65E-05, 7.2606690000000008E-09, -0.00081473117461400009, 7.65E-05, 7.65E-05
DataValue, 7.75E-05, -1.4168421000000002E-08, -0.00061756744980800006, 7.75E-05, 7.75E-05
DataValue, 7.8500000000000011E-05, 1.4494828000000002E-08, -0.000684462313075, 7.8500000000000011E-05, 7.8500000000000011E-05
DataValue, 7.9500000000000008E-05, -1.1834143000000001E-08, -0.000518985616509, 7.9500000000000008E-05, 7.9500000000000008E-05
DataValue, 8.05E-05, -1.1035021000000001E-08, -0.000631650560535, 8.05E-05, 8.05E-05
DataValue, 8.15E-05, 9.475779E-09, -0.000800648063887, 8.15E-05, 8.15E-05
DataValue, 8.25E-05, -7.530099E-09, -0.001156246871687, 8.25E-05, 8.25E-05
DataValue, 8.350000000000001E-05, 3.825846E-09, -0.00094852078473200009, 8.350000000000001E-05, 8.350000000000001E-05
DataValue, 8.4500000000000008E-05, 1.17639E-10, -0.00051546486793100006, 8.4500000000000008E-05, 8.4500000000000008E-05
DataValue, 8.55E-05, 3.727708E-09, -0.000469694699859, 8.55E-05, 8.55E-05
DataValue, 8.65E-05, -4.193414E-09, -0.00055419345153500006, 8.65E-05, 8.65E-05
DataValue, 8.75E-05, -8.175005E-09, -0.000635171367321, 8.75E-05, 8.75E-05
DataValue, 8.850000000000001E-05, 1.9107304E-08, -6.8325774919E-05, 8.850000000000001E-05, 8.850000000000001E-05
DataValue, 8.9500000000000007E-05, -1.0004574E-08, -0.000205636199098, 8.9500000000000007E-05, 8.9500000000000007E-05
DataValue, 9.05E-05, -1.9250557000000003E-08, -0.000413362227846, 9.05E-05, 9.05E-05
DataValue, 9.15E-05, 1.0576325000000001E-08, -0.000117616691568, 9.15E-05, 9.15E-05
DataValue, 9.2500000000000012E-05, 1.2525061000000001E-08, -0.000409841450164, 9.2500000000000012E-05, 9.2500000000000012E-05
DataValue, 9.3500000000000009E-05, -1.0390115000000001E-08, -0.00046265314449600006, 9.3500000000000009E-05, 9.3500000000000009E-05
DataValue, 9.45E-05, -8.266133E-09, -0.00041688300552800004, 9.45E-05, 9.45E-05
DataValue, 9.55E-05, 1.2076431E-08, -0.000469694699859, 9.55E-05, 9.55E-05
DataValue, 9.65E-05, -8.84094E-09, -0.00042392456089100004, 9.65E-05, 9.65E-05
DataValue, 9.7500000000000012E-05, 1.3856932000000001E-08, -0.00042040378321, 9.7500000000000012E-05, 9.7500000000000012E-05
DataValue, 9.8500000000000009E-05, -7.51608E-09, -0.00032886350527400003, 9.8500000000000009E-05, 9.8500000000000009E-05
DataValue, 9.95E-05, -6.8571540000000009E-09, -0.00023028165742300003, 9.95E-05, 9.95E-05
DataValue, 0.0001005, -5.1236469000000004E-08, 0.001227321336046, 0.0001005, 0.0001005
DataValue, 0.0001015, -8.4168711E-08, 0.0048889326862990006, 0.0001015, 0.0001015
DataValue, 0.00010250000000000001, -8.954526E-08, 0.008564626798034, 0.00010250000000000001, 0.00010250000000000001
DataValue, 0.00010350000000000001, -7.9535205E-08, 0.012180468067527001, 0.00010350000000000001, 0.00010350000000000001
DataValue, 0.0001045, -1.1390447000000001E-07, 0.016021639108658, 0.0001045, 0.0001045
DataValue, 0.0001055, -8.1820417E-08, 0.019662126898766, 0.0001055, 0.0001055
DataValue, 0.0001065, -9.4101658000000008E-08, 0.02343288064003, 0.0001065, 0.0001065
DataValue, 0.00010750000000000001, -8.4259838000000009E-08, 0.027175471186638003, 0.00010750000000000001, 0.00010750000000000001
DataValue, 0.00010850000000000001, -9.2433318000000007E-08, 0.031136348843575003, 0.00010850000000000001, 0.00010850000000000001
DataValue, 0.0001095, -1.0826855100000001E-07, 0.034745149314404006, 0.0001095, 0.0001095
DataValue, 0.0001105, -8.0081975E-08, 0.03826592862606, 0.0001105, 0.0001105
DataValue, 0.00011150000000000001, -8.9958846E-08, 0.042279615998268, 0.00011150000000000001, 0.00011150000000000001
DataValue, 0.00011250000000000001, -9.6849519000000012E-08, 0.046226412057877, 0.00011250000000000001, 0.00011250000000000001
DataValue, 0.00011350000000000001, -9.9737576000000013E-08, 0.049704942852259, 0.00011350000000000001, 0.00011350000000000001
DataValue, 0.0001145, -8.7582507000000009E-08, 0.053753837943077004, 0.0001145, 0.0001145
DataValue, 0.0001155, -1.0201577500000001E-07, 0.057320389896631005, 0.0001155, 0.0001155
DataValue, 0.00011650000000000001, -8.4995875000000012E-08, 0.060897503048182006, 0.00011650000000000001, 0.00011650000000000001
DataValue, 0.00011750000000000001, -7.8350546E-08, 0.064812608063221, 0.00011750000000000001, 0.00011750000000000001
DataValue, 0.00011850000000000001, -1.0707687900000001E-07, 0.068491823971272, 0.00011850000000000001, 0.00011850000000000001
DataValue, 0.0001195, -9.6057406E-08, 0.07237876951694501, 0.0001195, 0.0001195
DataValue, 0.0001205, -8.5051951000000007E-08, 0.076022773981094, 0.0001205, 0.0001205
DataValue, 0.00012150000000000001, -9.487274600000001E-08, 0.079969570040703, 0.00012150000000000001, 0.00012150000000000001
DataValue, 0.0001225, -1.1131783100000001E-07, 0.083426974713802, 0.0001225, 0.0001225
DataValue, 0.00012350000000000002, -8.1897525000000007E-08, 0.08704985678196, 0.00012350000000000002, 0.00012350000000000002
DataValue, 0.00012450000000000002, -9.3835290000000013E-08, 0.09083117544651001, 0.00012450000000000002, 0.00012450000000000002
DataValue, 0.00012550000000000002, -1.1127577400000001E-07, 0.094651222229004, 0.00012550000000000002, 0.00012550000000000002
DataValue, 0.0001265, -7.7095784E-08, 0.098122708499432013, 0.0001265, 0.0001265
DataValue, 0.0001275, -9.953429E-08, 0.10205542296171201, 0.0001275, 0.0001275
DataValue, 0.0001285, -9.2699693E-08, 0.105294540524483, 0.0001285, 0.0001285
DataValue, 0.0001295, -1.1506109100000001E-07, 0.10923429578542701, 0.0001295, 0.0001295
DataValue, 0.0001305, -6.8172248000000009E-08, 0.11294519156217601, 0.0001305, 0.0001305
DataValue, 0.0001315, -1.12018817E-07, 0.11655399203300501, 0.0001315, 0.0001315
DataValue, 0.0001325, -9.5005930000000008E-08, 0.12026489526033402, 0.0001325, 0.0001325
DataValue, 0.00013350000000000002, -8.637681500000001E-08, 0.12434195727109901, 0.00013350000000000002, 0.00013350000000000002
DataValue, 0.00013450000000000002, -1.0746943200000001E-07, 0.12785570323467302, 0.00013450000000000002, 0.00013450000000000002
DataValue, 0.00013550000000000001, -9.9246883000000014E-08, 0.131851777434349, 0.00013550000000000001, 0.00013550000000000001
DataValue, 0.0001365, -9.5734954000000008E-08, 0.135671824216843, 0.0001365, 0.0001365
DataValue, 0.0001375, -1.0648104600000001E-07, 0.139196127653122, 0.0001375, 0.0001375
DataValue, 0.0001385, -9.0148106000000008E-08, 0.14304433763027202, 0.0001385, 0.0001385
DataValue, 0.0001395, -1.0110449000000001E-07, 0.14664609730243702, 0.0001395, 0.0001395
DataValue, 0.0001405, -1.00585765E-07, 0.150606974959373, 0.0001405, 0.0001405
DataValue, 0.0001415, -9.4928822E-08, 0.15413479506969402, 0.0001415, 0.0001415
DataValue, 0.00014250000000000002, -9.3022145000000007E-08, 0.157898515462875, 0.00014250000000000002, 0.00014250000000000002
DataValue, 0.00014350000000000002, -1.20521761E-07, 0.16193684935569802, 0.00014350000000000002, 0.00014350000000000002
DataValue, 0.00014450000000000002, -9.6120495000000012E-08, 0.165647745132446, 0.00014450000000000002, 0.00014450000000000002
DataValue, 0.0001455, -9.1374829000000011E-08, 0.16956286132335702, 0.0001455, 0.0001455
DataValue, 0.0001465, -1.03382689E-07, 0.173189267516136, 0.0001465, 0.0001465
DataValue, 0.0001475, -1.0934105900000002E-07, 0.177241683006287, 0.0001475, 0.0001475
DataValue, 0.0001485, -9.9499239E-08, 0.18067796528339403, 0.0001485, 0.0001485
DataValue, 0.0001495, -9.3688080000000011E-08, 0.184494495391846, 0.0001495, 0.0001495
DataValue, 0.0001505, -1.0718903800000001E-07, 0.188001185655594, 0.0001505, 0.0001505
DataValue, 0.0001515, -9.485872E-08, 0.19171912968158703, 0.0001515, 0.0001515
DataValue, 0.00015250000000000002, -9.8328599000000008E-08, 0.195482850074768, 0.00015250000000000002, 0.00015250000000000002
DataValue, 0.00015350000000000002, -1.2797322300000002E-07, 0.199366256594658, 0.00015350000000000002, 0.00015350000000000002
DataValue, 0.00015450000000000002, -1.07483451E-07, 0.20355951786041301, 0.00015450000000000002, 0.00015450000000000002
DataValue, 0.0001555, -1.0205081900000001E-07, 0.207273930311203, 0.0001555, 0.0001555
DataValue, 0.0001565, -1.09207875E-07, 0.21121720969677002, 0.0001565, 0.0001565
DataValue, 0.0001575, -1.0024228200000001E-07, 0.214980930089951, 0.0001575, 0.0001575
DataValue, 0.0001585, -1.0777786500000001E-07, 0.218533396720886, 0.0001585, 0.0001585
DataValue, 0.0001595, -9.2482388000000012E-08, 0.22233583033084903, 0.0001595, 0.0001595
DataValue, 0.0001605, -1.1740938500000001E-07, 0.226342484354973, 0.0001605, 0.0001605
DataValue, 0.00016150000000000002, -1.06502071E-07, 0.229750603437424, 0.00016150000000000002, 0.00016150000000000002
DataValue, 0.00016250000000000002, -9.7823886000000013E-08, 0.23388750851154302, 0.00016250000000000002, 0.00016250000000000002
DataValue, 0.00016350000000000002, -1.1515221800000001E-07, 0.23749278485775002, 0.00016350000000000002, 0.00016350000000000002
DataValue, 0.00016450000000000001, -9.701775400000001E-08, 0.24117200076580003, 0.00016450000000000001, 0.00016450000000000001
DataValue, 0.0001655, -1.1865714100000001E-07, 0.24506950378418002, 0.0001655, 0.0001655
DataValue, 0.0001665, -1.06992765E-07, 0.24880857765674602, 0.0001665, 0.0001665
DataValue, 0.0001675, -1.0749045700000001E-07, 0.252537071704864, 0.0001675, 0.0001675
DataValue, 0.0001685, -1.09383116E-07, 0.255825489759445, 0.0001685, 0.0001685
DataValue, 0.0001695, -9.4760587000000008E-08, 0.259708911180496, 0.0001695, 0.0001695
DataValue, 0.0001705, -1.2277192200000002E-07, 0.263789504766464, 0.0001705, 0.0001705
DataValue, 0.00017150000000000002, -9.9954882E-08, 0.26752856373786904, 0.00017150000000000002, 0.00017150000000000002
DataValue, 0.00017250000000000002, -1.20234361E-07, 0.271253556013107, 0.00017250000000000002, 0.00017250000000000002
DataValue, 0.00017350000000000002, -1.01924648E-07, 0.27509120106697105, 0.00017350000000000002, 0.00017350000000000002
DataValue, 0.0001745, -1.0815639200000001E-07, 0.278872519731522, 0.0001745, 0.0001745
DataValue, 0.0001755, -1.23199513E-07, 0.28234049677848805, 0.0001755, 0.0001755
DataValue, 0.0001765, -1.19890871E-07, 0.285878866910934, 0.0001765, 0.0001765
DataValue, 0.0001775, -1.0835267300000001E-07, 0.289723575115204, 0.0001775, 0.0001775
DataValue, 0.0001785, -9.0070998E-08, 0.29339221119880704, 0.0001785, 0.0001785
DataValue, 0.0001795, -1.41747563E-07, 0.2973812520504, 0.0001795, 0.0001795
DataValue, 0.00018050000000000002, -1.0015115500000001E-07, 0.30074712634086603, 0.00018050000000000002, 0.00018050000000000002
DataValue, 0.00018150000000000002, -1.09803707E-07, 0.30429959297180204, 0.00018150000000000002, 0.00018150000000000002
DataValue, 0.00018250000000000002, -1.1529942900000001E-07, 0.30816188454628, 0.00018250000000000002, 0.00018250000000000002
DataValue, 0.00018350000000000002, -1.18019244E-07, 0.31181645393371604, 0.00018350000000000002, 0.00018350000000000002
DataValue, 0.0001845, -1.0859100300000001E-07, 0.31559073925018305, 0.0001845, 0.0001845
