
SetupTitle, FE PUND 1V - reverse
ApplicationTest, WGFMU Pattern Editor, Public
TestParameter, Name, ExecutionMode, Enable1, Channel1, OperationMode1, VForceRange1, InitMeasRange1, Enable2, Channel2, OperationMode2, VForceRange2, InitMeasRange2, RepeatCount, WaveformCh1, WaveformCh2, MeasurementEvent, Output_to_File_for_PatternValidation, Output_Enable, Output_Filename, DataDisplay_for_RunVector, DataDisplay_PatternValidation, DataDisplay_Mode, LogToFile, LogFile, WarningLevel, IForceRange1, IForceRange2, Result_Update_Interval_s
TestParameter, Value, Run Vector, Enable, WGFMU1:RS	RSWGFMU, Fast IV Imeas, Auto, 10uA (Imeas), Enable, WGFMU2:RS	RSWGFMU, PG Vmeas, Auto, 5V (Vmeas), 1, , Disable, C:\WGFMUPatternEditor_Pattern.csv, , Disable, x(time)_y(meas), Disable, C:\WGFMUPatternEditor_Log.log, 2, 10mA, 10mA, 10
MetaData, TestRecord.EntryPoint, true
MetaData, TestRecord.RecordTime, 06/10/2021 09:33:25
MetaData, TestRecord.TestTarget, HZO5nmTiN_2_25um_D11
MetaData, TestRecord.IterationIndex, 5
MetaData, TestRecord.Preservation, true
MetaData, TestRecord.Flag, 
MetaData, TestRecord.Remarks, 
MetaData, TestRecord.LinkKey, 3376bb46-8c91-46b4-9cb3-63cc0107f659
MetaData, TestRecord.Parameters, 
Dimension1, 5000, 5000, 5000, 5000, 5000
Dimension2, 1, 1, 1, 1, 1
DataName, Time, MeasResult1_value, MeasResult2_value, MeasResult1_time, MeasResult2_time
DataValue, 5.0000000000000008E-07, -2.4227546E-08, -0.000180990740773, 5.0000000000000008E-07, 5.0000000000000008E-07
DataValue, 1.5E-06, 6.076680100000001E-08, 0.00035064705298300003, 1.5E-06, 1.5E-06
DataValue, 2.5E-06, -1.50755213E-07, 4.0818413254000005E-05, 2.5E-06, 2.5E-06
DataValue, 3.5000000000000004E-06, 1.08728145E-07, 6.8984649261E-05, 3.5000000000000004E-06, 3.5000000000000004E-06
DataValue, 4.5E-06, -1.5745662600000003E-07, -6.4804989961E-05, 4.5E-06, 4.5E-06
DataValue, 5.5000000000000007E-06, -1.71981014E-07, -2.9597191315000003E-05, 5.5000000000000007E-06, 5.5000000000000007E-06
DataValue, 6.5000000000000004E-06, 1.0056167800000001E-07, -8.4725097620000011E-06, 6.5000000000000004E-06, 6.5000000000000004E-06
DataValue, 7.5E-06, -1.17563602E-07, 1.6172951291E-05, 7.5E-06, 7.5E-06
DataValue, 8.5E-06, -4.7289930000000006E-08, -0.000184511518455, 8.5E-06, 8.5E-06
DataValue, 9.5E-06, -9.3176361000000013E-08, -4.3680309318E-05, 9.5E-06, 9.5E-06
DataValue, 1.0500000000000001E-05, 1.00063978E-07, -0.000156345267897, 1.0500000000000001E-05, 1.0500000000000001E-05
DataValue, 1.15E-05, -1.7015145200000002E-07, -0.00013874137948700002, 1.15E-05, 1.15E-05
DataValue, 1.25E-05, -1.67936335E-07, -0.00016690761549400003, 1.25E-05, 1.25E-05
DataValue, 1.3500000000000001E-05, 1.33893479E-07, -6.8325774919E-05, 1.3500000000000001E-05, 1.3500000000000001E-05
DataValue, 1.45E-05, -1.7952361E-07, -0.00037111286656, 1.45E-05, 1.45E-05
DataValue, 1.55E-05, 1.40111212E-07, -0.00022324010205900002, 1.55E-05, 1.55E-05
DataValue, 1.65E-05, -3.3987376500000004E-07, -0.000131699809572, 1.65E-05, 1.65E-05
DataValue, 1.7500000000000002E-05, 7.266388020000001E-07, -0.00015282449021500002, 1.7500000000000002E-05, 1.7500000000000002E-05
DataValue, 1.8500000000000002E-05, -3.9185874800000003E-07, -0.000325342727592, 1.8500000000000002E-05, 1.8500000000000002E-05
DataValue, 1.95E-05, 1.59521463E-07, -0.00048729861737200003, 1.95E-05, 1.95E-05
DataValue, 2.05E-05, 1.7865133400000002E-07, -0.00019155307381900003, 2.05E-05, 2.05E-05
DataValue, 2.15E-05, -3.6214377E-08, 9.13139047E-06, 2.15E-05, 2.15E-05
DataValue, 2.25E-05, 1.81174869E-07, -0.00042040378321, 2.25E-05, 2.25E-05
DataValue, 2.3500000000000002E-05, 1.47899144E-07, -0.00045209081145, 2.3500000000000002E-05, 2.3500000000000002E-05
DataValue, 2.4500000000000003E-05, 1.3699885E-07, -6.8325774919E-05, 2.4500000000000003E-05, 2.4500000000000003E-05
DataValue, 2.5500000000000003E-05, 3.9905508E-08, 0.00027671069256, 2.5500000000000003E-05, 2.5500000000000003E-05
DataValue, 2.65E-05, 3.04891586E-07, 0.00024502366432, 2.65E-05, 2.65E-05
DataValue, 2.75E-05, 6.6353643E-08, -4.3680309318E-05, 2.75E-05, 2.75E-05
DataValue, 2.85E-05, -7.628263900000001E-08, 0.000132358691189, 2.85E-05, 2.85E-05
DataValue, 2.9500000000000002E-05, 3.95213419E-07, 0.000195732733118, 2.9500000000000002E-05, 2.9500000000000002E-05
DataValue, 3.0500000000000003E-05, -2.46579759E-07, 0.000185170400073, 3.0500000000000003E-05, 3.0500000000000003E-05
DataValue, 3.15E-05, 1.2209618E-08, 0.000160524941748, 3.15E-05, 3.15E-05
DataValue, 3.2500000000000004E-05, 2.0827492600000003E-07, 5.8422312577000007E-05, 3.2500000000000004E-05, 3.2500000000000004E-05
DataValue, 3.35E-05, 1.2712197900000002E-07, 0.000223898983677, 3.35E-05, 3.35E-05
DataValue, 3.4500000000000005E-05, -2.58839975E-07, 0.00039641719195100005, 3.4500000000000005E-05, 3.4500000000000005E-05
DataValue, 3.55E-05, -1.53587195E-07, -8.5929670604000007E-05, 3.55E-05, 3.55E-05
DataValue, 3.65E-05, 1.2593029900000002E-07, 0.000149962594151, 3.65E-05, 3.65E-05
DataValue, 3.7500000000000003E-05, -2.0806768900000002E-07, 4.0818413254000005E-05, 3.7500000000000003E-05, 3.7500000000000003E-05
DataValue, 3.85E-05, -7.8084170000000007E-08, -1.4309495100000002E-06, 3.85E-05, 3.85E-05
DataValue, 3.9500000000000005E-05, 1.2579711500000002E-07, 4.4339190936000006E-05, 3.9500000000000005E-05, 3.9500000000000005E-05
DataValue, 4.05E-05, -2.5445882600000005E-07, -0.00021267775446200002, 4.05E-05, 4.05E-05
DataValue, 4.1500000000000006E-05, -4.0253473800000003E-07, -0.000332384282956, 4.1500000000000006E-05, 4.1500000000000006E-05
DataValue, 4.25E-05, 6.9475100900000006E-07, 0.000149962594151, 4.25E-05, 4.25E-05
DataValue, 4.35E-05, -6.1486287E-07, 0.00011827557318600001, 4.35E-05, 4.35E-05
DataValue, 4.4500000000000004E-05, -5.7314004000000007E-08, -0.000180990740773, 4.4500000000000004E-05, 4.4500000000000004E-05
DataValue, 4.55E-05, 1.1707687300000001E-07, -0.000501381698996, 4.55E-05, 4.55E-05
DataValue, 4.6500000000000005E-05, 6.125075E-09, -0.000476736255223, 4.6500000000000005E-05, 4.6500000000000005E-05
DataValue, 4.75E-05, -9.9443163000000008E-08, -0.00039575831033300003, 4.75E-05, 4.75E-05
DataValue, 4.85E-05, 2.206572E-09, -9.649201092500001E-05, 4.85E-05, 4.85E-05
DataValue, 4.9500000000000004E-05, 6.4909621E-08, -0.00030773881007900003, 4.9500000000000004E-05, 4.9500000000000004E-05
DataValue, 5.05E-05, -4.857273E-08, -0.00052602717187300008, 5.05E-05, 5.05E-05
DataValue, 5.1500000000000005E-05, 2.15775458E-07, -0.00033942583832000003, 5.1500000000000005E-05, 5.1500000000000005E-05
DataValue, 5.25E-05, 5.241835E-09, -0.000501381698996, 5.25E-05, 5.25E-05
DataValue, 5.3500000000000006E-05, 8.2616481E-08, -0.00031478036544300004, 5.3500000000000006E-05, 5.3500000000000006E-05
DataValue, 5.45E-05, 1.2038552200000002E-07, -0.00033590506063800005, 5.45E-05, 5.45E-05
DataValue, 5.55E-05, -9.4241855000000008E-08, -0.0005401102826, 5.55E-05, 5.55E-05
DataValue, 5.6500000000000005E-05, 1.5650724100000001E-07, -0.00020211542141600002, 5.6500000000000005E-05, 5.6500000000000005E-05
DataValue, 5.75E-05, 1.9885396000000003E-08, 2.0898305590000003E-06, 5.75E-05, 5.75E-05
DataValue, 5.8500000000000006E-05, 7.7281989E-08, 8.6588552222000012E-05, 5.8500000000000006E-05, 5.8500000000000006E-05
DataValue, 5.95E-05, -7.277071E-08, -0.00021267775446200002, 5.95E-05, 5.95E-05
DataValue, 6.0500000000000007E-05, 2.7385903E-07, -1.4309495100000002E-06, 6.0500000000000007E-05, 6.0500000000000007E-05
DataValue, 6.15E-05, 3.08060038E-07, 0.000149962594151, 6.15E-05, 6.15E-05
DataValue, 6.25E-05, -3.5239335700000005E-07, 0.00029079380328800005, 6.25E-05, 6.25E-05
DataValue, 6.35E-05, 2.1970798500000002E-07, -8.4725097620000011E-06, 6.35E-05, 6.35E-05
DataValue, 6.4500000000000009E-05, -1.31870692E-07, -8.9450455562000008E-05, 6.4500000000000009E-05, 6.4500000000000009E-05
DataValue, 6.55E-05, 8.5020858E-08, -6.4804989961E-05, 6.55E-05, 6.55E-05
DataValue, 6.65E-05, -2.8648679500000004E-07, 0.000216857413761, 6.65E-05, 6.65E-05
DataValue, 6.75E-05, 5.07938694E-07, 0.00023094053904100002, 6.75E-05, 6.75E-05
DataValue, 6.85E-05, -4.6122116300000003E-07, 0.000266148330411, 6.85E-05, 6.85E-05
DataValue, 6.9500000000000009E-05, 7.3987366E-08, -4.7201090638000005E-05, 6.9500000000000009E-05, 6.9500000000000009E-05
DataValue, 7.05E-05, -2.9029287000000004E-08, -6.1284212279E-05, 7.05E-05, 7.05E-05
DataValue, 7.15E-05, -2.84860505E-07, -4.3680309318E-05, 7.15E-05, 7.15E-05
DataValue, 7.25E-05, 1.33171469E-07, -4.7201090638000005E-05, 7.25E-05, 7.25E-05
DataValue, 7.3500000000000011E-05, -1.98898817E-07, -0.000244364782702, 7.3500000000000011E-05, 7.3500000000000011E-05
DataValue, 7.4500000000000008E-05, 5.4689266000000006E-08, -0.00045209081145, 7.4500000000000008E-05, 7.4500000000000008E-05
DataValue, 7.55E-05, -5.4741392000000006E-08, -0.00020915697678, 7.55E-05, 7.55E-05
DataValue, 7.65E-05, -2.1080126E-08, -0.000131699809572, 7.65E-05, 7.65E-05
DataValue, 7.75E-05, -7.9458097E-08, -0.00037815442192400004, 7.75E-05, 7.75E-05
DataValue, 7.8500000000000011E-05, -2.8369689200000003E-07, -0.00042040378321, 7.8500000000000011E-05, 7.8500000000000011E-05
DataValue, 7.9500000000000008E-05, 4.3019252900000003E-07, -0.000233802435105, 7.9500000000000008E-05, 7.9500000000000008E-05
DataValue, 8.05E-05, -4.79699111E-07, -0.00021267775446200002, 8.05E-05, 8.05E-05
DataValue, 8.15E-05, 2.3289349800000003E-07, -0.00020915697678, 8.15E-05, 8.15E-05
DataValue, 8.25E-05, 1.0123462600000001E-07, -7.184655260100001E-05, 8.25E-05, 8.25E-05
DataValue, 8.350000000000001E-05, 1.0443138E-08, -0.00017394917085800001, 8.350000000000001E-05, 8.350000000000001E-05
DataValue, 8.4500000000000008E-05, 7.6665124E-08, -0.00048025703290500006, 8.4500000000000008E-05, 8.4500000000000008E-05
DataValue, 8.55E-05, 9.917399E-09, -0.00024788556038400004, 8.55E-05, 8.55E-05
DataValue, 8.65E-05, 1.8487607200000002E-07, -0.00021971930982500002, 8.65E-05, 8.65E-05
DataValue, 8.75E-05, 2.3151983000000002E-08, -0.00037463364424200006, 8.75E-05, 8.75E-05
DataValue, 8.850000000000001E-05, 2.1033582700000002E-07, -9.2971233244E-05, 8.850000000000001E-05, 8.850000000000001E-05
DataValue, 8.9500000000000007E-05, 6.3914490000000008E-09, -8.9450455562000008E-05, 8.9500000000000007E-05, 8.9500000000000007E-05
DataValue, 9.05E-05, 6.85436E-10, -6.1284212279E-05, 9.05E-05, 9.05E-05
DataValue, 9.15E-05, -5.3886190000000005E-08, -0.000269010226475, 9.15E-05, 9.15E-05
DataValue, 9.2500000000000012E-05, 4.84413647E-07, -2.9597191315000003E-05, 9.2500000000000012E-05, 9.2500000000000012E-05
DataValue, 9.3500000000000009E-05, 1.21458015E-07, -6.8325774919E-05, 9.3500000000000009E-05, 9.3500000000000009E-05
DataValue, 9.45E-05, -1.94363452E-07, 7.9546989582E-05, 9.45E-05, 9.45E-05
DataValue, 9.55E-05, 1.8667759600000002E-07, 5.1380753575E-05, 9.55E-05, 9.55E-05
DataValue, 9.65E-05, 5.4198576000000005E-08, 3.0256071113000003E-05, 9.65E-05, 9.65E-05
DataValue, 9.7500000000000012E-05, -9.054065900000001E-08, -0.00024084399046800001, 9.7500000000000012E-05, 9.7500000000000012E-05
DataValue, 9.8500000000000009E-05, -1.32031914E-07, -1.9034850993E-05, 9.8500000000000009E-05, 9.8500000000000009E-05
DataValue, 9.95E-05, -7.9156678000000009E-08, 5.8422312577000007E-05, 9.95E-05, 9.95E-05
DataValue, 0.0001005, -3.148948E-09, 0.001237883698195, 0.0001005, 0.0001005
DataValue, 0.0001015, -5.18828074E-07, 0.0036813050974160003, 0.0001015, 0.0001015
DataValue, 0.00010250000000000001, 4.420254E-08, 0.006078956183046, 0.00010250000000000001, 0.00010250000000000001
DataValue, 0.00010350000000000001, -2.8894726300000003E-07, 0.0087512284517290012, 0.00010350000000000001, 0.00010350000000000001
DataValue, 0.0001045, -4.6028156000000004E-08, 0.011138317175210001, 0.0001045, 0.0001045
DataValue, 0.0001055, -3.4724109800000004E-07, 0.013507802039385002, 0.0001055, 0.0001055
DataValue, 0.0001065, -2.05389924E-07, 0.015989951789379002, 0.0001065, 0.0001065
DataValue, 0.00010750000000000001, -1.94657858E-07, 0.018542516976595, 0.00010750000000000001, 0.00010750000000000001
DataValue, 0.00010850000000000001, -1.34674636E-07, 0.020940169692039, 0.00010850000000000001, 0.00010850000000000001
DataValue, 0.0001095, -1.57533734E-07, 0.023390632122755002, 0.0001095, 0.0001095
DataValue, 0.0001105, -2.3371670500000002E-07, 0.025738991796970003, 0.0001105, 0.0001105
DataValue, 0.00011150000000000001, -1.34506394E-07, 0.028383098542690003, 0.00011150000000000001, 0.00011150000000000001
DataValue, 0.00011250000000000001, -5.3528691000000006E-08, 0.031076494604349, 0.00011250000000000001, 0.00011250000000000001
DataValue, 0.00011350000000000001, -3.33466772E-07, 0.033185441046953, 0.00011350000000000001, 0.00011350000000000001
DataValue, 0.0001145, -2.9372771E-08, 0.035660549998283005, 0.0001145, 0.0001145
DataValue, 0.0001155, -1.20809162E-07, 0.038357470184565, 0.0001155, 0.0001155
DataValue, 0.00011650000000000001, -1.1501202100000001E-07, 0.040758639574051, 0.00011650000000000001, 0.00011650000000000001
DataValue, 0.00011750000000000001, 1.6177189E-08, 0.043068271130323, 0.00011750000000000001, 0.00011750000000000001
DataValue, 0.00011850000000000001, -8.1476934000000008E-08, 0.045937709510326004, 0.00011850000000000001, 0.00011850000000000001
DataValue, 0.0001195, -2.7536192E-08, 0.048293109983206, 0.0001195, 0.0001195
DataValue, 0.0001205, -1.28835438E-07, 0.050958339124918005, 0.0001205, 0.0001205
DataValue, 0.00012150000000000001, -1.18264587E-07, 0.053556676954031004, 0.00012150000000000001, 0.00012150000000000001
DataValue, 0.0001225, -1.7400685700000002E-07, 0.056155011057854004, 0.0001225, 0.0001225
DataValue, 0.00012350000000000002, 6.237232E-09, 0.058552663773298007, 0.00012350000000000002, 0.00012350000000000002
DataValue, 0.00012450000000000002, -4.3091031000000005E-08, 0.061027772724628004, 0.00012450000000000002, 0.00012450000000000002
DataValue, 0.00012550000000000002, -1.93676485E-07, 0.063615545630455, 0.00012550000000000002, 0.00012550000000000002
DataValue, 0.0001265, -1.34716686E-07, 0.065953344106674, 0.0001265, 0.0001265
DataValue, 0.0001275, 5.7773597000000006E-08, 0.068688988685608007, 0.0001275, 0.0001275
DataValue, 0.0001285, -4.30812463E-07, 0.071195781230927, 0.0001285, 0.0001285
DataValue, 0.0001295, 1.24927894E-07, 0.073702581226826, 0.0001295, 0.0001295
DataValue, 0.0001305, -3.4623170100000003E-07, 0.076283313333988009, 0.0001305, 0.0001305
DataValue, 0.0001315, -2.47890597E-07, 0.078800670802593009, 0.0001315, 0.0001315
DataValue, 0.0001325, -2.9688240500000004E-07, 0.081215925514698, 0.0001325, 0.0001325
DataValue, 0.00013350000000000002, -1.9678158E-08, 0.083814263343811007, 0.00013350000000000002, 0.00013350000000000002
DataValue, 0.00013450000000000002, -3.28160326E-07, 0.086197830736637, 0.00013450000000000002, 0.00013450000000000002
DataValue, 0.00013550000000000001, -2.57816538E-07, 0.088377192616463013, 0.00013550000000000001, 0.00013550000000000001
DataValue, 0.0001365, -7.2707621E-08, 0.090767800807953, 0.0001365, 0.0001365
DataValue, 0.0001375, -3.4637187700000003E-07, 0.093658365309238, 0.0001375, 0.0001375
DataValue, 0.0001385, -2.70027698E-07, 0.095827162265778, 0.0001385, 0.0001385
DataValue, 0.0001395, -1.8691197600000002E-07, 0.098485350608826, 0.0001395, 0.0001395
DataValue, 0.0001405, -2.1514061600000002E-07, 0.10117170959711101, 0.0001405, 0.0001405
DataValue, 0.0001415, -4.97104566E-07, 0.10336162894964202, 0.0001415, 0.0001415
DataValue, 0.00014250000000000002, 1.74172044E-07, 0.105688869953155, 0.00014250000000000002, 0.00014250000000000002
DataValue, 0.00014350000000000002, -3.74600518E-07, 0.108301289379597, 0.00014350000000000002, 0.00014350000000000002
DataValue, 0.00014450000000000002, -1.5892167900000003E-07, 0.11080104112625101, 0.00014450000000000002, 0.00014450000000000002
DataValue, 0.0001455, -9.7249078E-08, 0.11318108439445501, 0.0001455, 0.0001455
DataValue, 0.0001465, -2.1030382400000003E-07, 0.11565619707107501, 0.0001465, 0.0001465
DataValue, 0.0001475, -1.1893052200000001E-07, 0.11840944737196, 0.0001475, 0.0001475
DataValue, 0.0001485, -1.60246543E-07, 0.12061345577240001, 0.0001485, 0.0001485
DataValue, 0.0001495, -9.4725536000000008E-08, 0.12301814556121801, 0.0001495, 0.0001495
DataValue, 0.0001505, -4.5565507000000004E-08, 0.125387638807297, 0.0001505, 0.0001505
DataValue, 0.0001515, -1.28912546E-07, 0.12805637717247, 0.0001515, 0.0001515
DataValue, 0.00015250000000000002, -2.4549998E-08, 0.130658239126205, 0.00015250000000000002, 0.00015250000000000002
DataValue, 0.00015350000000000002, -2.7759131200000003E-07, 0.133094623684883, 0.00015350000000000002, 0.00015350000000000002
DataValue, 0.00015450000000000002, 3.0153387300000005E-07, 0.135696470737457, 0.00015450000000000002, 0.00015450000000000002
DataValue, 0.0001555, -5.2210867800000008E-07, 0.13830184936523401, 0.0001555, 0.0001555
DataValue, 0.0001565, -6.8291421E-08, 0.14063964784145402, 0.0001565, 0.0001565
DataValue, 0.0001575, -1.15769083E-07, 0.14314292371273002, 0.0001575, 0.0001575
DataValue, 0.0001585, -2.08733624E-07, 0.14576590061187703, 0.0001585, 0.0001585
DataValue, 0.0001595, -8.096521500000001E-08, 0.14822341501712802, 0.0001595, 0.0001595
DataValue, 0.0001605, -1.11983766E-07, 0.15080061554908703, 0.0001605, 0.0001605
DataValue, 0.00016150000000000002, -2.71583872E-07, 0.15326516330242201, 0.00016150000000000002, 0.00016150000000000002
DataValue, 0.00016250000000000002, -1.40065197E-07, 0.155543118715286, 0.00016250000000000002, 0.00016250000000000002
DataValue, 0.00016350000000000002, -2.8550542200000004E-07, 0.15851464867591902, 0.00016350000000000002, 0.00016350000000000002
DataValue, 0.00016450000000000001, -4.1558007500000003E-07, 0.160891175270081, 0.00016450000000000001, 0.00016450000000000001
DataValue, 0.0001655, -3.44640455E-07, 0.16327121853828402, 0.0001655, 0.0001655
DataValue, 0.0001665, -2.75306093E-07, 0.165802672505379, 0.0001665, 0.0001665
DataValue, 0.0001675, -1.4406756000000001E-08, 0.168481975793838, 0.0001675, 0.0001675
DataValue, 0.0001685, -6.0237835000000007E-07, 0.170869067311287, 0.0001685, 0.0001685
DataValue, 0.0001695, -1.4475477900000002E-07, 0.17344276607036602, 0.0001695, 0.0001695
DataValue, 0.0001705, -3.65368578E-07, 0.17571014165878301, 0.0001705, 0.0001705
DataValue, 0.00017150000000000002, -4.0941139900000006E-07, 0.17809371650219003, 0.00017150000000000002, 0.00017150000000000002
DataValue, 0.00017250000000000002, -1.56524308E-07, 0.18087160587310802, 0.00017250000000000002, 0.00017250000000000002
DataValue, 0.00017350000000000002, -3.8253566E-07, 0.18304744362831102, 0.00017350000000000002, 0.00017350000000000002
DataValue, 0.0001745, -2.33492386E-07, 0.18543453514576003, 0.0001745, 0.0001745
DataValue, 0.0001755, -3.2445910800000003E-07, 0.187874436378479, 0.0001755, 0.0001755
DataValue, 0.0001765, -9.5615789E-08, 0.190409392118454, 0.0001765, 0.0001765
DataValue, 0.0001775, -2.8026207100000004E-07, 0.19279648363590202, 0.0001775, 0.0001775
DataValue, 0.0001785, -3.2019713100000004E-07, 0.19524343311786602, 0.0001785, 0.0001785
DataValue, 0.0001795, 2.0237263200000002E-07, 0.19772557914257002, 0.0001795, 0.0001795
DataValue, 0.00018050000000000002, -5.71801422E-07, 0.200700640678406, 0.00018050000000000002, 0.00018050000000000002
DataValue, 0.00018150000000000002, -5.3080058E-08, 0.20331658422946902, 0.00018150000000000002, 0.00018150000000000002
DataValue, 0.00018250000000000002, -8.134375000000001E-08, 0.205788165330887, 0.00018250000000000002, 0.00018250000000000002
DataValue, 0.00018350000000000002, -1.3526346300000002E-07, 0.20861534774303403, 0.00018350000000000002, 0.00018350000000000002
DataValue, 0.0001845, -2.0794151100000002E-07, 0.211231291294098, 0.0001845, 0.0001845
DataValue, 0.0001855, -6.099417500000001E-08, 0.21385075151920302, 0.0001855, 0.0001855
DataValue, 0.0001865, -2.5559416E-08, 0.21615687012672402, 0.0001865, 0.0001865
