
SetupTitle, FE PUND 2V - reverse
ApplicationTest, WGFMU Pattern Editor, Public
TestParameter, Name, ExecutionMode, Enable1, Channel1, OperationMode1, VForceRange1, InitMeasRange1, Enable2, Channel2, OperationMode2, VForceRange2, InitMeasRange2, RepeatCount, WaveformCh1, WaveformCh2, MeasurementEvent, Output_to_File_for_PatternValidation, Output_Enable, Output_Filename, DataDisplay_for_RunVector, DataDisplay_PatternValidation, DataDisplay_Mode, LogToFile, LogFile, WarningLevel, IForceRange1, IForceRange2, Result_Update_Interval_s
TestParameter, Value, Run Vector, Enable, WGFMU1:RS	RSWGFMU, Fast IV Imeas, Auto, 10uA (Imeas), Enable, WGFMU2:RS	RSWGFMU, PG Vmeas, Auto, 5V (Vmeas), 1, , Disable, C:\WGFMUPatternEditor_Pattern.csv, , Disable, x(time)_y(meas), Disable, C:\WGFMUPatternEditor_Log.log, 2, 10mA, 10mA, 10
MetaData, TestRecord.EntryPoint, true
MetaData, TestRecord.RecordTime, 06/10/2021 11:24:35
MetaData, TestRecord.TestTarget, ZrO2_1_25um_E2
MetaData, TestRecord.IterationIndex, 2
MetaData, TestRecord.Preservation, true
MetaData, TestRecord.Flag, 
MetaData, TestRecord.Remarks, 
MetaData, TestRecord.LinkKey, 8a1a6e07-3ac8-46b2-86b0-1cce3c980858
MetaData, TestRecord.Parameters, 
Dimension1, 5000, 5000, 5000, 5000, 5000
Dimension2, 1, 1, 1, 1, 1
DataName, Time, MeasResult1_value, MeasResult2_value, MeasResult1_time, MeasResult2_time
DataValue, 5.0000000000000008E-07, 5.86036731E-06, -0.00073727400740600008, 5.0000000000000008E-07, 5.0000000000000008E-07
DataValue, 1.5E-06, 5.5789851100000007E-06, -0.00035350894904700005, 1.5E-06, 1.5E-06
DataValue, 2.5E-06, 5.5559371500000008E-06, -0.000522506423295, 2.5E-06, 2.5E-06
DataValue, 3.5000000000000004E-06, 5.930437965E-06, -0.00029013492167000003, 3.5000000000000004E-06, 3.5000000000000004E-06
DataValue, 4.5E-06, 5.3384637790000006E-06, -0.00060348433908100009, 4.5E-06, 4.5E-06
DataValue, 5.5000000000000007E-06, 5.6082512860000007E-06, -0.000476736255223, 5.5000000000000007E-06, 5.5000000000000007E-06
DataValue, 6.5000000000000004E-06, 5.719490673E-06, -0.000469694699859, 6.5000000000000004E-06, 6.5000000000000004E-06
DataValue, 7.5E-06, 5.5776322370000005E-06, -0.00055067264474900005, 7.5E-06, 7.5E-06
DataValue, 8.5E-06, 5.582048743E-06, -0.00046265314449600006, 8.5E-06, 8.5E-06
DataValue, 9.5E-06, 5.4967317740000005E-06, -0.00031830117222900005, 9.5E-06, 9.5E-06
DataValue, 1.0500000000000001E-05, 5.890320608E-06, -0.00037815442192400004, 1.0500000000000001E-05, 1.0500000000000001E-05
DataValue, 1.15E-05, 5.3383655540000006E-06, -0.000244364782702, 1.15E-05, 1.15E-05
DataValue, 1.25E-05, 5.604809758E-06, -0.00021267775446200002, 1.25E-05, 1.25E-05
DataValue, 1.3500000000000001E-05, 5.7131887840000006E-06, -0.00029717647703400005, 1.3500000000000001E-05, 1.3500000000000001E-05
DataValue, 1.45E-05, 5.6515509640000007E-06, -0.0004027998948, 1.45E-05, 1.45E-05
DataValue, 1.55E-05, 5.7783940970000005E-06, 1.6172951291E-05, 1.55E-05, 1.55E-05
DataValue, 1.65E-05, 5.547181445E-06, -0.00037815442192400004, 1.65E-05, 1.65E-05
DataValue, 1.7500000000000002E-05, 5.612513178E-06, -0.00028661414398800005, 1.7500000000000002E-05, 1.7500000000000002E-05
DataValue, 1.8500000000000002E-05, 5.4465344870000006E-06, -0.00039223753265100005, 1.8500000000000002E-05, 1.8500000000000002E-05
DataValue, 1.95E-05, 5.8631922000000005E-06, -0.000117616691568, 1.95E-05, 1.95E-05
DataValue, 2.05E-05, 5.829958809E-06, -5.0721871958E-05, 2.05E-05, 2.05E-05
DataValue, 2.15E-05, 5.2763634810000008E-06, -0.00023028165742300003, 2.15E-05, 2.15E-05
DataValue, 2.25E-05, 5.7391180230000005E-06, -0.00024788556038400004, 2.25E-05, 2.25E-05
DataValue, 2.3500000000000002E-05, 6.0185307120000005E-06, -0.00029717647703400005, 2.3500000000000002E-05, 2.3500000000000002E-05
DataValue, 2.4500000000000003E-05, 5.7714055400000005E-06, -0.000135220587254, 2.4500000000000003E-05, 2.4500000000000003E-05
DataValue, 2.5500000000000003E-05, 5.523109849E-06, -0.000124658254208, 2.5500000000000003E-05, 2.5500000000000003E-05
DataValue, 2.65E-05, 5.2597010840000008E-06, -0.000518985616509, 2.65E-05, 2.65E-05
DataValue, 2.75E-05, 5.326855444E-06, -0.000300697254715, 2.75E-05, 2.75E-05
DataValue, 2.85E-05, 5.415774922E-06, -0.00045561158913200005, 2.85E-05, 2.85E-05
DataValue, 2.9500000000000002E-05, 5.6046133070000006E-06, -0.00024084399046800001, 2.9500000000000002E-05, 2.9500000000000002E-05
DataValue, 3.0500000000000003E-05, 5.506643902E-06, -0.00034646739368300003, 3.0500000000000003E-05, 3.0500000000000003E-05
DataValue, 3.15E-05, 5.654306278E-06, -0.00039223753265100005, 3.15E-05, 3.15E-05
DataValue, 3.2500000000000004E-05, 5.501105989E-06, -0.00042392456089100004, 3.2500000000000004E-05, 3.2500000000000004E-05
DataValue, 3.35E-05, 5.5772820820000008E-06, -0.000349988171365, 3.35E-05, 3.35E-05
DataValue, 3.4500000000000005E-05, 5.5004470600000008E-06, -0.000332384282956, 3.4500000000000005E-05, 3.4500000000000005E-05
DataValue, 3.55E-05, 5.655645055E-06, -0.00041688300552800004, 3.55E-05, 3.55E-05
DataValue, 3.65E-05, 5.5706086640000006E-06, -0.00021619853214400003, 3.65E-05, 3.65E-05
DataValue, 3.7500000000000003E-05, 5.5463192440000005E-06, -0.00036759208887800004, 3.7500000000000003E-05, 3.7500000000000003E-05
DataValue, 3.85E-05, 5.689018963E-06, -0.00024788556038400004, 3.85E-05, 3.85E-05
DataValue, 3.9500000000000005E-05, 5.5667319430000008E-06, -0.000399279088015, 3.9500000000000005E-05, 3.9500000000000005E-05
DataValue, 4.05E-05, 5.448125648E-06, -0.000121137476526, 4.05E-05, 4.05E-05
DataValue, 4.1500000000000006E-05, 5.4730594460000007E-06, 1.9693730792E-05, 4.1500000000000006E-05, 4.1500000000000006E-05
DataValue, 4.25E-05, 5.5323207560000007E-06, -0.00024084399046800001, 4.25E-05, 4.25E-05
DataValue, 4.35E-05, 5.690890248E-06, -0.000283093366306, 4.35E-05, 4.35E-05
DataValue, 4.4500000000000004E-05, 5.559462807E-06, -0.00042392456089100004, 4.4500000000000004E-05, 4.4500000000000004E-05
DataValue, 4.55E-05, 5.6991548260000007E-06, -0.00030421803239700005, 4.55E-05, 4.55E-05
DataValue, 4.6500000000000005E-05, 5.5912246350000005E-06, -0.00046265314449600006, 4.6500000000000005E-05, 4.6500000000000005E-05
DataValue, 4.75E-05, 5.633108231E-06, -0.00048729861737200003, 4.75E-05, 4.75E-05
DataValue, 4.85E-05, 5.799150586E-06, -0.000547151837964, 4.85E-05, 4.85E-05
DataValue, 4.9500000000000004E-05, 5.627416158E-06, -0.000413362227846, 4.9500000000000004E-05, 4.9500000000000004E-05
DataValue, 5.05E-05, 5.754546692E-06, -0.00043096611625500006, 5.05E-05, 5.05E-05
DataValue, 5.1500000000000005E-05, 5.613698249E-06, -0.0004027998948, 5.1500000000000005E-05, 5.1500000000000005E-05
DataValue, 5.25E-05, 5.6741087060000005E-06, -0.00053658953402200009, 5.25E-05, 5.25E-05
DataValue, 5.3500000000000006E-05, 5.949714705E-06, -0.00041688300552800004, 5.3500000000000006E-05, 5.3500000000000006E-05
DataValue, 5.45E-05, 6.120390481E-06, -0.00019859462918200003, 5.45E-05, 5.45E-05
DataValue, 5.55E-05, 5.867299933E-06, -0.00058940122835300006, 5.55E-05, 5.55E-05
DataValue, 5.6500000000000005E-05, 5.752345714E-06, -0.00049434014363200008, 5.6500000000000005E-05, 5.6500000000000005E-05
DataValue, 5.75E-05, 6.2056019490000005E-06, -6.1284212279E-05, 5.75E-05, 5.75E-05
DataValue, 5.8500000000000006E-05, 5.188305749E-06, -0.00048729861737200003, 5.8500000000000006E-05, 5.8500000000000006E-05
DataValue, 5.95E-05, 4.9914901870000005E-06, -0.000666858395562, 5.95E-05, 5.95E-05
DataValue, 6.0500000000000007E-05, 5.786042038E-06, -0.00045209081145, 6.0500000000000007E-05, 6.0500000000000007E-05
DataValue, 6.15E-05, 5.016312116E-06, -0.00048729861737200003, 6.15E-05, 6.15E-05
DataValue, 6.25E-05, 5.295549272E-06, -0.000561235006899, 6.25E-05, 6.25E-05
DataValue, 6.35E-05, 5.641380085E-06, -0.00037111286656, 6.35E-05, 6.35E-05
DataValue, 6.4500000000000009E-05, 5.4911238290000006E-06, -0.000293655699352, 6.4500000000000009E-05, 6.4500000000000009E-05
DataValue, 6.55E-05, 5.2309746930000008E-06, -0.000311259587761, 6.55E-05, 6.55E-05
DataValue, 6.65E-05, 5.8178738980000006E-06, -0.000388716754969, 6.65E-05, 6.65E-05
DataValue, 6.75E-05, 5.8101418290000005E-06, -0.00034294661600100005, 6.75E-05, 6.75E-05
DataValue, 6.85E-05, 5.2090199460000006E-06, -0.00037111286656, 6.85E-05, 6.85E-05
DataValue, 6.9500000000000009E-05, 5.5941545720000005E-06, -0.000413362227846, 6.9500000000000009E-05, 6.9500000000000009E-05
DataValue, 7.05E-05, 5.4751412790000007E-06, -0.00039575831033300003, 7.05E-05, 7.05E-05
DataValue, 7.15E-05, 5.3374469640000005E-06, -0.00071967008989300011, 7.15E-05, 7.15E-05
DataValue, 7.25E-05, 5.7381439550000005E-06, -0.000409841450164, 7.25E-05, 7.25E-05
DataValue, 7.3500000000000011E-05, 5.603975296E-06, -0.000325342727592, 7.3500000000000011E-05, 7.3500000000000011E-05
DataValue, 7.4500000000000008E-05, 5.482375855E-06, -0.00056475575547700009, 7.4500000000000008E-05, 7.4500000000000008E-05
DataValue, 7.55E-05, 5.6503877200000005E-06, -0.000557714200113, 7.55E-05, 7.55E-05
DataValue, 7.65E-05, 5.72768522E-06, -0.00049434014363200008, 7.65E-05, 7.65E-05
DataValue, 7.75E-05, 5.54664166E-06, -0.0006422129226850001, 7.75E-05, 7.75E-05
DataValue, 7.8500000000000011E-05, 5.680137292E-06, -0.000293655699352, 7.8500000000000011E-05, 7.8500000000000011E-05
DataValue, 7.9500000000000008E-05, 5.839449841E-06, -0.00044504925608600005, 7.9500000000000008E-05, 7.9500000000000008E-05
DataValue, 8.05E-05, 5.768131814E-06, -0.00058940122835300006, 8.05E-05, 8.05E-05
DataValue, 8.15E-05, 5.7806096270000005E-06, -0.000508423312567, 8.15E-05, 8.15E-05
DataValue, 8.25E-05, 5.637377399E-06, -0.000381675199606, 8.25E-05, 8.25E-05
DataValue, 8.350000000000001E-05, 5.676043656E-06, -0.000195073851501, 8.350000000000001E-05, 8.350000000000001E-05
DataValue, 8.4500000000000008E-05, 5.552992661E-06, -0.000476736255223, 8.4500000000000008E-05, 8.4500000000000008E-05
DataValue, 8.55E-05, 6.030412351E-06, -9.2971233244E-05, 8.55E-05, 8.55E-05
DataValue, 8.65E-05, 6.247254532E-06, -0.00039575831033300003, 8.65E-05, 8.65E-05
DataValue, 8.75E-05, 5.890797183E-06, -0.00035350894904700005, 8.75E-05, 8.75E-05
DataValue, 8.850000000000001E-05, 5.6477238100000008E-06, -0.0006457337294710001, 8.850000000000001E-05, 8.850000000000001E-05
DataValue, 8.9500000000000007E-05, 5.9709195740000008E-06, -0.00032886350527400003, 8.9500000000000007E-05, 8.9500000000000007E-05
DataValue, 9.05E-05, 5.9684170990000006E-06, -0.00034294661600100005, 9.05E-05, 9.05E-05
DataValue, 9.15E-05, 5.410195172E-06, -0.000244364782702, 9.15E-05, 9.15E-05
DataValue, 9.2500000000000012E-05, 5.481225799E-06, -0.00065629603341200006, 9.2500000000000012E-05, 9.2500000000000012E-05
DataValue, 9.3500000000000009E-05, 5.3751809900000005E-06, -0.00062812981195700006, 9.3500000000000009E-05, 9.3500000000000009E-05
DataValue, 9.45E-05, 5.442202109E-06, -0.000716149341315, 9.45E-05, 9.45E-05
DataValue, 9.55E-05, 5.4845977500000005E-06, -0.00037815442192400004, 9.55E-05, 9.55E-05
DataValue, 9.65E-05, 5.2541281550000008E-06, -0.00032886350527400003, 9.65E-05, 9.65E-05
DataValue, 9.7500000000000012E-05, 5.5720315690000007E-06, -0.000529547978658, 9.7500000000000012E-05, 9.7500000000000012E-05
DataValue, 9.8500000000000009E-05, 5.4855581770000007E-06, -0.00065629603341200006, 9.8500000000000009E-05, 9.8500000000000009E-05
DataValue, 9.95E-05, 5.5032787710000005E-06, -0.000599963590503, 9.95E-05, 9.95E-05
DataValue, 0.0001005, 3.99110877E-06, 0.0015723577234890002, 0.0001005, 0.0001005
DataValue, 0.0001015, -5.287890417E-06, 0.0059557291679080008, 0.0001015, 0.0001015
DataValue, 0.00010250000000000001, -1.1442869436000002E-05, 0.010046875104308, 0.00010250000000000001, 0.00010250000000000001
DataValue, 0.00010350000000000001, -1.1442869436000002E-05, 0.014419684186578002, 0.00010350000000000001, 0.00010350000000000001
DataValue, 0.0001045, -1.1442869436000002E-05, 0.018662223592401002, 0.0001045, 0.0001045
DataValue, 0.0001055, -1.1442869436000002E-05, 0.022992784157395002, 0.0001055, 0.0001055
DataValue, 0.0001065, -1.1442869436000002E-05, 0.027101533487439003, 0.0001065, 0.0001065
DataValue, 0.00010750000000000001, -1.1442869436000002E-05, 0.031182117760181004, 0.00010750000000000001, 0.00010750000000000001
DataValue, 0.00010850000000000001, -1.1442869436000002E-05, 0.035544365644455005, 0.00010850000000000001, 0.00010850000000000001
DataValue, 0.0001095, -1.1442869436000002E-05, 0.039681281894445, 0.0001095, 0.0001095
DataValue, 0.0001105, -1.1442869436000002E-05, 0.044613894075155, 0.0001105, 0.0001105
DataValue, 0.00011150000000000001, -1.1442869436000002E-05, 0.049303572624922007, 0.00011150000000000001, 0.00011150000000000001
DataValue, 0.00011250000000000001, -1.1442869436000002E-05, 0.053965087980032, 0.00011250000000000001, 0.00011250000000000001
DataValue, 0.00011350000000000001, -1.1442869436000002E-05, 0.059482149779797, 0.00011350000000000001, 0.00011350000000000001
DataValue, 0.0001145, -1.1442869436000002E-05, 0.064245767891407, 0.0001145, 0.0001145
DataValue, 0.0001155, -1.1442869436000002E-05, 0.068886153399944, 0.0001155, 0.0001155
DataValue, 0.00011650000000000001, -1.1442869436000002E-05, 0.073850452899933, 0.00011650000000000001, 0.00011650000000000001
DataValue, 0.00011750000000000001, -1.1442869436000002E-05, 0.078860521316528, 0.00011750000000000001, 0.00011750000000000001
DataValue, 0.00011850000000000001, -1.1442869436000002E-05, 0.083870589733124, 0.00011850000000000001, 0.00011850000000000001
DataValue, 0.0001195, -1.1442869436000002E-05, 0.089148245751858007, 0.0001195, 0.0001195
DataValue, 0.0001205, -1.1442869436000002E-05, 0.093964666128159013, 0.0001205, 0.0001205
DataValue, 0.00012150000000000001, -1.1442869436000002E-05, 0.099193029105663008, 0.00012150000000000001, 0.00012150000000000001
DataValue, 0.0001225, -1.1442869436000002E-05, 0.10396720468998001, 0.0001225, 0.0001225
DataValue, 0.00012350000000000002, -1.1442869436000002E-05, 0.10886461287736901, 0.00012350000000000002, 0.00012350000000000002
DataValue, 0.00012450000000000002, -1.1442869436000002E-05, 0.1141387373209, 0.00012450000000000002, 0.00012450000000000002
DataValue, 0.00012550000000000002, -1.1442869436000002E-05, 0.118712231516838, 0.00012550000000000002, 0.00012550000000000002
DataValue, 0.0001265, -1.1442869436000002E-05, 0.12394763529300701, 0.0001265, 0.0001265
DataValue, 0.0001275, -1.1442869436000002E-05, 0.128943622112274, 0.0001275, 0.0001275
DataValue, 0.0001285, -1.1442869436000002E-05, 0.13399946689605702, 0.0001285, 0.0001285
DataValue, 0.0001295, -1.1442869436000002E-05, 0.139410898089409, 0.0001295, 0.0001295
DataValue, 0.0001305, -1.1442869436000002E-05, 0.144280135631561, 0.0001305, 0.0001305
DataValue, 0.0001315, -1.1442869436000002E-05, 0.149406388401985, 0.0001315, 0.0001315
DataValue, 0.0001325, -1.1442869436000002E-05, 0.154486879706383, 0.0001325, 0.0001325
DataValue, 0.00013350000000000002, -1.1442869436000002E-05, 0.159475818276405, 0.00013350000000000002, 0.00013350000000000002
DataValue, 0.00013450000000000002, -1.1442869436000002E-05, 0.164172545075417, 0.00013450000000000002, 0.00013450000000000002
DataValue, 0.00013550000000000001, -1.1442869436000002E-05, 0.16934809088707, 0.00013550000000000001, 0.00013550000000000001
DataValue, 0.0001365, -1.1442869436000002E-05, 0.17438280582428, 0.0001365, 0.0001365
DataValue, 0.0001375, -1.1442869436000002E-05, 0.17906896770000502, 0.0001375, 0.0001375
DataValue, 0.0001385, -1.1442869436000002E-05, 0.184272676706314, 0.0001385, 0.0001385
DataValue, 0.0001395, -1.1442869436000002E-05, 0.189574971795082, 0.0001395, 0.0001395
DataValue, 0.0001405, -1.1442869436000002E-05, 0.19514836370945002, 0.0001405, 0.0001405
DataValue, 0.0001415, -1.1442869436000002E-05, 0.200239419937134, 0.0001415, 0.0001415
DataValue, 0.00014250000000000002, -1.1442869436000002E-05, 0.20529526472091703, 0.00014250000000000002, 0.00014250000000000002
DataValue, 0.00014350000000000002, -1.1442869436000002E-05, 0.210460245609283, 0.00014350000000000002, 0.00014350000000000002
DataValue, 0.00014450000000000002, -1.1442869436000002E-05, 0.21528370678424802, 0.00014450000000000002, 0.00014450000000000002
DataValue, 0.0001455, -1.1442869436000002E-05, 0.22034659981727603, 0.0001455, 0.0001455
DataValue, 0.0001465, -1.1442869436000002E-05, 0.22531089186668402, 0.0001465, 0.0001465
DataValue, 0.0001475, -1.1442869436000002E-05, 0.23016956448555, 0.0001475, 0.0001475
DataValue, 0.0001485, -1.1442869436000002E-05, 0.23527821898460402, 0.0001485, 0.0001485
DataValue, 0.0001495, -1.1442869436000002E-05, 0.24053826928138702, 0.0001495, 0.0001495
DataValue, 0.0001505, -1.1442869436000002E-05, 0.24544271826744102, 0.0001505, 0.0001505
DataValue, 0.0001515, -1.1442869436000002E-05, 0.250146478414536, 0.0001515, 0.0001515
DataValue, 0.00015250000000000002, -1.1442869436000002E-05, 0.25542411208152804, 0.00015250000000000002, 0.00015250000000000002
DataValue, 0.00015350000000000002, -1.1442869436000002E-05, 0.260465890169144, 0.00015350000000000002, 0.00015350000000000002
DataValue, 0.00015450000000000002, -1.1442869436000002E-05, 0.265497088432312, 0.00015450000000000002, 0.00015450000000000002
DataValue, 0.0001555, -1.1442869436000002E-05, 0.27035576105117803, 0.0001555, 0.0001555
DataValue, 0.0001565, -1.1442869436000002E-05, 0.27527427673339805, 0.0001565, 0.0001565
DataValue, 0.0001575, -1.1442869436000002E-05, 0.280308991670608, 0.0001575, 0.0001575
DataValue, 0.0001585, -1.1442869436000002E-05, 0.28475221991539, 0.0001585, 0.0001585
DataValue, 0.0001595, -1.1442869436000002E-05, 0.289586246013641, 0.0001595, 0.0001595
DataValue, 0.0001605, -1.1442869436000002E-05, 0.29461041092872603, 0.0001605, 0.0001605
DataValue, 0.00016150000000000002, -1.1442869436000002E-05, 0.299585282802582, 0.00016150000000000002, 0.00016150000000000002
DataValue, 0.00016250000000000002, -1.1442869436000002E-05, 0.30448970198631303, 0.00016250000000000002, 0.00016250000000000002
DataValue, 0.00016350000000000002, -1.1442869436000002E-05, 0.309503316879272, 0.00016350000000000002, 0.00016350000000000002
DataValue, 0.00016450000000000001, -1.1442869436000002E-05, 0.31435495615005504, 0.00016450000000000001, 0.00016450000000000001
DataValue, 0.0001655, -1.1442869436000002E-05, 0.31940725445747403, 0.0001655, 0.0001655
DataValue, 0.0001665, -1.1442869436000002E-05, 0.32435396313667303, 0.0001665, 0.0001665
DataValue, 0.0001675, -1.1442869436000002E-05, 0.32911053299903903, 0.0001675, 0.0001675
DataValue, 0.0001685, -1.1442869436000002E-05, 0.334124118089676, 0.0001685, 0.0001685
DataValue, 0.0001695, -1.1442869436000002E-05, 0.339049696922302, 0.0001695, 0.0001695
DataValue, 0.0001705, -1.1442869436000002E-05, 0.34390133619308505, 0.0001705, 0.0001705
DataValue, 0.00017150000000000002, -1.1442869436000002E-05, 0.34890788793563804, 0.00017150000000000002, 0.00017150000000000002
DataValue, 0.00017250000000000002, -1.1442869436000002E-05, 0.35418200492858903, 0.00017250000000000002, 0.00017250000000000002
DataValue, 0.00017350000000000002, -1.1442869436000002E-05, 0.35925191640853904, 0.00017350000000000002, 0.00017350000000000002
DataValue, 0.0001745, -1.1442869436000002E-05, 0.364128202199936, 0.0001745, 0.0001745
DataValue, 0.0001755, -1.1442869436000002E-05, 0.36919814348220803, 0.0001755, 0.0001755
DataValue, 0.0001765, -1.1442869436000002E-05, 0.374095529317856, 0.0001765, 0.0001765
DataValue, 0.0001775, -1.1442869436000002E-05, 0.37866902351379406, 0.0001775, 0.0001775
DataValue, 0.0001785, -1.1442869436000002E-05, 0.383999496698379, 0.0001785, 0.0001785
DataValue, 0.0001795, -1.1442869436000002E-05, 0.38923841714859003, 0.0001795, 0.0001795
DataValue, 0.00018050000000000002, -1.1442869436000002E-05, 0.39395272731781, 0.00018050000000000002, 0.00018050000000000002
DataValue, 0.00018150000000000002, -1.1442869436000002E-05, 0.39927265048027005, 0.00018150000000000002, 0.00018150000000000002
