
SetupTitle, FE PUND 2V - reverse
ApplicationTest, WGFMU Pattern Editor, Public
TestParameter, Name, ExecutionMode, Enable1, Channel1, OperationMode1, VForceRange1, InitMeasRange1, Enable2, Channel2, OperationMode2, VForceRange2, InitMeasRange2, RepeatCount, WaveformCh1, WaveformCh2, MeasurementEvent, Output_to_File_for_PatternValidation, Output_Enable, Output_Filename, DataDisplay_for_RunVector, DataDisplay_PatternValidation, DataDisplay_Mode, LogToFile, LogFile, WarningLevel, IForceRange1, IForceRange2, Result_Update_Interval_s
TestParameter, Value, Run Vector, Enable, WGFMU1:RS	RSWGFMU, Fast IV Imeas, Auto, 10uA (Imeas), Enable, WGFMU2:RS	RSWGFMU, PG Vmeas, Auto, 5V (Vmeas), 1, , Disable, C:\WGFMUPatternEditor_Pattern.csv, , Disable, x(time)_y(meas), Disable, C:\WGFMUPatternEditor_Log.log, 2, 10mA, 10mA, 10
MetaData, TestRecord.EntryPoint, true
MetaData, TestRecord.RecordTime, 06/10/2021 11:03:53
MetaData, TestRecord.TestTarget, HZO5nmW_1_25um_E12
MetaData, TestRecord.IterationIndex, 8
MetaData, TestRecord.Preservation, true
MetaData, TestRecord.Flag, 
MetaData, TestRecord.Remarks, 
MetaData, TestRecord.LinkKey, 7c78fa6e-537f-4137-9576-06a060780a27
MetaData, TestRecord.Parameters, 
Dimension1, 5000, 5000, 5000, 5000, 5000
Dimension2, 1, 1, 1, 1, 1
DataName, Time, MeasResult1_value, MeasResult2_value, MeasResult1_time, MeasResult2_time
DataValue, 5.0000000000000008E-07, 1.6226258000000002E-08, -0.0009520415915180001, 5.0000000000000008E-07, 5.0000000000000008E-07
DataValue, 1.5E-06, -9.044226E-09, -0.001135122147389, 1.5E-06, 1.5E-06
DataValue, 2.5E-06, -7.51581E-10, -0.0010928728152070002, 2.5E-06, 2.5E-06
DataValue, 3.5000000000000004E-06, 1.3906001000000001E-08, -0.000716149341315, 3.5000000000000004E-06, 3.5000000000000004E-06
DataValue, 4.5E-06, -1.2640275000000001E-08, -0.00090979220112800008, 4.5E-06, 4.5E-06
DataValue, 5.5000000000000007E-06, 1.4060217000000001E-08, -0.00073727400740600008, 5.5000000000000007E-06, 5.5000000000000007E-06
DataValue, 6.5000000000000004E-06, -5.3311386000000004E-08, -0.000740794755984, 6.5000000000000004E-06, 6.5000000000000004E-06
DataValue, 7.5E-06, 4.4398817000000004E-08, -0.00090979220112800008, 7.5E-06, 7.5E-06
DataValue, 8.5E-06, -1.8605652000000003E-08, -0.00080416881246500008, 8.5E-06, 8.5E-06
DataValue, 9.5E-06, 3.117852E-09, -0.00083233503392000007, 9.5E-06, 9.5E-06
DataValue, 1.0500000000000001E-05, -8.357261E-09, -0.000835855840705, 1.0500000000000001E-05, 1.0500000000000001E-05
DataValue, 1.15E-05, 1.9555934000000002E-08, -0.000652775284834, 1.15E-05, 1.15E-05
DataValue, 1.25E-05, -6.46434E-10, -0.000941479229368, 1.25E-05, 1.25E-05
DataValue, 1.3500000000000001E-05, -1.8647711E-08, -0.00076544022886100007, 1.3500000000000001E-05, 1.3500000000000001E-05
DataValue, 1.45E-05, 2.0768637000000002E-08, -0.00085345975821800009, 1.45E-05, 1.45E-05
DataValue, 1.55E-05, -1.6846181000000002E-08, -0.0007548778667110001, 1.55E-05, 1.55E-05
DataValue, 1.65E-05, 1.6352436E-08, -0.00074431556277, 1.65E-05, 1.65E-05
DataValue, 1.7500000000000002E-05, -2.5951968000000003E-08, -0.000501381698996, 1.7500000000000002E-05, 1.7500000000000002E-05
DataValue, 1.8500000000000002E-05, 3.1024037E-08, -0.001040061120875, 1.8500000000000002E-05, 1.8500000000000002E-05
DataValue, 1.95E-05, 5.389041E-09, -0.00051546486793100006, 1.95E-05, 1.95E-05
DataValue, 2.05E-05, -3.4153484000000004E-08, -0.00052602717187300008, 2.05E-05, 2.05E-05
DataValue, 2.15E-05, 2.8507504000000004E-08, -0.00016690761549400003, 2.15E-05, 2.15E-05
DataValue, 2.25E-05, -1.1700956000000001E-08, -0.000300697254715, 2.25E-05, 2.25E-05
DataValue, 2.3500000000000002E-05, -8.5646E-11, -0.00053306872723600008, 2.3500000000000002E-05, 2.3500000000000002E-05
DataValue, 2.4500000000000003E-05, 3.4122650000000003E-09, -0.00064925447804900006, 2.4500000000000003E-05, 2.4500000000000003E-05
DataValue, 2.5500000000000003E-05, -2.1465400000000003E-09, -0.000599963590503, 2.5500000000000003E-05, 2.5500000000000003E-05
DataValue, 2.65E-05, -1.0334037E-08, -0.000652775284834, 2.65E-05, 2.65E-05
DataValue, 2.75E-05, -5.6023930000000007E-09, -0.000388716754969, 2.75E-05, 2.75E-05
DataValue, 2.85E-05, 7.0083150000000009E-09, -0.00065629603341200006, 2.85E-05, 2.85E-05
DataValue, 2.9500000000000002E-05, -5.104694E-09, -0.00044152844930100006, 2.9500000000000002E-05, 2.9500000000000002E-05
DataValue, 3.0500000000000003E-05, 1.8490438000000003E-08, -0.000797127257101, 3.0500000000000003E-05, 3.0500000000000003E-05
DataValue, 3.15E-05, -3.7237815E-08, -0.00055419345153500006, 3.15E-05, 3.15E-05
DataValue, 3.2500000000000004E-05, 1.6177189E-08, -0.000518985616509, 3.2500000000000004E-05, 3.2500000000000004E-05
DataValue, 3.35E-05, 1.2300746E-08, -0.00069854542380200007, 3.35E-05, 3.35E-05
DataValue, 3.4500000000000005E-05, -1.0390115000000001E-08, -0.000518985616509, 3.4500000000000005E-05, 3.4500000000000005E-05
DataValue, 3.55E-05, 8.6696470000000008E-09, -0.000705586979166, 3.55E-05, 3.55E-05
DataValue, 3.65E-05, 3.3521E-11, -0.000723190896679, 3.65E-05, 3.65E-05
DataValue, 3.7500000000000003E-05, 5.4170810000000008E-09, -0.00056475575547700009, 3.7500000000000003E-05, 3.7500000000000003E-05
DataValue, 3.85E-05, -7.684316000000001E-09, -0.000490819395054, 3.85E-05, 3.85E-05
DataValue, 3.9500000000000005E-05, -2.1192283000000003E-08, -0.000276051810943, 3.9500000000000005E-05, 3.9500000000000005E-05
DataValue, 4.05E-05, 2.5163809E-08, -0.00044857003376800003, 4.05E-05, 4.05E-05
DataValue, 4.1500000000000006E-05, -2.5489317000000003E-08, -0.000547151837964, 4.1500000000000006E-05, 4.1500000000000006E-05
DataValue, 4.25E-05, -8.953098E-09, -0.000501381698996, 4.25E-05, 4.25E-05
DataValue, 4.35E-05, 2.2696343E-08, -0.00047321547754100004, 4.35E-05, 4.35E-05
DataValue, 4.4500000000000004E-05, 2.0446183000000002E-08, -0.000195073851501, 4.4500000000000004E-05, 4.4500000000000004E-05
DataValue, 4.55E-05, -2.7466093000000002E-08, -0.00033942583832000003, 4.55E-05, 4.55E-05
DataValue, 4.6500000000000005E-05, 1.59698E-10, -0.00043448689393700004, 4.6500000000000005E-05, 4.6500000000000005E-05
DataValue, 4.75E-05, 8.7397460000000009E-09, -0.000156345267897, 4.75E-05, 4.75E-05
DataValue, 4.85E-05, -1.7932706E-08, -0.00032182194991, 4.85E-05, 4.85E-05
DataValue, 4.9500000000000004E-05, 8.10886E-09, -0.00037815442192400004, 4.9500000000000004E-05, 4.9500000000000004E-05
DataValue, 5.05E-05, 7.9826830000000009E-09, -0.00035350894904700005, 5.05E-05, 5.05E-05
DataValue, 5.1500000000000005E-05, -1.6993388E-08, -0.0006140467012300001, 5.1500000000000005E-05, 5.1500000000000005E-05
DataValue, 5.25E-05, 1.7908620000000003E-08, -0.00046617392217700003, 5.25E-05, 5.25E-05
DataValue, 5.3500000000000006E-05, 2.7323110000000004E-09, -0.00043448689393700004, 5.3500000000000006E-05, 5.3500000000000006E-05
DataValue, 5.45E-05, 2.935596E-09, -0.00031478036544300004, 5.45E-05, 5.45E-05
DataValue, 5.55E-05, -4.508857E-09, -0.000195073851501, 5.55E-05, 5.55E-05
DataValue, 5.6500000000000005E-05, -2.8847031000000003E-08, -0.00010001279588300001, 5.6500000000000005E-05, 5.6500000000000005E-05
DataValue, 5.75E-05, 1.9626032E-08, -0.000349988171365, 5.75E-05, 5.75E-05
DataValue, 5.8500000000000006E-05, -1.1995369000000001E-08, -0.000469694699859, 5.8500000000000006E-05, 5.8500000000000006E-05
DataValue, 5.95E-05, 1.6618809E-08, -0.000364071311196, 5.95E-05, 5.95E-05
DataValue, 6.0500000000000007E-05, -1.8619671E-08, -0.000135220587254, 6.0500000000000007E-05, 6.0500000000000007E-05
DataValue, 6.15E-05, 1.4326591000000002E-08, -0.00023732321278700002, 6.15E-05, 6.15E-05
DataValue, 6.25E-05, -2.267136E-08, -0.00015282449021500002, 6.25E-05, 6.25E-05
DataValue, 6.35E-05, 1.3548498000000002E-08, -0.00014226215716900002, 6.35E-05, 6.35E-05
DataValue, 6.4500000000000009E-05, -2.188599E-09, -0.000332384282956, 6.4500000000000009E-05, 6.4500000000000009E-05
DataValue, 6.55E-05, -4.99227E-10, -0.000599963590503, 6.55E-05, 6.55E-05
DataValue, 6.65E-05, 1.0330981E-08, -0.00030773881007900003, 6.65E-05, 6.65E-05
DataValue, 6.75E-05, -3.6950411000000005E-08, -0.00029013492167000003, 6.75E-05, 6.75E-05
DataValue, 6.85E-05, 3.3849005000000006E-08, -0.00019859462918200003, 6.85E-05, 6.85E-05
DataValue, 6.9500000000000009E-05, 6.5877240000000005E-09, -0.000311259587761, 6.9500000000000009E-05, 6.9500000000000009E-05
DataValue, 7.05E-05, -1.4112342E-08, -0.00044857003376800003, 7.05E-05, 7.05E-05
DataValue, 7.15E-05, 3.2580490000000004E-09, -0.00029013492167000003, 7.15E-05, 7.15E-05
DataValue, 7.25E-05, -1.1175218E-08, -0.00030773881007900003, 7.25E-05, 7.25E-05
DataValue, 7.3500000000000011E-05, -5.336019E-09, -0.00058940122835300006, 7.3500000000000011E-05, 7.3500000000000011E-05
DataValue, 7.4500000000000008E-05, 7.877535E-09, -0.00078656489495200011, 7.4500000000000008E-05, 7.4500000000000008E-05
DataValue, 7.55E-05, 1.8217055E-08, -0.00049434014363200008, 7.55E-05, 7.55E-05
DataValue, 7.65E-05, -3.2506168E-08, -0.00058235967299000006, 7.65E-05, 7.65E-05
DataValue, 7.75E-05, 1.0113675000000001E-08, -0.00072671164525700007, 7.75E-05, 7.75E-05
DataValue, 7.8500000000000011E-05, 3.566482E-09, -0.00058235967299000006, 7.8500000000000011E-05, 7.8500000000000011E-05
DataValue, 7.9500000000000008E-05, -9.7171700000000015E-09, -0.000557714200113, 7.9500000000000008E-05, 7.9500000000000008E-05
DataValue, 8.05E-05, 3.8405403000000005E-08, -0.000522506423295, 8.05E-05, 8.05E-05
DataValue, 8.15E-05, -6.116941600000001E-08, -0.00055067264474900005, 8.15E-05, 8.15E-05
DataValue, 8.25E-05, 1.5742579000000002E-08, -0.000508423312567, 8.25E-05, 8.25E-05
DataValue, 8.350000000000001E-05, 2.78138E-09, -0.0004027998948, 8.350000000000001E-05, 8.350000000000001E-05
DataValue, 8.4500000000000008E-05, 1.2475993000000001E-08, -0.000945000036154, 8.4500000000000008E-05, 8.4500000000000008E-05
DataValue, 8.55E-05, -9.8854070000000012E-09, -0.000599963590503, 8.55E-05, 8.55E-05
DataValue, 8.65E-05, -5.581363E-09, -0.00071967008989300011, 8.65E-05, 8.65E-05
DataValue, 8.75E-05, 9.644016E-09, -0.000568276562262, 8.75E-05, 8.75E-05
DataValue, 8.850000000000001E-05, 4.2043780000000005E-09, -0.000438007671619, 8.850000000000001E-05, 8.850000000000001E-05
DataValue, 8.9500000000000007E-05, -2.3933133000000003E-08, -0.000364071311196, 8.9500000000000007E-05, 8.9500000000000007E-05
DataValue, 9.05E-05, -4.5368970000000006E-09, -0.00044857003376800003, 9.05E-05, 9.05E-05
DataValue, 9.15E-05, 1.3709725000000002E-08, -0.000364071311196, 9.15E-05, 9.15E-05
DataValue, 9.2500000000000012E-05, -2.4823382000000003E-08, -0.000624609005172, 9.2500000000000012E-05, 9.2500000000000012E-05
DataValue, 9.3500000000000009E-05, 3.4788322000000004E-08, -0.00093443767400500013, 9.3500000000000009E-05, 9.3500000000000009E-05
DataValue, 9.45E-05, 1.6100081E-08, -0.00085345975821800009, 9.45E-05, 9.45E-05
DataValue, 9.55E-05, -2.6807168000000004E-08, -0.000730232452042, 9.55E-05, 9.55E-05
DataValue, 9.65E-05, -2.0245954E-08, -0.000677420757711, 9.65E-05, 9.65E-05
DataValue, 9.7500000000000012E-05, 1.1845106E-08, -0.000557714200113, 9.7500000000000012E-05, 9.7500000000000012E-05
DataValue, 9.8500000000000009E-05, 1.6058022E-08, -0.00064925447804900006, 9.8500000000000009E-05, 9.8500000000000009E-05
DataValue, 9.95E-05, -1.2044438000000001E-08, -0.00078656489495200011, 9.95E-05, 9.95E-05
DataValue, 0.0001005, -1.9501536E-07, 0.001547712250613, 0.0001005, 0.0001005
DataValue, 0.0001015, -3.28721114E-07, 0.0066281980834900006, 0.0001015, 0.0001015
DataValue, 0.00010250000000000001, -3.21514989E-07, 0.011599539779127002, 0.00010250000000000001, 0.00010250000000000001
DataValue, 0.00010350000000000001, -3.42165976E-07, 0.016581444069743, 0.00010350000000000001, 0.00010350000000000001
DataValue, 0.0001045, -3.3838767900000005E-07, 0.021739386022091002, 0.0001045, 0.0001045
DataValue, 0.0001055, -3.41303775E-07, 0.026752976700664004, 0.0001055, 0.0001055
DataValue, 0.0001065, -3.82115076E-07, 0.031579967588186, 0.0001065, 0.0001065
DataValue, 0.00010750000000000001, -3.3348078400000003E-07, 0.036663971841335005, 0.00010750000000000001, 0.00010750000000000001
DataValue, 0.00010850000000000001, -3.4747944300000003E-07, 0.041402943432331, 0.00010850000000000001, 0.00010850000000000001
DataValue, 0.0001095, -3.6163933700000003E-07, 0.04655384272337, 0.0001095, 0.0001095
DataValue, 0.0001105, -3.6609759500000004E-07, 0.051585040986538, 0.0001105, 0.0001105
DataValue, 0.00011150000000000001, -3.6386146000000003E-07, 0.05643667280674, 0.00011150000000000001, 0.00011150000000000001
DataValue, 0.00011250000000000001, -3.8398670200000004E-07, 0.061598137021065008, 0.00011250000000000001, 0.00011250000000000001
DataValue, 0.00011350000000000001, -3.72981248E-07, 0.066379360854626007, 0.00011350000000000001, 0.00011350000000000001
DataValue, 0.0001145, -3.7066098500000004E-07, 0.071195781230927, 0.0001145, 0.0001145
DataValue, 0.0001155, -3.9218821300000005E-07, 0.07606502622366, 0.0001155, 0.0001155
DataValue, 0.00011650000000000001, -3.7359811200000004E-07, 0.081212401390076, 0.00011650000000000001, 0.00011650000000000001
DataValue, 0.00011750000000000001, -4.04455449E-07, 0.086303450167179011, 0.00011750000000000001, 0.00011750000000000001
DataValue, 0.00011850000000000001, -3.7773392600000004E-07, 0.091081149876118012, 0.00011850000000000001, 0.00011850000000000001
DataValue, 0.0001195, -3.7842087900000004E-07, 0.096172198653221, 0.0001195, 0.0001195
DataValue, 0.0001205, -3.9534265300000003E-07, 0.10136182606220201, 0.0001205, 0.0001205
DataValue, 0.00012150000000000001, -4.3290839400000003E-07, 0.106220506131649, 0.00012150000000000001, 0.00012150000000000001
DataValue, 0.0001225, -4.1260790300000006E-07, 0.11096651852130901, 0.0001225, 0.0001225
DataValue, 0.00012350000000000002, -3.8468769500000004E-07, 0.11601883918046901, 0.00012350000000000002, 0.00012350000000000002
DataValue, 0.00012450000000000002, -4.3474497600000004E-07, 0.12108171731233601, 0.00012450000000000002, 0.00012450000000000002
DataValue, 0.00012550000000000002, -4.1314064000000005E-07, 0.126042500138283, 0.00012550000000000002, 0.00012550000000000002
DataValue, 0.0001265, -4.39539718E-07, 0.131027922034264, 0.0001265, 0.0001265
DataValue, 0.0001275, -4.2573734000000004E-07, 0.13588307797908802, 0.0001275, 0.0001275
DataValue, 0.0001285, -4.3959579400000003E-07, 0.140843853354454, 0.0001285, 0.0001285
DataValue, 0.0001295, -4.53440236E-07, 0.14586800336837802, 0.0001295, 0.0001295
DataValue, 0.0001305, -3.90891415E-07, 0.15053656697273202, 0.0001305, 0.0001305
DataValue, 0.0001315, -4.6790154300000004E-07, 0.15574379265308402, 0.0001315, 0.0001315
DataValue, 0.0001325, -4.4971801600000004E-07, 0.16119045019149803, 0.0001325, 0.0001325
DataValue, 0.00013350000000000002, -4.6901610100000004E-07, 0.16596461832523302, 0.00013350000000000002, 0.00013350000000000002
DataValue, 0.00013450000000000002, -4.30090438E-07, 0.17107327282428703, 0.00013450000000000002, 0.00013450000000000002
DataValue, 0.00013550000000000001, -4.60204717E-07, 0.176083341240883, 0.00013550000000000001, 0.00013550000000000001
DataValue, 0.0001365, -4.6584764800000005E-07, 0.181082859635353, 0.0001365, 0.0001365
DataValue, 0.0001375, -4.5948971200000006E-07, 0.18595561385154702, 0.0001375, 0.0001375
DataValue, 0.0001385, -4.6933155300000006E-07, 0.190786123275757, 0.0001385, 0.0001385
DataValue, 0.0001395, -4.7303274200000004E-07, 0.19575394690036801, 0.0001395, 0.0001395
DataValue, 0.0001405, -5.53204302E-07, 0.200929492712021, 0.0001405, 0.0001405
DataValue, 0.0001415, -4.46072875E-07, 0.20625995099544503, 0.0001415, 0.0001415
DataValue, 0.00014250000000000002, -5.01625891E-07, 0.211460143327713, 0.00014250000000000002, 0.00014250000000000002
DataValue, 0.00014350000000000002, -5.11888288E-07, 0.21647372841835003, 0.00014350000000000002, 0.00014350000000000002
DataValue, 0.00014450000000000002, -4.4159358500000006E-07, 0.221635192632675, 0.00014450000000000002, 0.00014450000000000002
DataValue, 0.0001455, -5.0365173400000008E-07, 0.226472750306129, 0.0001455, 0.0001455
DataValue, 0.0001465, -4.9680312500000006E-07, 0.23177152872085602, 0.0001465, 0.0001465
DataValue, 0.0001475, -5.0642762500000008E-07, 0.23680976033210702, 0.0001475, 0.0001475
DataValue, 0.0001485, -4.77939636E-07, 0.24164378643035903, 0.0001485, 0.0001485
DataValue, 0.0001495, -5.04387742E-07, 0.24654823541641202, 0.0001495, 0.0001495
DataValue, 0.0001505, -4.99880457E-07, 0.251435071229935, 0.0001505, 0.0001505
DataValue, 0.0001515, -4.94356698E-07, 0.25630784034729004, 0.0001515, 0.0001515
DataValue, 0.00015250000000000002, -5.33976333E-07, 0.26127564907074, 0.00015250000000000002, 0.00015250000000000002
DataValue, 0.00015350000000000002, -4.67852459E-07, 0.266444176435471, 0.00015350000000000002, 0.00015350000000000002
DataValue, 0.00015450000000000002, -5.37649498E-07, 0.27154576778411904, 0.00015450000000000002, 0.00015450000000000002
DataValue, 0.0001555, -4.90564332E-07, 0.276605129241943, 0.0001555, 0.0001555
DataValue, 0.0001565, -5.2941993500000007E-07, 0.281375795602798, 0.0001565, 0.0001565
DataValue, 0.0001575, -5.42983969E-07, 0.286678075790405, 0.0001575, 0.0001575
DataValue, 0.0001585, -4.8680709600000006E-07, 0.29124453663826, 0.0001585, 0.0001585
DataValue, 0.0001595, -5.47070726E-07, 0.296046882867813, 0.0001595, 0.0001595
DataValue, 0.0001605, -5.09610118E-07, 0.300986528396606, 0.0001605, 0.0001605
DataValue, 0.00016150000000000002, -5.49362937E-07, 0.306200802326202, 0.00016150000000000002, 0.00016150000000000002
DataValue, 0.00016250000000000002, -5.26503811E-07, 0.31104189157486, 0.00016250000000000002, 0.00016250000000000002
DataValue, 0.00016350000000000002, -5.3801397800000007E-07, 0.315805494785309, 0.00016350000000000002, 0.00016350000000000002
DataValue, 0.00016450000000000001, -5.45682781E-07, 0.32074162364006004, 0.00016450000000000001, 0.00016450000000000001
DataValue, 0.0001655, -5.2162499700000006E-07, 0.325716495513916, 0.0001655, 0.0001655
DataValue, 0.0001665, -5.4527618000000009E-07, 0.330976545810699, 0.0001665, 0.0001665
DataValue, 0.0001675, -5.3278466800000008E-07, 0.335800021886826, 0.0001675, 0.0001675
DataValue, 0.0001685, -5.76441948E-07, 0.340824156999588, 0.0001685, 0.0001685
DataValue, 0.0001695, -5.32630452E-07, 0.34590464830398604, 0.0001695, 0.0001695
DataValue, 0.0001705, -5.823372360000001E-07, 0.350879520177841, 0.0001705, 0.0001705
DataValue, 0.00017150000000000002, -5.51795324E-07, 0.35617125034332303, 0.00017150000000000002, 0.00017150000000000002
DataValue, 0.00017250000000000002, -5.4746323000000008E-07, 0.36097359657287603, 0.00017250000000000002, 0.00017250000000000002
DataValue, 0.00017350000000000002, -5.62120817E-07, 0.365888595581055, 0.00017350000000000002, 0.00017350000000000002
DataValue, 0.0001745, -5.5911363000000007E-07, 0.37105357646942105, 0.0001745, 0.0001745
DataValue, 0.0001755, -5.90517686E-07, 0.37626433372497603, 0.0001755, 0.0001755
DataValue, 0.0001765, -5.46257581E-07, 0.381140619516373, 0.0001765, 0.0001765
DataValue, 0.0001775, -5.7559373100000007E-07, 0.38615068793296803, 0.0001775, 0.0001775
DataValue, 0.0001785, -5.7702374100000009E-07, 0.391301602125168, 0.0001785, 0.0001785
DataValue, 0.0001795, -5.7370107200000009E-07, 0.396012395620346, 0.0001795, 0.0001795
DataValue, 0.00018050000000000002, -5.3792985E-07, 0.401110470294952, 0.00018050000000000002, 0.00018050000000000002
DataValue, 0.00018150000000000002, -6.59620753E-07, 0.40652897953987105, 0.00018150000000000002, 0.00018150000000000002
DataValue, 0.00018250000000000002, -5.9063688700000009E-07, 0.41139820218086204, 0.00018250000000000002, 0.00018250000000000002
DataValue, 0.00018350000000000002, -5.58693046E-07, 0.41632378101348905, 0.00018350000000000002, 0.00018350000000000002
DataValue, 0.0001845, -5.90587831E-07, 0.42145356535911604, 0.0001845, 0.0001845
