
SetupTitle, FE PUND 1.5V - reverse
ApplicationTest, WGFMU Pattern Editor, Public
TestParameter, Name, ExecutionMode, Enable1, Channel1, OperationMode1, VForceRange1, InitMeasRange1, Enable2, Channel2, OperationMode2, VForceRange2, InitMeasRange2, RepeatCount, WaveformCh1, WaveformCh2, MeasurementEvent, Output_to_File_for_PatternValidation, Output_Enable, Output_Filename, DataDisplay_for_RunVector, DataDisplay_PatternValidation, DataDisplay_Mode, LogToFile, LogFile, WarningLevel, IForceRange1, IForceRange2, Result_Update_Interval_s
TestParameter, Value, Run Vector, Enable, WGFMU1:RS	RSWGFMU, Fast IV Imeas, Auto, 10uA (Imeas), Enable, WGFMU2:RS	RSWGFMU, PG Vmeas, Auto, 5V (Vmeas), 1, , Disable, C:\WGFMUPatternEditor_Pattern.csv, , Disable, x(time)_y(meas), Disable, C:\WGFMUPatternEditor_Log.log, 2, 10mA, 10mA, 10
MetaData, TestRecord.EntryPoint, true
MetaData, TestRecord.RecordTime, 06/10/2021 09:11:11
MetaData, TestRecord.TestTarget, HZO5nmTiN_1_25um_E11
MetaData, TestRecord.IterationIndex, 4
MetaData, TestRecord.Preservation, true
MetaData, TestRecord.Flag, 
MetaData, TestRecord.Remarks, 
MetaData, TestRecord.LinkKey, ef702103-2a02-49f5-a368-bb236b22fa4a
MetaData, TestRecord.Parameters, 
Dimension1, 5000, 5000, 5000, 5000, 5000
Dimension2, 1, 1, 1, 1, 1
DataName, Time, MeasResult1_value, MeasResult2_value, MeasResult1_time, MeasResult2_time
DataValue, 5.0000000000000008E-07, 2.63736808E-07, -0.00015282449021500002, 5.0000000000000008E-07, 5.0000000000000008E-07
DataValue, 1.5E-06, -1.7918687000000003E-08, -0.000409841450164, 1.5E-06, 1.5E-06
DataValue, 2.5E-06, -4.1738133000000006E-08, -0.00037463364424200006, 2.5E-06, 2.5E-06
DataValue, 3.5000000000000004E-06, 1.0479562500000001E-07, -0.000131699809572, 3.5000000000000004E-06, 3.5000000000000004E-06
DataValue, 4.5E-06, 2.8472455E-08, -0.000276051810943, 4.5E-06, 4.5E-06
DataValue, 5.5000000000000007E-06, 1.9153542000000002E-07, -0.000233802435105, 5.5000000000000007E-06, 5.5000000000000007E-06
DataValue, 6.5000000000000004E-06, -2.4211448100000004E-07, -0.000233802435105, 6.5000000000000004E-06, 6.5000000000000004E-06
DataValue, 7.5E-06, 3.2729505500000003E-07, -0.00031830117222900005, 7.5E-06, 7.5E-06
DataValue, 8.5E-06, -4.77610172E-07, -0.000311259587761, 8.5E-06, 8.5E-06
DataValue, 9.5E-06, -1.9005212000000002E-08, -0.00037111286656, 9.5E-06, 9.5E-06
DataValue, 1.0500000000000001E-05, 6.37873143E-07, -9.2971233244E-05, 1.0500000000000001E-05, 1.0500000000000001E-05
DataValue, 1.15E-05, -8.1635380400000006E-07, -0.000360550533514, 1.15E-05, 1.15E-05
DataValue, 1.25E-05, 3.9613169600000005E-07, 7.9546989582E-05, 1.25E-05, 1.25E-05
DataValue, 1.3500000000000001E-05, 1.46006485E-07, 0.00010419245518300001, 1.3500000000000001E-05, 1.3500000000000001E-05
DataValue, 1.45E-05, -3.4553043E-08, -0.00011409591388700001, 1.45E-05, 1.45E-05
DataValue, 1.55E-05, -1.6393372E-07, -0.00021619853214400003, 1.55E-05, 1.55E-05
DataValue, 1.65E-05, 1.8231047200000001E-07, -0.000205636199098, 1.65E-05, 1.65E-05
DataValue, 1.7500000000000002E-05, -1.09453218E-07, -7.184655260100001E-05, 1.7500000000000002E-05, 1.7500000000000002E-05
DataValue, 1.8500000000000002E-05, -5.5519486000000005E-08, -0.00016338683781200002, 1.8500000000000002E-05, 1.8500000000000002E-05
DataValue, 1.95E-05, 2.7554136800000003E-07, -2.6076409995000002E-05, 1.95E-05, 1.95E-05
DataValue, 2.05E-05, -3.39130736E-07, -0.000145782934851, 2.05E-05, 2.05E-05
DataValue, 2.15E-05, 1.46237809E-07, -0.00024084399046800001, 2.15E-05, 2.15E-05
DataValue, 2.25E-05, 4.3473516E-08, -0.00028661414398800005, 2.25E-05, 2.25E-05
DataValue, 2.3500000000000002E-05, 1.53072406E-07, -0.00040632067248200004, 2.3500000000000002E-05, 2.3500000000000002E-05
DataValue, 2.4500000000000003E-05, -2.4237385800000004E-07, -0.00016690761549400003, 2.4500000000000003E-05, 2.4500000000000003E-05
DataValue, 2.5500000000000003E-05, -7.420772600000001E-08, -0.000476736255223, 2.5500000000000003E-05, 2.5500000000000003E-05
DataValue, 2.65E-05, 2.33685611E-07, -0.000269010226475, 2.65E-05, 2.65E-05
DataValue, 2.75E-05, 9.8949414E-08, -0.00029013492167000003, 2.75E-05, 2.75E-05
DataValue, 2.85E-05, 1.0737551E-08, -0.000195073851501, 2.85E-05, 2.85E-05
DataValue, 2.9500000000000002E-05, -8.5837058E-08, -0.000269010226475, 2.9500000000000002E-05, 2.9500000000000002E-05
DataValue, 3.0500000000000003E-05, 7.4912663000000012E-08, -0.00048377781058700004, 3.0500000000000003E-05, 3.0500000000000003E-05
DataValue, 3.15E-05, -1.64985195E-07, -0.00030421803239700005, 3.15E-05, 3.15E-05
DataValue, 3.2500000000000004E-05, 1.1130102E-08, -0.00037463364424200006, 3.2500000000000004E-05, 3.2500000000000004E-05
DataValue, 3.35E-05, 1.49763764E-07, -0.00046265314449600006, 3.35E-05, 3.35E-05
DataValue, 3.4500000000000005E-05, -3.68824431E-07, -0.000205636199098, 3.4500000000000005E-05, 3.4500000000000005E-05
DataValue, 3.55E-05, 7.24038159E-07, -0.00019859462918200003, 3.55E-05, 3.55E-05
DataValue, 3.65E-05, -4.83533483E-07, -0.00043096611625500006, 3.65E-05, 3.65E-05
DataValue, 3.7500000000000003E-05, 2.3924440000000004E-07, -6.1284212279E-05, 3.7500000000000003E-05, 3.7500000000000003E-05
DataValue, 3.85E-05, -4.0041751000000005E-08, -0.000117616691568, 3.85E-05, 3.85E-05
DataValue, 3.9500000000000005E-05, -6.0321227E-08, -8.9450455562000008E-05, 3.9500000000000005E-05, 3.9500000000000005E-05
DataValue, 4.05E-05, -4.6392667E-08, -8.5929670604000007E-05, 4.05E-05, 4.05E-05
DataValue, 4.1500000000000006E-05, -1.87024142E-07, -0.000381675199606, 4.1500000000000006E-05, 4.1500000000000006E-05
DataValue, 4.25E-05, 3.93096457E-07, -5.4242649639000004E-05, 4.25E-05, 4.25E-05
DataValue, 4.35E-05, -2.67651359E-07, 0.000132358691189, 4.35E-05, 4.35E-05
DataValue, 4.4500000000000004E-05, -1.1024533100000002E-07, 1.9693730792E-05, 4.4500000000000004E-05, 4.4500000000000004E-05
DataValue, 4.55E-05, 3.1317722500000005E-07, -8.5929670604000007E-05, 4.55E-05, 4.55E-05
DataValue, 4.6500000000000005E-05, -1.9148940600000002E-07, -0.00016690761549400003, 4.6500000000000005E-05, 4.6500000000000005E-05
DataValue, 4.75E-05, 8.6990624E-08, -0.000349988171365, 4.75E-05, 4.75E-05
DataValue, 4.85E-05, 5.2887739E-08, -0.00019155307381900003, 4.85E-05, 4.85E-05
DataValue, 4.9500000000000004E-05, 1.0084908600000001E-07, -0.000135220587254, 4.9500000000000004E-05, 4.9500000000000004E-05
DataValue, 5.05E-05, -1.6091247800000002E-07, -5.4242649639000004E-05, 5.05E-05, 5.05E-05
DataValue, 5.1500000000000005E-05, 1.9541887800000002E-07, 0.000149962594151, 5.1500000000000005E-05, 5.1500000000000005E-05
DataValue, 5.25E-05, -9.6344813E-08, 0.000139400261105, 5.25E-05, 5.25E-05
DataValue, 5.3500000000000006E-05, -3.1059366300000003E-07, 0.000132358691189, 5.3500000000000006E-05, 5.3500000000000006E-05
DataValue, 5.45E-05, 2.9425064E-07, 0.00010419245518300001, 5.45E-05, 5.45E-05
DataValue, 5.55E-05, -8.9503203000000013E-08, 0.00016404571943, 5.55E-05, 5.55E-05
DataValue, 5.6500000000000005E-05, 1.41723476E-07, 7.6026211900000009E-05, 5.6500000000000005E-05, 5.6500000000000005E-05
DataValue, 5.75E-05, 1.2660324E-07, -0.00015282449021500002, 5.75E-05, 5.75E-05
DataValue, 5.8500000000000006E-05, -2.14425611E-07, 0.000202774303034, 5.8500000000000006E-05, 5.8500000000000006E-05
DataValue, 5.95E-05, -3.32744747E-07, -7.888811524E-05, 5.95E-05, 5.95E-05
DataValue, 6.0500000000000007E-05, 5.941597580000001E-07, -0.00021267775446200002, 6.0500000000000007E-05, 6.0500000000000007E-05
DataValue, 6.15E-05, 5.802622E-09, -0.000121137476526, 6.15E-05, 6.15E-05
DataValue, 6.25E-05, -2.4346738300000003E-07, -0.00027957258862400003, 6.25E-05, 6.25E-05
DataValue, 6.35E-05, 6.5281142E-08, 4.7859972256000004E-05, 6.35E-05, 6.35E-05
DataValue, 6.4500000000000009E-05, 2.54806253E-07, 0.00017812883015700003, 6.4500000000000009E-05, 6.4500000000000009E-05
DataValue, 6.55E-05, -1.55592005E-07, -0.000300697254715, 6.55E-05, 6.55E-05
DataValue, 6.65E-05, -5.4489039E-08, -0.00021619853214400003, 6.65E-05, 6.65E-05
DataValue, 6.75E-05, 2.2780462E-08, -0.00020211542141600002, 6.75E-05, 6.75E-05
DataValue, 6.85E-05, 1.2830663800000002E-07, -0.00010001279588300001, 6.85E-05, 6.85E-05
DataValue, 6.9500000000000009E-05, -1.66373141E-07, -0.000244364782702, 6.9500000000000009E-05, 6.9500000000000009E-05
DataValue, 7.05E-05, 2.7364870900000005E-07, -0.000332384282956, 7.05E-05, 7.05E-05
DataValue, 7.15E-05, -4.2915786E-08, -0.00017394917085800001, 7.15E-05, 7.15E-05
DataValue, 7.25E-05, 9.88936E-09, -0.000205636199098, 7.25E-05, 7.25E-05
DataValue, 7.3500000000000011E-05, -6.4618263E-08, -0.00012817903189000002, 7.3500000000000011E-05, 7.3500000000000011E-05
DataValue, 7.4500000000000008E-05, -1.1075705000000001E-07, 5.4901531257E-05, 7.4500000000000008E-05, 7.4500000000000008E-05
DataValue, 7.55E-05, -1.9547100300000003E-07, 1.6172951291E-05, 7.55E-05, 7.55E-05
DataValue, 7.65E-05, 2.14955307E-07, -7.184655260100001E-05, 7.65E-05, 7.65E-05
DataValue, 7.75E-05, -7.880591E-09, -0.000170428393176, 7.75E-05, 7.75E-05
DataValue, 7.8500000000000011E-05, -1.7887870700000002E-07, -0.00019155307381900003, 7.8500000000000011E-05, 7.8500000000000011E-05
DataValue, 7.9500000000000008E-05, 2.00669248E-07, -0.000254927115748, 7.9500000000000008E-05, 7.9500000000000008E-05
DataValue, 8.05E-05, 1.0501293000000001E-07, -0.00039223753265100005, 8.05E-05, 8.05E-05
DataValue, 8.15E-05, -2.8756630900000003E-07, -0.00023028165742300003, 8.15E-05, 8.15E-05
DataValue, 8.25E-05, 2.28400182E-07, -0.000409841450164, 8.25E-05, 8.25E-05
DataValue, 8.350000000000001E-05, 1.8245093000000002E-08, -0.000254927115748, 8.350000000000001E-05, 8.350000000000001E-05
DataValue, 8.4500000000000008E-05, -5.2055946800000008E-07, -0.00024084399046800001, 8.4500000000000008E-05, 8.4500000000000008E-05
DataValue, 8.55E-05, 7.37504024E-07, -0.00025844789343000004, 8.55E-05, 8.55E-05
DataValue, 8.65E-05, -2.81418693E-07, -0.00057179731084000009, 8.65E-05, 8.65E-05
DataValue, 8.75E-05, -2.0240374000000003E-07, -0.00061052589444400009, 8.75E-05, 8.75E-05
DataValue, 8.850000000000001E-05, 2.38739716E-07, -0.000409841450164, 8.850000000000001E-05, 8.850000000000001E-05
DataValue, 8.9500000000000007E-05, 3.08796075E-07, -0.00061052589444400009, 8.9500000000000007E-05, 8.9500000000000007E-05
DataValue, 9.05E-05, -3.80348609E-07, -0.000543631089386, 9.05E-05, 9.05E-05
DataValue, 9.15E-05, 1.05405483E-07, -0.000360550533514, 9.15E-05, 9.15E-05
DataValue, 9.2500000000000012E-05, 1.26953736E-07, -0.00056475575547700009, 9.2500000000000012E-05, 9.2500000000000012E-05
DataValue, 9.3500000000000009E-05, 6.2435142E-08, -0.000311259587761, 9.3500000000000009E-05, 9.3500000000000009E-05
DataValue, 9.45E-05, 1.8245766900000002E-07, -0.00024084399046800001, 9.45E-05, 9.45E-05
DataValue, 9.55E-05, -2.52306819E-07, -0.0004027998948, 9.55E-05, 9.55E-05
DataValue, 9.65E-05, -4.3427505E-08, -0.00041688300552800004, 9.65E-05, 9.65E-05
DataValue, 9.7500000000000012E-05, 3.4094349E-08, -0.000184511518455, 9.7500000000000012E-05, 9.7500000000000012E-05
DataValue, 9.8500000000000009E-05, 4.8471534E-08, -0.000205636199098, 9.8500000000000009E-05, 9.8500000000000009E-05
DataValue, 9.95E-05, 1.5020566E-08, -0.00033590506063800005, 9.95E-05, 9.95E-05
DataValue, 0.0001005, -5.8071066000000005E-08, 0.002107516396791, 0.0001005, 0.0001005
DataValue, 0.0001015, -2.46698932E-07, 0.00703660864383, 0.0001015, 0.0001015
DataValue, 0.00010250000000000001, -2.2243085600000002E-07, 0.011828389950097001, 0.00010250000000000001, 0.00010250000000000001
DataValue, 0.00010350000000000001, -1.58851577E-07, 0.017028583213687002, 0.00010350000000000001, 0.00010350000000000001
DataValue, 0.0001045, -1.70116394E-07, 0.022010486572981002, 0.0001045, 0.0001045
DataValue, 0.0001055, -3.6386146000000003E-07, 0.026918454095721002, 0.0001055, 0.0001055
DataValue, 0.0001065, -9.6758392E-08, 0.031893316656351, 0.0001065, 0.0001065
DataValue, 0.00010750000000000001, -5.1038819000000006E-07, 0.036928031593561006, 0.00010750000000000001, 0.00010750000000000001
DataValue, 0.00010850000000000001, -1.79046936E-07, 0.042195118963718005, 0.00010850000000000001, 0.00010850000000000001
DataValue, 0.0001095, -2.8891921E-07, 0.047205187380314005, 0.0001095, 0.0001095
DataValue, 0.0001105, 2.2289772000000003E-08, 0.052208218723536, 0.0001105, 0.0001105
DataValue, 0.00011150000000000001, -5.35995127E-07, 0.056936625391245006, 0.00011150000000000001, 0.00011150000000000001
DataValue, 0.00011250000000000001, 3.888935E-09, 0.061985421925783005, 0.00011250000000000001, 0.00011250000000000001
DataValue, 0.00011350000000000001, -4.0425916800000005E-07, 0.067072950303555, 0.00011350000000000001, 0.00011350000000000001
DataValue, 0.0001145, 8.8729330000000013E-09, 0.072209767997265, 0.0001145, 0.0001145
DataValue, 0.0001155, -2.56582808E-07, 0.076987467706203, 0.0001155, 0.0001155
DataValue, 0.00011650000000000001, -3.2708780400000003E-07, 0.082310885190964009, 0.00011650000000000001, 0.00011650000000000001
DataValue, 0.00011750000000000001, -3.6416287200000004E-07, 0.087173081934452, 0.00011750000000000001, 0.00011750000000000001
DataValue, 0.00011850000000000001, -1.39259072E-07, 0.091876849532127, 0.00011850000000000001, 0.00011850000000000001
DataValue, 0.0001195, -2.7485748400000005E-07, 0.097098164260387, 0.0001195, 0.0001195
DataValue, 0.0001205, -2.50168796E-07, 0.10179840773344001, 0.0001205, 0.0001205
DataValue, 0.00012150000000000001, -1.060041E-08, 0.10666412115097002, 0.00012150000000000001, 0.00012150000000000001
DataValue, 0.0001225, -3.25966226E-07, 0.111413657665253, 0.0001225, 0.0001225
DataValue, 0.00012350000000000002, -1.4240649200000002E-07, 0.11634274572134001, 0.00012350000000000002, 0.00012350000000000002
DataValue, 0.00012450000000000002, -4.12797164E-07, 0.12147956341505001, 0.00012450000000000002, 0.00012450000000000002
DataValue, 0.00012550000000000002, -2.1528082100000002E-07, 0.126626953482628, 0.00012550000000000002, 0.00012550000000000002
DataValue, 0.0001265, -5.05656544E-07, 0.131679266691208, 0.0001265, 0.0001265
DataValue, 0.0001275, -2.96398724E-07, 0.13676327466964702, 0.0001275, 0.0001275
DataValue, 0.0001285, 6.5743791E-08, 0.141604349017143, 0.0001285, 0.0001285
DataValue, 0.0001295, -7.23985124E-07, 0.14664258062839503, 0.0001295, 0.0001295
DataValue, 0.0001305, -5.9094504E-08, 0.151522383093834, 0.0001305, 0.0001305
DataValue, 0.0001315, -3.06976574E-07, 0.15644443035125702, 0.0001315, 0.0001315
DataValue, 0.0001325, -5.40649694E-07, 0.161405205726623, 0.0001325, 0.0001325
DataValue, 0.00013350000000000002, -2.54816342E-07, 0.166337832808495, 0.00013350000000000002, 0.00013350000000000002
DataValue, 0.00013450000000000002, -3.7496502600000004E-07, 0.171157777309418, 0.00013450000000000002, 0.00013450000000000002
DataValue, 0.00013550000000000001, 1.6610371700000002E-07, 0.17652344703674303, 0.00013550000000000001, 0.00013550000000000001
DataValue, 0.0001365, -8.902516130000001E-07, 0.18157224357128102, 0.0001365, 0.0001365
DataValue, 0.0001375, -9.2489394E-08, 0.18664920330047602, 0.0001375, 0.0001375
DataValue, 0.0001385, -5.51430844E-07, 0.191518440842628, 0.0001385, 0.0001385
DataValue, 0.0001395, -4.7360754300000005E-07, 0.196373596787453, 0.0001395, 0.0001395
DataValue, 0.0001405, -1.8310564100000002E-07, 0.202130079269409, 0.0001405, 0.0001405
DataValue, 0.0001415, -8.3842780900000007E-07, 0.20720000565052002, 0.0001415, 0.0001415
DataValue, 0.00014250000000000002, -2.0216539600000002E-07, 0.211984738707542, 0.00014250000000000002, 0.00014250000000000002
DataValue, 0.00014350000000000002, -1.6402484000000002E-07, 0.216818764805794, 0.00014350000000000002, 0.00014350000000000002
DataValue, 0.00014450000000000002, -4.0389466E-07, 0.22219148278236403, 0.00014450000000000002, 0.00014450000000000002
DataValue, 0.0001455, -6.2710910200000009E-07, 0.22710296511650102, 0.0001455, 0.0001455
DataValue, 0.0001465, -2.29538841E-07, 0.23200741410255402, 0.0001465, 0.0001465
DataValue, 0.0001475, -1.8082042200000002E-07, 0.237193524837494, 0.0001475, 0.0001475
DataValue, 0.0001485, -6.21830679E-07, 0.24184095859527602, 0.0001485, 0.0001485
DataValue, 0.0001495, -1.3770989E-07, 0.24712917208671603, 0.0001495, 0.0001495
DataValue, 0.0001505, -5.3383610100000007E-07, 0.251994878053665, 0.0001505, 0.0001505
DataValue, 0.0001515, -3.3000390000000003E-07, 0.25685003399848905, 0.0001515, 0.0001515
DataValue, 0.00015250000000000002, -3.7278496700000005E-07, 0.26197278499603305, 0.00015250000000000002, 0.00015250000000000002
DataValue, 0.00015350000000000002, -2.51080081E-07, 0.26694059371948203, 0.00015350000000000002, 0.00015350000000000002
DataValue, 0.00015450000000000002, -3.3157411400000004E-07, 0.27191898226738004, 0.00015450000000000002, 0.00015450000000000002
DataValue, 0.0001555, -2.8078778800000004E-07, 0.27701002359390303, 0.0001555, 0.0001555
DataValue, 0.0001565, -2.7898627800000004E-07, 0.28177011013031, 0.0001565, 0.0001565
DataValue, 0.0001575, -5.73574937E-07, 0.286892861127853, 0.0001575, 0.0001575
DataValue, 0.0001585, -3.24711465E-07, 0.29151564836502103, 0.0001585, 0.0001585
DataValue, 0.0001595, -6.2585434100000009E-07, 0.296508103609085, 0.0001595, 0.0001595
DataValue, 0.0001605, 2.6705974000000003E-08, 0.30147945880889904, 0.0001605, 0.0001605
DataValue, 0.00016150000000000002, -7.38453423E-07, 0.306278258562088, 0.00016150000000000002, 0.00016150000000000002
DataValue, 0.00016250000000000002, -3.5443321200000004E-07, 0.311323553323746, 0.00016250000000000002, 0.00016250000000000002
DataValue, 0.00016350000000000002, -4.2726549100000004E-07, 0.31613644957542403, 0.00016350000000000002, 0.00016350000000000002
DataValue, 0.00016450000000000001, -3.4288098E-07, 0.32110077142715404, 0.00016450000000000001, 0.00016450000000000001
DataValue, 0.0001655, -5.73666057E-07, 0.326251655817032, 0.0001655, 0.0001655
DataValue, 0.0001665, -2.7180118400000005E-07, 0.331455379724503, 0.0001665, 0.0001665
DataValue, 0.0001675, -6.56206964E-07, 0.33636686205864, 0.0001675, 0.0001675
DataValue, 0.0001685, -4.3088957100000005E-07, 0.34126427769660905, 0.0001685, 0.0001685
DataValue, 0.0001695, -5.97050871E-07, 0.34627786278724704, 0.0001695, 0.0001695
DataValue, 0.0001705, -3.19944775E-07, 0.351404100656509, 0.0001705, 0.0001705
DataValue, 0.00017150000000000002, -6.93534389E-07, 0.356266319751739, 0.00017150000000000002, 0.00017150000000000002
DataValue, 0.00017250000000000002, -1.1406542E-08, 0.36104401946067805, 0.00017250000000000002, 0.00017250000000000002
DataValue, 0.00017350000000000002, -9.57672228E-07, 0.366490662097931, 0.00017350000000000002, 0.00017350000000000002
DataValue, 0.0001745, -6.92076298E-07, 0.37164860963821406, 0.0001745, 0.0001745
DataValue, 0.0001755, -1.18397779E-07, 0.37628898024559004, 0.0001755, 0.0001755
DataValue, 0.0001765, -3.3309524400000004E-07, 0.381422281265259, 0.0001765, 0.0001765
DataValue, 0.0001775, -9.0602372900000009E-07, 0.386087328195572, 0.0001775, 0.0001775
DataValue, 0.0001785, -9.854590400000001E-08, 0.39138257503509505, 0.0001785, 0.0001785
DataValue, 0.0001795, -4.50482077E-07, 0.39670246839523304, 0.0001795, 0.0001795
DataValue, 0.00018050000000000002, -5.59737487E-07, 0.40134286880493203, 0.00018050000000000002, 0.00018050000000000002
DataValue, 0.00018150000000000002, -4.22877321E-07, 0.40678599476814303, 0.00018150000000000002, 0.00018150000000000002
DataValue, 0.00018250000000000002, -3.42327212E-07, 0.41195449233055104, 0.00018250000000000002, 0.00018250000000000002
DataValue, 0.00018350000000000002, -5.34684318E-07, 0.41647517681121804, 0.00018350000000000002, 0.00018350000000000002
DataValue, 0.0001845, -5.5038634600000008E-07, 0.421844363212585, 0.0001845, 0.0001845
DataValue, 0.0001855, 4.99649E-09, 0.426794588565826, 0.0001855, 0.0001855
DataValue, 0.0001865, -7.30623469E-07, 0.43172720074653603, 0.0001865, 0.0001865
