
SetupTitle, FE PUND 1V - reverse
ApplicationTest, WGFMU Pattern Editor, Public
TestParameter, Name, ExecutionMode, Enable1, Channel1, OperationMode1, VForceRange1, InitMeasRange1, Enable2, Channel2, OperationMode2, VForceRange2, InitMeasRange2, RepeatCount, WaveformCh1, WaveformCh2, MeasurementEvent, Output_to_File_for_PatternValidation, Output_Enable, Output_Filename, DataDisplay_for_RunVector, DataDisplay_PatternValidation, DataDisplay_Mode, LogToFile, LogFile, WarningLevel, IForceRange1, IForceRange2, Result_Update_Interval_s
TestParameter, Value, Run Vector, Enable, WGFMU1:RS	RSWGFMU, Fast IV Imeas, Auto, 10uA (Imeas), Enable, WGFMU2:RS	RSWGFMU, PG Vmeas, Auto, 5V (Vmeas), 1, , Disable, C:\WGFMUPatternEditor_Pattern.csv, , Disable, x(time)_y(meas), Disable, C:\WGFMUPatternEditor_Log.log, 2, 10mA, 10mA, 10
MetaData, TestRecord.EntryPoint, true
MetaData, TestRecord.RecordTime, 06/10/2021 09:23:22
MetaData, TestRecord.TestTarget, HZO5nmTiN_1_25um_D1
MetaData, TestRecord.IterationIndex, 2
MetaData, TestRecord.Preservation, true
MetaData, TestRecord.Flag, 
MetaData, TestRecord.Remarks, 
MetaData, TestRecord.LinkKey, 435af4fc-2a21-44d1-b02c-3922c8b5d087
MetaData, TestRecord.Parameters, 
Dimension1, 5000, 5000, 5000, 5000, 5000
Dimension2, 1, 1, 1, 1, 1
DataName, Time, MeasResult1_value, MeasResult2_value, MeasResult1_time, MeasResult2_time
DataValue, 5.0000000000000008E-07, -1.9835204100000002E-07, -0.000652775284834, 5.0000000000000008E-07, 5.0000000000000008E-07
DataValue, 1.5E-06, -1.5183472600000002E-07, -0.00048025703290500006, 1.5E-06, 1.5E-06
DataValue, 2.5E-06, 2.2128519100000002E-07, -0.00041688300552800004, 2.5E-06, 2.5E-06
DataValue, 3.5000000000000004E-06, -9.0414481E-08, -0.00035350894904700005, 3.5000000000000004E-06, 3.5000000000000004E-06
DataValue, 4.5E-06, 1.2532746000000002E-07, -0.000254927115748, 4.5E-06, 4.5E-06
DataValue, 5.5000000000000007E-06, -8.9419082000000008E-08, -0.00044857003376800003, 5.5000000000000007E-06, 5.5000000000000007E-06
DataValue, 6.5000000000000004E-06, 1.96147894E-07, -0.000261968671111, 6.5000000000000004E-06, 6.5000000000000004E-06
DataValue, 7.5E-06, -8.3075179000000009E-08, -0.00019859462918200003, 7.5E-06, 7.5E-06
DataValue, 8.5E-06, -1.49304171E-07, -0.000269010226475, 8.5E-06, 8.5E-06
DataValue, 9.5E-06, 2.1850229400000001E-07, -8.9450455562000008E-05, 9.5E-06, 9.5E-06
DataValue, 1.0500000000000001E-05, -2.9949706000000003E-07, 6.8984649261E-05, 1.0500000000000001E-05, 1.0500000000000001E-05
DataValue, 1.15E-05, 4.62486895E-07, 3.0256071113000003E-05, 1.15E-05, 1.15E-05
DataValue, 1.25E-05, -5.13241218E-07, -0.000195073851501, 1.25E-05, 1.25E-05
DataValue, 1.3500000000000001E-05, 2.3895000800000003E-07, -0.000205636199098, 1.3500000000000001E-05, 1.3500000000000001E-05
DataValue, 1.45E-05, -1.2726522400000001E-07, 0.00018164962239100002, 1.45E-05, 1.45E-05
DataValue, 1.55E-05, -6.2122758E-08, -0.00044152844930100006, 1.55E-05, 1.55E-05
DataValue, 1.65E-05, 1.7989907500000002E-07, -0.000269010226475, 1.65E-05, 1.65E-05
DataValue, 1.7500000000000002E-05, -1.55907443E-07, -4.0159531636E-05, 1.7500000000000002E-05, 1.7500000000000002E-05
DataValue, 1.8500000000000002E-05, 1.4205294E-07, -7.5367330282E-05, 1.8500000000000002E-05, 1.8500000000000002E-05
DataValue, 1.95E-05, -3.2246806E-08, -0.00021619853214400003, 1.95E-05, 1.95E-05
DataValue, 2.05E-05, 5.6602953E-08, 5.610610515E-06, 2.05E-05, 2.05E-05
DataValue, 2.15E-05, -6.1281575E-08, -8.2408892922000013E-05, 2.15E-05, 2.15E-05
DataValue, 2.25E-05, -1.6264364000000003E-08, -7.184655260100001E-05, 2.25E-05, 2.25E-05
DataValue, 2.3500000000000002E-05, -1.2563167000000002E-08, -0.000170428393176, 2.3500000000000002E-05, 2.3500000000000002E-05
DataValue, 2.4500000000000003E-05, -2.6828197000000004E-08, -0.000349988171365, 2.4500000000000003E-05, 2.4500000000000003E-05
DataValue, 2.5500000000000003E-05, 1.3176249100000002E-07, -0.000156345267897, 2.5500000000000003E-05, 2.5500000000000003E-05
DataValue, 2.65E-05, -8.904756000000001E-08, -0.000149303712533, 2.65E-05, 2.65E-05
DataValue, 2.75E-05, 1.4524943E-07, -0.000117616691568, 2.75E-05, 2.75E-05
DataValue, 2.85E-05, -1.66569421E-07, -0.00021971930982500002, 2.85E-05, 2.85E-05
DataValue, 2.9500000000000002E-05, 2.8290199E-08, -9.2971233244E-05, 2.9500000000000002E-05, 2.9500000000000002E-05
DataValue, 3.0500000000000003E-05, 1.4271887500000002E-07, -0.00019859462918200003, 3.0500000000000003E-05, 3.0500000000000003E-05
DataValue, 3.15E-05, -2.70861875E-07, -0.00040632067248200004, 3.15E-05, 3.15E-05
DataValue, 3.2500000000000004E-05, 1.39206946E-07, -0.000195073851501, 3.2500000000000004E-05, 3.2500000000000004E-05
DataValue, 3.35E-05, -3.4792105900000004E-07, -0.00017394917085800001, 3.35E-05, 3.35E-05
DataValue, 3.4500000000000005E-05, 2.7043822100000004E-07, -0.00028661414398800005, 3.4500000000000005E-05, 3.4500000000000005E-05
DataValue, 3.55E-05, -3.5151711600000003E-07, -0.00055067264474900005, 3.55E-05, 3.55E-05
DataValue, 3.65E-05, 7.0628220800000006E-07, -0.00041688300552800004, 3.65E-05, 3.65E-05
DataValue, 3.7500000000000003E-05, -5.1572971000000009E-07, -0.00031478036544300004, 3.7500000000000003E-05, 3.7500000000000003E-05
DataValue, 3.85E-05, 1.57797047E-07, -0.000409841450164, 3.85E-05, 3.85E-05
DataValue, 3.9500000000000005E-05, 3.57619626E-07, -0.00043448689393700004, 3.9500000000000005E-05, 3.9500000000000005E-05
DataValue, 4.05E-05, -4.13715441E-07, -0.000261968671111, 4.05E-05, 4.05E-05
DataValue, 4.1500000000000006E-05, 1.7830784300000002E-07, -0.000705586979166, 4.1500000000000006E-05, 4.1500000000000006E-05
DataValue, 4.25E-05, 1.8238083E-08, -0.000751357118133, 4.25E-05, 4.25E-05
DataValue, 4.35E-05, -1.8375755E-07, -0.000723190896679, 4.35E-05, 4.35E-05
DataValue, 4.4500000000000004E-05, 9.6510260000000015E-09, -0.000568276562262, 4.4500000000000004E-05, 4.4500000000000004E-05
DataValue, 4.55E-05, 7.8144204E-08, -0.00067037914414000009, 4.55E-05, 4.55E-05
DataValue, 4.6500000000000005E-05, 7.3027017E-08, -0.0006422129226850001, 4.6500000000000005E-05, 4.6500000000000005E-05
DataValue, 4.75E-05, -2.21975213E-07, -0.000596442783717, 4.75E-05, 4.75E-05
DataValue, 4.85E-05, 3.9708504600000005E-07, -0.00056475575547700009, 4.85E-05, 4.85E-05
DataValue, 4.9500000000000004E-05, -2.4416135600000003E-07, -0.000578838866204, 4.9500000000000004E-05, 4.9500000000000004E-05
DataValue, 5.05E-05, 7.9293812E-08, -0.00053306872723600008, 5.05E-05, 5.05E-05
DataValue, 5.1500000000000005E-05, 1.3632589500000002E-07, -0.00046265314449600006, 5.1500000000000005E-05, 5.1500000000000005E-05
DataValue, 5.25E-05, -1.7512142800000001E-07, -0.000490819395054, 5.25E-05, 5.25E-05
DataValue, 5.3500000000000006E-05, 2.9993590000000005E-08, -0.00030421803239700005, 5.3500000000000006E-05, 5.3500000000000006E-05
DataValue, 5.45E-05, -1.74062933E-07, -0.00045209081145, 5.45E-05, 5.45E-05
DataValue, 5.55E-05, 2.9237202200000005E-07, -0.000349988171365, 5.55E-05, 5.55E-05
DataValue, 5.6500000000000005E-05, -1.74273239E-07, -0.00058235967299000006, 5.6500000000000005E-05, 5.6500000000000005E-05
DataValue, 5.75E-05, -1.86267073E-07, -0.000638692174107, 5.75E-05, 5.75E-05
DataValue, 5.8500000000000006E-05, 2.44726124E-07, -0.00062812981195700006, 5.8500000000000006E-05, 5.8500000000000006E-05
DataValue, 5.95E-05, -1.5648926400000002E-07, -0.000923875311855, 5.95E-05, 5.95E-05
DataValue, 6.0500000000000007E-05, -1.50825315E-07, -0.000783044146374, 6.0500000000000007E-05, 6.0500000000000007E-05
DataValue, 6.15E-05, 5.86687293E-07, -0.000691503868438, 6.15E-05, 6.15E-05
DataValue, 6.25E-05, -4.0200902200000004E-07, -0.00040632067248200004, 6.25E-05, 6.25E-05
DataValue, 6.35E-05, 4.2807581000000004E-08, -0.00069854542380200007, 6.35E-05, 6.35E-05
DataValue, 6.4500000000000009E-05, 1.45670015E-07, -0.000849938951433, 6.4500000000000009E-05, 6.4500000000000009E-05
DataValue, 6.55E-05, -7.7074752000000007E-08, -0.000705586979166, 6.55E-05, 6.55E-05
DataValue, 6.65E-05, -1.15691975E-07, -0.000783044146374, 6.65E-05, 6.65E-05
DataValue, 6.75E-05, -4.6616982E-08, -0.00068798306165300006, 6.75E-05, 6.75E-05
DataValue, 6.85E-05, 7.7828759E-08, -0.00061756744980800006, 6.85E-05, 6.85E-05
DataValue, 6.9500000000000009E-05, 1.5061195300000001E-07, -0.000529547978658, 6.9500000000000009E-05, 6.9500000000000009E-05
DataValue, 7.05E-05, -8.0628745E-08, -0.00049434014363200008, 7.05E-05, 7.05E-05
DataValue, 7.15E-05, -8.266133E-09, -0.000772481784225, 7.15E-05, 7.15E-05
DataValue, 7.25E-05, -1.9096341E-08, -0.0006140467012300001, 7.25E-05, 7.25E-05
DataValue, 7.3500000000000011E-05, 2.97545284E-07, -0.000663337588776, 7.3500000000000011E-05, 7.3500000000000011E-05
DataValue, 7.4500000000000008E-05, -2.5430460900000004E-07, -0.0006422129226850001, 7.4500000000000008E-05, 7.4500000000000008E-05
DataValue, 7.55E-05, 3.559472E-09, -0.000768961035646, 7.55E-05, 7.55E-05
DataValue, 7.65E-05, 9.0698833000000013E-08, -0.00053306872723600008, 7.65E-05, 7.65E-05
DataValue, 7.75E-05, -3.5401236E-08, -0.00089922989718600006, 7.75E-05, 7.75E-05
DataValue, 7.8500000000000011E-05, -2.1354938400000002E-07, -0.00079008570173800011, 7.8500000000000011E-05, 7.8500000000000011E-05
DataValue, 7.9500000000000008E-05, 1.9287429600000003E-07, -0.00048025703290500006, 7.9500000000000008E-05, 7.9500000000000008E-05
DataValue, 8.05E-05, 1.0558773800000001E-07, -0.000596442783717, 8.05E-05, 8.05E-05
DataValue, 8.15E-05, -3.4293681000000003E-08, -0.00055067264474900005, 8.15E-05, 8.15E-05
DataValue, 8.25E-05, -1.2275764000000001E-08, -0.000631650560535, 8.25E-05, 8.25E-05
DataValue, 8.350000000000001E-05, 9.672028500000001E-08, -0.00061756744980800006, 8.350000000000001E-05, 8.350000000000001E-05
DataValue, 8.4500000000000008E-05, -1.7616589800000002E-07, -0.00061756744980800006, 8.4500000000000008E-05, 8.4500000000000008E-05
DataValue, 8.55E-05, -3.75168327E-07, -0.0004027998948, 8.55E-05, 8.55E-05
DataValue, 8.65E-05, 7.5868780400000005E-07, -0.00061052589444400009, 8.65E-05, 8.65E-05
DataValue, 8.75E-05, -5.16977423E-07, -0.000730232452042, 8.75E-05, 8.75E-05
DataValue, 8.850000000000001E-05, 1.0354786900000001E-07, -0.000476736255223, 8.850000000000001E-05, 8.850000000000001E-05
DataValue, 8.9500000000000007E-05, 7.4414963E-08, -0.000476736255223, 8.9500000000000007E-05, 8.9500000000000007E-05
DataValue, 9.05E-05, 2.1294640000000002E-09, -0.000364071311196, 9.05E-05, 9.05E-05
DataValue, 9.15E-05, -2.8433451000000002E-08, -0.00062108825659400006, 9.15E-05, 9.15E-05
DataValue, 9.2500000000000012E-05, 1.24913868E-07, -0.00061756744980800006, 9.2500000000000012E-05, 9.2500000000000012E-05
DataValue, 9.3500000000000009E-05, -5.1019164E-08, -0.0005753181176260001, 9.3500000000000009E-05, 9.3500000000000009E-05
DataValue, 9.45E-05, 1.1760989000000002E-08, -0.00042040378321, 9.45E-05, 9.45E-05
DataValue, 9.55E-05, -9.89916E-10, -0.000511944061145, 9.55E-05, 9.55E-05
DataValue, 9.65E-05, 1.56836705E-07, -0.00044857003376800003, 9.65E-05, 9.65E-05
DataValue, 9.7500000000000012E-05, -6.938495300000001E-08, -0.00036759208887800004, 9.7500000000000012E-05, 9.7500000000000012E-05
DataValue, 9.8500000000000009E-05, -1.30840249E-07, -0.00014226215716900002, 9.8500000000000009E-05, 9.8500000000000009E-05
DataValue, 9.95E-05, -9.320439900000001E-08, -0.000638692174107, 9.95E-05, 9.95E-05
DataValue, 0.0001005, -4.8467584E-08, 0.00040345877641800003, 0.0001005, 0.0001005
DataValue, 0.0001015, 2.9455907200000003E-07, 0.0031109387055040004, 0.0001015, 0.0001015
DataValue, 0.00010250000000000001, -3.18718065E-07, 0.005431132856756, 0.00010250000000000001, 0.00010250000000000001
DataValue, 0.00010350000000000001, -1.4198589300000002E-07, 0.008043551817536, 0.00010350000000000001, 0.00010350000000000001
DataValue, 0.0001045, 4.1882284E-08, 0.010796802118421002, 0.0001045, 0.0001045
DataValue, 0.0001055, 9.7105826000000013E-08, 0.013349367305636002, 0.0001055, 0.0001055
DataValue, 0.0001065, -2.61854211E-07, 0.015782225877047, 0.0001065, 0.0001065
DataValue, 0.00010750000000000001, -3.3596927600000003E-07, 0.018232690170407, 0.00010750000000000001, 0.00010750000000000001
DataValue, 0.00010850000000000001, 1.38029293E-07, 0.020735964179039, 0.00010850000000000001, 0.00010850000000000001
DataValue, 0.0001095, -2.03167801E-07, 0.023397672921419, 0.0001095, 0.0001095
DataValue, 0.0001105, -4.1310559600000004E-07, 0.025858698412776, 0.0001105, 0.0001105
DataValue, 0.00011150000000000001, 6.8206321700000008E-07, 0.028629552572966004, 0.00011150000000000001, 0.00011150000000000001
DataValue, 0.00011250000000000001, -6.4524357400000007E-07, 0.031094098463655004, 0.00011250000000000001, 0.00011250000000000001
DataValue, 0.00011350000000000001, -9.0078011000000008E-08, 0.033629059791565004, 0.00011350000000000001, 0.00011350000000000001
DataValue, 0.0001145, -6.536130600000001E-08, 0.035801380872726, 0.0001145, 0.0001145
DataValue, 0.0001155, -1.0864708600000001E-07, 0.037998348474503, 0.0001155, 0.0001155
DataValue, 0.00011650000000000001, -1.94026967E-07, 0.040593162178993, 0.00011650000000000001, 0.00011650000000000001
DataValue, 0.00011750000000000001, -1.1476667800000001E-07, 0.043237268924713, 0.00011750000000000001, 0.00011750000000000001
DataValue, 0.00011850000000000001, -1.5086736500000002E-07, 0.045606754720211, 0.00011850000000000001, 0.00011850000000000001
DataValue, 0.0001195, -1.69814967E-07, 0.048148758709431007, 0.0001195, 0.0001195
DataValue, 0.0001205, -1.1706590900000001E-07, 0.050687238574028, 0.0001205, 0.0001205
DataValue, 0.00012150000000000001, -1.9718140700000002E-07, 0.053222201764584004, 0.00012150000000000001, 0.00012150000000000001
DataValue, 0.0001225, -1.4698392200000002E-07, 0.055806454271078006, 0.0001225, 0.0001225
DataValue, 0.00012350000000000002, -2.7059523000000002E-08, 0.058193542063236008, 0.00012350000000000002, 0.00012350000000000002
DataValue, 0.00012450000000000002, -2.1485321600000001E-07, 0.061034813523293006, 0.00012450000000000002, 0.00012450000000000002
DataValue, 0.00012550000000000002, -6.7064697000000011E-08, 0.063252903521061, 0.00012550000000000002, 0.00012550000000000002
DataValue, 0.0001265, -2.6509275100000003E-07, 0.06574209779501, 0.0001265, 0.0001265
DataValue, 0.0001275, -6.7940924E-08, 0.068217203021049, 0.0001275, 0.0001275
DataValue, 0.0001285, -4.7307480600000006E-07, 0.070308551192284, 0.0001285, 0.0001285
DataValue, 0.0001295, 4.5128110000000006E-09, 0.072871677577496, 0.0001295, 0.0001295
DataValue, 0.0001305, 4.7756533E-08, 0.075603798031807, 0.0001305, 0.0001305
DataValue, 0.0001315, -2.5585379100000005E-07, 0.078071869909763, 0.0001315, 0.0001315
DataValue, 0.0001325, -3.2530030600000003E-07, 0.080377981066704, 0.0001325, 0.0001325
DataValue, 0.00013350000000000002, 7.657399700000001E-08, 0.082715779542923, 0.00013350000000000002, 0.00013350000000000002
DataValue, 0.00013450000000000002, -3.84218026E-07, 0.085345797240734, 0.00013450000000000002, 0.00013450000000000002
DataValue, 0.00013550000000000001, -4.502227E-07, 0.087549805641174011, 0.00013550000000000001, 0.00013550000000000001
DataValue, 0.0001365, 5.63015021E-07, 0.09015166759491, 0.0001365, 0.0001365
DataValue, 0.0001375, -6.0654218700000008E-07, 0.09249298274517101, 0.0001375, 0.0001375
DataValue, 0.0001385, -2.73273258E-07, 0.095094837248325, 0.0001385, 0.0001385
DataValue, 0.0001395, 1.63075455E-07, 0.097946673631668008, 0.0001395, 0.0001395
DataValue, 0.0001405, -2.1870863500000003E-07, 0.10015772283077201, 0.0001405, 0.0001405
DataValue, 0.0001415, -3.72280283E-07, 0.10253776609897601, 0.0001415, 0.0001415
DataValue, 0.00014250000000000002, -1.8042086900000003E-07, 0.10505160689353901, 0.00014250000000000002, 0.00014250000000000002
DataValue, 0.00014350000000000002, 3.7809563E-08, 0.107399962842464, 0.00014350000000000002, 0.00014350000000000002
DataValue, 0.00014450000000000002, -4.15965616E-07, 0.10992084443569201, 0.00014450000000000002, 0.00014450000000000002
DataValue, 0.0001455, -2.20874668E-07, 0.11212485283613201, 0.0001455, 0.0001455
DataValue, 0.0001465, 3.0365111E-08, 0.11473023146390901, 0.0001465, 0.0001465
DataValue, 0.0001475, -5.6702771200000008E-07, 0.11751516908407202, 0.0001475, 0.0001475
DataValue, 0.0001485, 1.60930441E-07, 0.11989521235227602, 0.0001485, 0.0001485
DataValue, 0.0001495, -5.44280795E-07, 0.12241256982088102, 0.0001495, 0.0001495
DataValue, 0.0001505, -2.1031785000000003E-07, 0.12500387430191, 0.0001505, 0.0001505
DataValue, 0.0001515, -1.9065524300000002E-07, 0.127605721354485, 0.0001515, 0.0001515
DataValue, 0.00015250000000000002, -9.8293548000000008E-08, 0.13011604547500602, 0.00015250000000000002, 0.00015250000000000002
DataValue, 0.00015350000000000002, -1.5535367500000002E-07, 0.132594674825668, 0.00015350000000000002, 0.00015350000000000002
DataValue, 0.00015450000000000002, -4.81451536E-07, 0.13501344621181502, 0.00015450000000000002, 0.00015450000000000002
DataValue, 0.0001555, 3.2622282E-08, 0.13725970685482, 0.0001555, 0.0001555
DataValue, 0.0001565, -4.2895484900000005E-07, 0.140069290995598, 0.0001565, 0.0001565
DataValue, 0.0001575, -1.2692174800000002E-07, 0.14230850338935802, 0.0001575, 0.0001575
DataValue, 0.0001585, -1.9357133900000002E-07, 0.145343407988548, 0.0001585, 0.0001585
DataValue, 0.0001595, -3.8025746100000005E-07, 0.147424191236496, 0.0001595, 0.0001595
DataValue, 0.0001605, -3.4304221700000003E-07, 0.150184482336044, 0.0001605, 0.0001605
DataValue, 0.00016150000000000002, 8.8028350000000015E-09, 0.152539893984795, 0.00016150000000000002, 0.00016150000000000002
DataValue, 0.00016250000000000002, -3.1712681900000004E-07, 0.154976263642311, 0.00016250000000000002, 0.00016250000000000002
DataValue, 0.00016350000000000002, -2.6385203000000003E-07, 0.157609805464745, 0.00016350000000000002, 0.00016350000000000002
DataValue, 0.00016450000000000001, -4.71161115E-07, 0.16009548306465102, 0.00016450000000000001, 0.00016450000000000001
DataValue, 0.0001655, -1.7672668700000002E-07, 0.162415683269501, 0.0001655, 0.0001655
DataValue, 0.0001665, -4.21818839E-07, 0.16498936712741802, 0.0001665, 0.0001665
DataValue, 0.0001675, -3.4300690000000004E-08, 0.16729547083377802, 0.0001675, 0.0001675
DataValue, 0.0001685, -3.26527015E-07, 0.169946625828743, 0.0001685, 0.0001685
DataValue, 0.0001695, -3.73920585E-07, 0.17274212837219202, 0.0001695, 0.0001695
DataValue, 0.0001705, -3.19867667E-07, 0.175439044833183, 0.0001705, 0.0001705
DataValue, 0.00017150000000000002, -1.43948654E-07, 0.17778740823268902, 0.00017150000000000002, 0.00017150000000000002
DataValue, 0.00017250000000000002, -3.8712011E-07, 0.18007591366767903, 0.00017250000000000002, 0.00017250000000000002
DataValue, 0.00017350000000000002, -6.1253537E-08, 0.182508766651154, 0.00017350000000000002, 0.00017350000000000002
DataValue, 0.0001745, -7.73523709E-07, 0.18548734486103102, 0.0001745, 0.0001745
DataValue, 0.0001755, -8.1547029000000008E-08, 0.18789203464984902, 0.0001755, 0.0001755
DataValue, 0.0001765, -3.5138393200000004E-07, 0.19025447964668302, 0.0001765, 0.0001765
DataValue, 0.0001775, -4.4933946700000005E-07, 0.19274719059467302, 0.0001775, 0.0001775
DataValue, 0.0001785, -2.7911946200000003E-07, 0.19528919458389302, 0.0001785, 0.0001785
DataValue, 0.0001795, -3.70030108E-07, 0.19762699306011203, 0.0001795, 0.0001795
DataValue, 0.00018050000000000002, -3.0389225E-07, 0.20050700008869202, 0.00018050000000000002, 0.00018050000000000002
DataValue, 0.00018150000000000002, -3.3988777700000004E-07, 0.20351022481918302, 0.00018150000000000002, 0.00018150000000000002
DataValue, 0.00018250000000000002, -4.8032296700000007E-07, 0.20572479069232902, 0.00018250000000000002, 0.00018250000000000002
DataValue, 0.00018350000000000002, -2.81979482E-07, 0.20806610584259003, 0.00018350000000000002, 0.00018350000000000002
DataValue, 0.0001845, -4.4308669100000005E-07, 0.210689097642899, 0.0001845, 0.0001845
