
SetupTitle, Break of oxide
PrimitiveTest, I/V Sweep
TestParameter, Context.MainFrame, B1500A
TestParameter, Channel.UnitType, SMU, SMU
TestParameter, Channel.Unit, SMU2:HR/AS, SMU1:HR/AS
TestParameter, Channel.IName, I1, I2
TestParameter, Channel.VName, V1, V2
TestParameter, Channel.Mode, V, V
TestParameter, Channel.Func, VAR1, CONST
TestParameter, Channel.Index, 
TestParameter, Channel.Time, 
TestParameter, Measurement.Port.Unit, SMU2:HR/AS, SMU1:HR/AS
TestParameter, Measurement.Port.SeriesResistor, NONE, NONE
TestParameter, Measurement.Port.Filter, ON, ON
TestParameter, Measurement.Port.OutputVoltageComparison, 0, 0
TestParameter, Measurement.Primary.Locus, Single
TestParameter, Measurement.Primary.Scale, LINEAR
TestParameter, Measurement.Primary.Start, 0
TestParameter, Measurement.Primary.Stop, 10
TestParameter, Measurement.Primary.Step, 0.05
TestParameter, Measurement.Primary.Compliance, 0.1
TestParameter, Measurement.Primary.PowerCompliance, 0
TestParameter, Measurement.Aborting.Condition, CONTINUE AT ANY
TestParameter, Measurement.PostOutput.Value, START
TestParameter, Measurement.PostOutput.Retention, OFF
TestParameter, Measurement.Bias.Source, 0, 0
TestParameter, Measurement.Bias.Compliance, 0.1, 0.1
TestParameter, Measurement.Monitor.Unit, SMU2:HR/AS, SMU1:HR/AS
TestParameter, Measurement.Monitor.Adc, HR ADC, HR ADC
TestParameter, Measurement.Monitor.Measurement, Compliance Side, Compliance Side
TestParameter, Measurement.Monitor.RangingMode, LIMITED, LIMITED
TestParameter, Measurement.Monitor.RangeBoundary, 1nA, 1nA
TestParameter, Measurement.Monitor.RangeRating, BY FULL RANGE, BY FULL RANGE
TestParameter, Measurement.Monitor.RangeRatingCoeff, 50, 50
TestParameter, Measurement.Timing.Hold, 1
TestParameter, Measurement.Timing.Delay, 0
TestParameter, Measurement.Adc.HighSpeed.Mode, AUTO
TestParameter, Measurement.Adc.HighSpeed.Coeff, 1
TestParameter, Measurement.Adc.HighResolution.AutoZero, OFF
TestParameter, Measurement.Adc.HighResolution.Mode, AUTO
TestParameter, Measurement.Adc.HighResolution.Coeff, 6
TestParameter, Measurement.WaitTime.Source.Coeff, 1
TestParameter, Measurement.WaitTime.Source.Offset, 0
TestParameter, Measurement.WaitTime.Monitor.Coeff, 1
TestParameter, Measurement.WaitTime.Monitor.Offset, 0
TestParameter, Function.Analysis.Name, absI
TestParameter, Function.Analysis.Unit, A
TestParameter, Function.Analysis.Definition, abs(I1)
TestParameter, Output.Graph.Enabled, true
TestParameter, Output.Graph.AutoScaling, false
TestParameter, Output.Graph.XAxis.Data, V1
TestParameter, Output.Graph.XAxis.Scale, Linear
TestParameter, Output.Graph.XAxis.Left, 0
TestParameter, Output.Graph.XAxis.Right, 3
TestParameter, Output.Graph.XAxis.RunTimeAutoScale, true
TestParameter, Output.Graph.YAxis.Data, I1, absI
TestParameter, Output.Graph.YAxis.Scale, Linear, Log
TestParameter, Output.Graph.YAxis.Bottom, 0.001, 0
TestParameter, Output.Graph.YAxis.Top, 0.01, 1
TestParameter, Output.Graph.YAxis.Group, , 
TestParameter, Output.Graph.YAxis.RunTimeAutoScale, true, true
TestParameter, AutoAnalysis.Interpolation, false
TestParameter, AutoAnalysis.Var2StepCount, 1
TestParameter, AutoAnalysis.Var2StepScript, 
TestParameter, AutoAnalysis.Line1.Enabled, false
TestParameter, AutoAnalysis.Line1.Type, 1
TestParameter, AutoAnalysis.Line1.Fix, True
TestParameter, AutoAnalysis.Line1.YAxis, 0
TestParameter, AutoAnalysis.Line1.Point1.Type, 0
TestParameter, AutoAnalysis.Line1.Point1.XY.X, 
TestParameter, AutoAnalysis.Line1.Point1.XY.Y, 
TestParameter, AutoAnalysis.Line1.Point1.Data.Var, 
TestParameter, AutoAnalysis.Line1.Point1.Data.Condition, 
TestParameter, AutoAnalysis.Line1.Point1.Data.Start, false
TestParameter, AutoAnalysis.Line1.Point1.Data.StartVar, 
TestParameter, AutoAnalysis.Line1.Point1.Data.StartCondition, 
TestParameter, AutoAnalysis.Line1.Point2.Type, 0
TestParameter, AutoAnalysis.Line1.Point2.XY.X, 
TestParameter, AutoAnalysis.Line1.Point2.XY.Y, 
TestParameter, AutoAnalysis.Line1.Point2.Data.Var, 
TestParameter, AutoAnalysis.Line1.Point2.Data.Condition, 
TestParameter, AutoAnalysis.Line1.Point2.Data.Start, false
TestParameter, AutoAnalysis.Line1.Point2.Data.StartVar, 
TestParameter, AutoAnalysis.Line1.Point2.Data.StartCondition, 
TestParameter, AutoAnalysis.Line1.GradientExpr, 0
TestParameter, AutoAnalysis.Line2.Enabled, false
TestParameter, AutoAnalysis.Line2.Type, 1
TestParameter, AutoAnalysis.Line2.Fix, True
TestParameter, AutoAnalysis.Line2.YAxis, 0
TestParameter, AutoAnalysis.Line2.Point1.Type, 0
TestParameter, AutoAnalysis.Line2.Point1.XY.X, 
TestParameter, AutoAnalysis.Line2.Point1.XY.Y, 
TestParameter, AutoAnalysis.Line2.Point1.Data.Var, 
TestParameter, AutoAnalysis.Line2.Point1.Data.Condition, 
TestParameter, AutoAnalysis.Line2.Point1.Data.Start, false
TestParameter, AutoAnalysis.Line2.Point1.Data.StartVar, 
TestParameter, AutoAnalysis.Line2.Point1.Data.StartCondition, 
TestParameter, AutoAnalysis.Line2.Point2.Type, 0
TestParameter, AutoAnalysis.Line2.Point2.XY.X, 
TestParameter, AutoAnalysis.Line2.Point2.XY.Y, 
TestParameter, AutoAnalysis.Line2.Point2.Data.Var, 
TestParameter, AutoAnalysis.Line2.Point2.Data.Condition, 
TestParameter, AutoAnalysis.Line2.Point2.Data.Start, false
TestParameter, AutoAnalysis.Line2.Point2.Data.StartVar, 
TestParameter, AutoAnalysis.Line2.Point2.Data.StartCondition, 
TestParameter, AutoAnalysis.Line2.GradientExpr, 0
TestParameter, AutoAnalysis.Marker.Enabled, false
TestParameter, AutoAnalysis.Marker.Data.Var, 
TestParameter, AutoAnalysis.Marker.Data.Condition, 
TestParameter, AutoAnalysis.Marker.Data.Start, false
TestParameter, AutoAnalysis.Marker.Data.StartVar, 
TestParameter, AutoAnalysis.Marker.Data.StartCondition, 
MetaData, TestRecord.EntryPoint, true
MetaData, TestRecord.RecordTime, 10/06/2021 15:46:12
MetaData, TestRecord.TestTarget, FlashIntE_2_25um_D11
MetaData, TestRecord.IterationIndex, 1
MetaData, TestRecord.Preservation, true
MetaData, TestRecord.Flag, 
MetaData, TestRecord.Remarks, 
MetaData, TestRecord.LinkKey, 40bd7470-b142-45ce-ba36-e350b3657bf4
MetaData, TestRecord.Parameters, 
Dimension1, 201, 201, 201
Dimension2, 1, 1, 1
DataName, V1, I1, absI
DataValue, 0, 7.1900000000000007E-12, 7.1900000000000007E-12
DataValue, 0.05, 1.0479000000000001E-10, 1.0479000000000001E-10
DataValue, 0.1, 1.3481E-10, 1.3481E-10
DataValue, 0.15, 1.5816E-10, 1.5816E-10
DataValue, 0.2, 2.8985000000000004E-10, 2.8985000000000004E-10
DataValue, 0.25, 3.3558000000000004E-10, 3.3558000000000004E-10
DataValue, 0.3, 3.7964000000000005E-10, 3.7964000000000005E-10
DataValue, 0.35000000000000003, 5.0248E-10, 5.0248E-10
DataValue, 0.4, 5.4979E-10, 5.4979E-10
DataValue, 0.45, 7.3709000000000009E-10, 7.3709000000000009E-10
DataValue, 0.5, 8.0046E-10, 8.0046E-10
DataValue, 0.55, 1.093E-09, 1.093E-09
DataValue, 0.6, 1.1754E-09, 1.1754E-09
DataValue, 0.65, 1.302E-09, 1.302E-09
DataValue, 0.70000000000000007, 1.5729E-09, 1.5729E-09
DataValue, 0.75, 1.9764E-09, 1.9764E-09
DataValue, 0.8, 2.3976E-09, 2.3976E-09
DataValue, 0.85, 3.1355E-09, 3.1355E-09
DataValue, 0.9, 3.6141E-09, 3.6141E-09
DataValue, 0.95000000000000007, 5.3919E-09, 5.3919E-09
DataValue, 1, 5.8863E-09, 5.8863E-09
DataValue, 1.05, 7.8924E-09, 7.8924E-09
DataValue, 1.1, 9.6529999999999988E-09, 9.6529999999999988E-09
DataValue, 1.1500000000000001, 1.20368E-08, 1.20368E-08
DataValue, 1.2, 1.5220499999999997E-08, 1.5220499999999997E-08
DataValue, 1.25, 1.9302799999999997E-08, 1.9302799999999997E-08
DataValue, 1.3, 2.41967E-08, 2.41967E-08
DataValue, 1.35, 3.04002E-08, 3.04002E-08
DataValue, 1.4000000000000001, 3.8954499999999993E-08, 3.8954499999999993E-08
DataValue, 1.45, 5.1368599999999993E-08, 5.1368599999999993E-08
DataValue, 1.5, 7.8270599999999991E-08, 7.8270599999999991E-08
DataValue, 1.55, 2.6282E-07, 2.6282E-07
DataValue, 1.6, 3.3812E-07, 3.3812E-07
DataValue, 1.6500000000000001, 4.0216E-07, 4.0216E-07
DataValue, 1.7, 2.6146E-07, 2.6146E-07
DataValue, 1.75, 3.992E-07, 3.992E-07
DataValue, 1.8, 5.719E-07, 5.719E-07
DataValue, 1.85, 8.9082E-07, 8.9082E-07
DataValue, 1.9000000000000001, 9.8E-07, 9.8E-07
DataValue, 1.95, 1.1931E-06, 1.1931E-06
DataValue, 2, 1.4011000000000002E-06, 1.4011000000000002E-06
DataValue, 2.05, 1.4618000000000001E-06, 1.4618000000000001E-06
DataValue, 2.1, 2.4061E-06, 2.4061E-06
DataValue, 2.15, 2.7674000000000004E-06, 2.7674000000000004E-06
DataValue, 2.2, 3.0647000000000005E-06, 3.0647000000000005E-06
DataValue, 2.25, 8.3300000000000016E-06, 8.3300000000000016E-06
DataValue, 2.3000000000000003, 1.295E-05, 1.295E-05
DataValue, 2.35, 0.010538, 0.010538
DataValue, 2.4, 0.01344, 0.01344
DataValue, 2.45, 0.018168, 0.018168
DataValue, 2.5, 0.023690000000000003, 0.023690000000000003
DataValue, 2.5500000000000003, 0.023782, 0.023782
DataValue, 2.6, 0.025236, 0.025236
DataValue, 2.65, 0.031488, 0.031488
DataValue, 2.7, 0.031406, 0.031406
DataValue, 2.75, 0.034388, 0.034388
DataValue, 2.8000000000000003, 0.039400000000000004, 0.039400000000000004
DataValue, 2.85, 0.044192, 0.044192
DataValue, 2.9, 0.057714000000000008, 0.057714000000000008
DataValue, 2.95, 0.055160000000000008, 0.055160000000000008
DataValue, 3, 0.062492000000000006, 0.062492000000000006
DataValue, 3.0500000000000003, 0.100038, 0.100038
DataValue, 3.1, 0.10000200000000001, 0.10000200000000001
DataValue, 3.15, 0.099924000000000013, 0.099924000000000013
DataValue, 3.2, 0.1, 0.1
DataValue, 3.25, 0.10000200000000001, 0.10000200000000001
DataValue, 3.3000000000000003, 0.10000200000000001, 0.10000200000000001
DataValue, 3.35, 0.10001600000000001, 0.10001600000000001
DataValue, 3.4, 0.1, 0.1
DataValue, 3.45, 0.10000400000000001, 0.10000400000000001
DataValue, 3.5, 0.10000400000000001, 0.10000400000000001
DataValue, 3.5500000000000003, 0.1, 0.1
DataValue, 3.6, 0.10000200000000001, 0.10000200000000001
DataValue, 3.65, 0.10003400000000001, 0.10003400000000001
DataValue, 3.7, 0.099990000000000009, 0.099990000000000009
DataValue, 3.75, 0.099984, 0.099984
DataValue, 3.8000000000000003, 0.10001800000000001, 0.10001800000000001
DataValue, 3.85, 0.099998, 0.099998
DataValue, 3.9, 0.099996000000000015, 0.099996000000000015
DataValue, 3.95, 0.10000800000000001, 0.10000800000000001
DataValue, 4, 0.099992000000000011, 0.099992000000000011
DataValue, 4.05, 0.1, 0.1
DataValue, 4.1, 0.100028, 0.100028
DataValue, 4.15, 0.100038, 0.100038
DataValue, 4.2, 0.10000600000000001, 0.10000600000000001
DataValue, 4.25, 0.099980000000000013, 0.099980000000000013
DataValue, 4.3, 0.10000400000000001, 0.10000400000000001
DataValue, 4.3500000000000005, 0.1, 0.1
DataValue, 4.4, 0.099962000000000009, 0.099962000000000009
DataValue, 4.45, 0.10000600000000001, 0.10000600000000001
DataValue, 4.5, 0.10000600000000001, 0.10000600000000001
DataValue, 4.55, 0.10000800000000001, 0.10000800000000001
DataValue, 4.6000000000000005, 0.10003200000000001, 0.10003200000000001
DataValue, 4.65, 0.10000400000000001, 0.10000400000000001
DataValue, 4.7, 0.1, 0.1
DataValue, 4.75, 0.10000400000000001, 0.10000400000000001
DataValue, 4.8, 0.099994000000000013, 0.099994000000000013
DataValue, 4.8500000000000005, 0.100014, 0.100014
DataValue, 4.9, 0.099996000000000015, 0.099996000000000015
DataValue, 4.95, 0.099958, 0.099958
DataValue, 5, 0.099980000000000013, 0.099980000000000013
DataValue, 5.05, 0.1, 0.1
DataValue, 5.1000000000000005, 0.099992000000000011, 0.099992000000000011
DataValue, 5.15, 0.10000400000000001, 0.10000400000000001
DataValue, 5.2, 0.10000400000000001, 0.10000400000000001
DataValue, 5.25, 0.10000200000000001, 0.10000200000000001
DataValue, 5.3, 0.10000400000000001, 0.10000400000000001
DataValue, 5.3500000000000005, 0.099948000000000009, 0.099948000000000009
DataValue, 5.4, 0.10002000000000001, 0.10002000000000001
DataValue, 5.45, 0.10000800000000001, 0.10000800000000001
DataValue, 5.5, 0.10011600000000001, 0.10011600000000001
DataValue, 5.55, 0.1, 0.1
DataValue, 5.6000000000000005, 0.099998, 0.099998
DataValue, 5.65, 0.099992000000000011, 0.099992000000000011
DataValue, 5.7, 0.099998, 0.099998
DataValue, 5.75, 0.10000600000000001, 0.10000600000000001
DataValue, 5.8, 0.099984, 0.099984
DataValue, 5.8500000000000005, 0.099998, 0.099998
DataValue, 5.9, 0.10003000000000001, 0.10003000000000001
DataValue, 5.95, 0.099884000000000014, 0.099884000000000014
DataValue, 6, 0.099968000000000015, 0.099968000000000015
DataValue, 6.05, 0.099934000000000009, 0.099934000000000009
DataValue, 6.1000000000000005, 0.099986, 0.099986
DataValue, 6.15, 0.10001800000000001, 0.10001800000000001
DataValue, 6.2, 0.099990000000000009, 0.099990000000000009
DataValue, 6.25, 0.10003400000000001, 0.10003400000000001
DataValue, 6.3, 0.099992000000000011, 0.099992000000000011
DataValue, 6.3500000000000005, 0.1, 0.1
DataValue, 6.4, 0.1, 0.1
DataValue, 6.45, 0.099960000000000007, 0.099960000000000007
DataValue, 6.5, 0.099998, 0.099998
DataValue, 6.55, 0.099988000000000007, 0.099988000000000007
DataValue, 6.6000000000000005, 0.10001000000000002, 0.10001000000000002
DataValue, 6.65, 0.099994000000000013, 0.099994000000000013
DataValue, 6.7, 0.10000600000000001, 0.10000600000000001
DataValue, 6.75, 0.10000400000000001, 0.10000400000000001
DataValue, 6.8, 0.10001000000000002, 0.10001000000000002
DataValue, 6.8500000000000005, 0.1, 0.1
DataValue, 6.9, 0.10002200000000001, 0.10002200000000001
DataValue, 6.95, 0.099988000000000007, 0.099988000000000007
DataValue, 7, 0.10004400000000001, 0.10004400000000001
DataValue, 7.05, 0.10005000000000001, 0.10005000000000001
DataValue, 7.1000000000000005, 0.099972, 0.099972
DataValue, 7.15, 0.1, 0.1
DataValue, 7.2, 0.10001600000000001, 0.10001600000000001
DataValue, 7.25, 0.099998, 0.099998
DataValue, 7.3, 0.099992000000000011, 0.099992000000000011
DataValue, 7.3500000000000005, 0.10000400000000001, 0.10000400000000001
DataValue, 7.4, 0.10000400000000001, 0.10000400000000001
DataValue, 7.45, 0.10000400000000001, 0.10000400000000001
DataValue, 7.5, 0.10000400000000001, 0.10000400000000001
DataValue, 7.55, 0.099992000000000011, 0.099992000000000011
DataValue, 7.6000000000000005, 0.099988000000000007, 0.099988000000000007
DataValue, 7.65, 0.10000600000000001, 0.10000600000000001
DataValue, 7.7, 0.10000200000000001, 0.10000200000000001
DataValue, 7.75, 0.10000200000000001, 0.10000200000000001
DataValue, 7.8, 0.1, 0.1
DataValue, 7.8500000000000005, 0.099994000000000013, 0.099994000000000013
DataValue, 7.9, 0.099990000000000009, 0.099990000000000009
DataValue, 7.95, 0.10000600000000001, 0.10000600000000001
DataValue, 8, 0.1, 0.1
DataValue, 8.05, 0.099998, 0.099998
DataValue, 8.1, 0.099992000000000011, 0.099992000000000011
DataValue, 8.15, 0.10002000000000001, 0.10002000000000001
DataValue, 8.2, 0.099998, 0.099998
DataValue, 8.25, 0.100024, 0.100024
DataValue, 8.3, 0.10000400000000001, 0.10000400000000001
DataValue, 8.35, 0.10000800000000001, 0.10000800000000001
DataValue, 8.4, 0.099996000000000015, 0.099996000000000015
DataValue, 8.45, 0.10001000000000002, 0.10001000000000002
DataValue, 8.5, 0.10000600000000001, 0.10000600000000001
DataValue, 8.55, 0.099998, 0.099998
DataValue, 8.6, 0.099998, 0.099998
DataValue, 8.65, 0.10004, 0.10004
DataValue, 8.7000000000000011, 0.100028, 0.100028
DataValue, 8.75, 0.099988000000000007, 0.099988000000000007
DataValue, 8.8, 0.099996000000000015, 0.099996000000000015
DataValue, 8.85, 0.100038, 0.100038
DataValue, 8.9, 0.10003000000000001, 0.10003000000000001
DataValue, 8.9500000000000011, 0.10000400000000001, 0.10000400000000001
DataValue, 9, 0.10000600000000001, 0.10000600000000001
DataValue, 9.05, 0.1, 0.1
DataValue, 9.1, 0.099992000000000011, 0.099992000000000011
DataValue, 9.15, 0.099980000000000013, 0.099980000000000013
DataValue, 9.2000000000000011, 0.099974000000000007, 0.099974000000000007
DataValue, 9.25, 0.099998, 0.099998
DataValue, 9.3, 0.10001000000000002, 0.10001000000000002
DataValue, 9.35, 0.099980000000000013, 0.099980000000000013
DataValue, 9.4, 0.10002200000000001, 0.10002200000000001
DataValue, 9.4500000000000011, 0.099992000000000011, 0.099992000000000011
DataValue, 9.5, 0.10003400000000001, 0.10003400000000001
DataValue, 9.55, 0.10003400000000001, 0.10003400000000001
DataValue, 9.6, 0.1, 0.1
DataValue, 9.65, 0.10000400000000001, 0.10000400000000001
DataValue, 9.7000000000000011, 0.099996000000000015, 0.099996000000000015
DataValue, 9.75, 0.10000200000000001, 0.10000200000000001
DataValue, 9.8, 0.099954000000000015, 0.099954000000000015
DataValue, 9.85, 0.1, 0.1
DataValue, 9.9, 0.100012, 0.100012
DataValue, 9.9500000000000011, 0.099976000000000009, 0.099976000000000009
DataValue, 10, 0.10001000000000002, 0.10001000000000002