
SetupTitle, FE PUND 3V - reverse
ApplicationTest, WGFMU Pattern Editor, Public
TestParameter, Name, ExecutionMode, Enable1, Channel1, OperationMode1, VForceRange1, InitMeasRange1, Enable2, Channel2, OperationMode2, VForceRange2, InitMeasRange2, RepeatCount, WaveformCh1, WaveformCh2, MeasurementEvent, Output_to_File_for_PatternValidation, Output_Enable, Output_Filename, DataDisplay_for_RunVector, DataDisplay_PatternValidation, DataDisplay_Mode, LogToFile, LogFile, WarningLevel, IForceRange1, IForceRange2, Result_Update_Interval_s
TestParameter, Value, Run Vector, Enable, WGFMU1:RS	RSWGFMU, Fast IV Imeas, Auto, 100uA (Imeas), Enable, WGFMU2:RS	RSWGFMU, PG Vmeas, Auto, 5V (Vmeas), 1, , Disable, C:\WGFMUPatternEditor_Pattern.csv, , Disable, x(time)_y(meas), Disable, C:\WGFMUPatternEditor_Log.log, 2, 10mA, 10mA, 10
MetaData, TestRecord.EntryPoint, true
MetaData, TestRecord.RecordTime, 10/06/2021 15:48:53
MetaData, TestRecord.TestTarget, FlashIntE_2_25um_E12
MetaData, TestRecord.IterationIndex, 4
MetaData, TestRecord.Preservation, true
MetaData, TestRecord.Flag, 
MetaData, TestRecord.Remarks, 
MetaData, TestRecord.LinkKey, 64113ea4-4eb7-4729-a7fb-83bb1aadd9ec
MetaData, TestRecord.Parameters, 
Dimension1, 5000, 5000, 5000, 5000, 5000
Dimension2, 1, 1, 1, 1, 1
DataName, Time, MeasResult1_value, MeasResult2_value, MeasResult1_time, MeasResult2_time
DataValue, 5.0000000000000008E-07, -4.12795657E-07, 0.00036269359407000004, 5.0000000000000008E-07, 5.0000000000000008E-07
DataValue, 1.5E-06, -5.1928691000000005E-08, 0.000514161714818, 1.5E-06, 1.5E-06
DataValue, 2.5E-06, 4.3639281000000003E-07, 0.00042962137376900006, 2.5E-06, 2.5E-06
DataValue, 3.5000000000000004E-06, -1.12050067E-07, 0.000235883082496, 3.5000000000000004E-06, 3.5000000000000004E-06
DataValue, 4.5E-06, 5.1879503E-08, 0.000257018167758, 4.5E-06, 4.5E-06
DataValue, 5.5000000000000007E-06, -2.703414E-08, 0.00047189154429400006, 5.5000000000000007E-06, 5.5000000000000007E-06
DataValue, 6.5000000000000004E-06, 2.2232742900000002E-07, 0.00023940559185600002, 6.5000000000000004E-06, 6.5000000000000004E-06
DataValue, 7.5E-06, -5.86849467E-07, 0.00053881935309600009, 7.5E-06, 7.5E-06
DataValue, 8.5E-06, -1.06779915E-07, 0.00040496376459500004, 8.5E-06, 8.5E-06
DataValue, 9.5E-06, 3.15525966E-07, 0.000412008812418, 9.5E-06, 9.5E-06
DataValue, 1.0500000000000001E-05, -1.2938610900000002E-07, 0.00022531553986500003, 1.0500000000000001E-05, 1.0500000000000001E-05
DataValue, 1.15E-05, 3.04430898E-07, 3.3971193720000004E-06, 1.15E-05, 1.15E-05
DataValue, 1.25E-05, -2.9955666E-07, -6.7053173552000011E-05, 1.25E-05, 1.25E-05
DataValue, 1.3500000000000001E-05, 1.81483728E-07, -1.421545312E-05, 1.3500000000000001E-05, 1.3500000000000001E-05
DataValue, 1.45E-05, -2.88669611E-07, 9.8505013739E-05, 1.45E-05, 1.45E-05
DataValue, 1.55E-05, 2.1726531000000002E-07, -8.8188258815E-05, 1.55E-05, 1.55E-05
DataValue, 1.65E-05, 3.9367682800000005E-07, 8.0892437836000011E-05, 1.65E-05, 1.65E-05
DataValue, 1.7500000000000002E-05, -8.86901603E-07, -4.9440597650000006E-05, 1.7500000000000002E-05, 1.7500000000000002E-05
DataValue, 1.8500000000000002E-05, 4.3708627100000003E-07, -0.000130458429339, 1.8500000000000002E-05, 1.8500000000000002E-05
DataValue, 1.95E-05, -3.2687825100000003E-07, 2.4532206226000003E-05, 1.95E-05, 1.95E-05
DataValue, 2.05E-05, 1.0797892E-07, -0.000193863699678, 2.05E-05, 2.05E-05
DataValue, 2.15E-05, 4.5638529E-08, -0.00023965637956300002, 2.15E-05, 2.15E-05
DataValue, 2.25E-05, -1.86733715E-07, -0.000391124514863, 2.25E-05, 2.25E-05
DataValue, 2.3500000000000002E-05, 5.77716207E-07, -0.000193863699678, 2.3500000000000002E-05, 2.3500000000000002E-05
DataValue, 2.4500000000000003E-05, -4.0142322200000004E-07, -3.5350542021E-05, 2.4500000000000003E-05, 2.4500000000000003E-05
DataValue, 2.5500000000000003E-05, 3.8847602500000003E-07, -0.000278404040728, 2.5500000000000003E-05, 2.5500000000000003E-05
DataValue, 2.65E-05, -1.2286776000000002E-07, -0.000278404040728, 2.65E-05, 2.65E-05
DataValue, 2.75E-05, -1.24740055E-07, -0.000281926564639, 2.75E-05, 2.75E-05
DataValue, 2.85E-05, 1.5111098200000002E-07, -0.000130458429339, 2.85E-05, 2.85E-05
DataValue, 2.9500000000000002E-05, -1.7862045400000003E-07, -9.8755801446E-05, 2.9500000000000002E-05, 2.9500000000000002E-05
DataValue, 3.0500000000000003E-05, 1.0083647300000001E-07, -0.000313629192533, 3.0500000000000003E-05, 3.0500000000000003E-05
DataValue, 3.15E-05, 1.4195755700000001E-07, -6.0008140281000004E-05, 3.15E-05, 3.15E-05
DataValue, 3.2500000000000004E-05, -1.5400328800000002E-07, -9.8755801446E-05, 3.2500000000000004E-05, 3.2500000000000004E-05
DataValue, 3.35E-05, 1.7614422600000002E-07, 0.00027110823430100004, 3.35E-05, 3.35E-05
DataValue, 3.4500000000000005E-05, 2.860547E-07, 1.3964662685000001E-05, 3.4500000000000005E-05, 3.4500000000000005E-05
DataValue, 3.55E-05, -3.1099844500000004E-07, 0.000380306184525, 3.55E-05, 3.55E-05
DataValue, 3.65E-05, -4.1180346E-08, 0.000338035984896, 3.65E-05, 3.65E-05
DataValue, 3.7500000000000003E-05, 5.2758036900000008E-07, 0.00032042342354500003, 3.7500000000000003E-05, 3.7500000000000003E-05
DataValue, 3.85E-05, -5.29293857E-07, 0.000274630729109, 3.85E-05, 3.85E-05
DataValue, 3.9500000000000005E-05, 3.26343667E-07, 0.000179522845428, 3.9500000000000005E-05, 3.9500000000000005E-05
DataValue, 4.05E-05, -9.7002392E-08, 1.0442147868E-05, 4.05E-05, 4.05E-05
DataValue, 4.1500000000000006E-05, -2.1121221000000002E-07, 8.0892437836000011E-05, 4.1500000000000006E-05, 4.1500000000000006E-05
DataValue, 4.25E-05, -1.05878442E-07, 0.000102027523099, 4.25E-05, 4.25E-05
DataValue, 4.35E-05, 1.58114744E-07, -4.2395568016E-05, 4.35E-05, 4.35E-05
DataValue, 4.4500000000000004E-05, 1.80790281E-07, 6.6802378569E-05, 4.4500000000000004E-05, 4.4500000000000004E-05
DataValue, 4.55E-05, -3.7957980200000004E-07, -0.0002185212943, 4.55E-05, 4.55E-05
DataValue, 4.6500000000000005E-05, 6.49140702E-07, 2.4532206226000003E-05, 4.6500000000000005E-05, 4.6500000000000005E-05
DataValue, 4.75E-05, -4.2049285300000005E-07, -1.421545312E-05, 4.75E-05, 4.75E-05
DataValue, 4.85E-05, 9.0504194E-08, 4.2144780309000006E-05, 4.85E-05, 4.85E-05
DataValue, 4.9500000000000004E-05, 7.9963883E-08, -5.6485627283000003E-05, 4.9500000000000004E-05, 4.9500000000000004E-05
DataValue, 5.05E-05, 1.5959234000000003E-08, -0.00011284586071300001, 5.05E-05, 5.05E-05
DataValue, 5.1500000000000005E-05, -4.93720279E-07, -8.1143225543000013E-05, 5.1500000000000005E-05, 5.1500000000000005E-05
DataValue, 5.25E-05, -1.8978487E-07, 0.000133730150992, 5.25E-05, 5.25E-05
DataValue, 5.3500000000000006E-05, 6.6619935500000007E-07, 1.0442147868E-05, 5.3500000000000006E-05, 5.3500000000000006E-05
DataValue, 5.45E-05, -1.61423102E-07, -1.25395246E-07, 5.45E-05, 5.45E-05
DataValue, 5.55E-05, -5.2206069E-08, -0.000151593514602, 5.55E-05, 5.55E-05
DataValue, 5.6500000000000005E-05, 2.8050718E-07, -0.00041930461884500005, 5.6500000000000005E-05, 5.6500000000000005E-05
DataValue, 5.75E-05, 4.3904926000000005E-08, -3.8873055018E-05, 5.75E-05, 5.75E-05
DataValue, 5.8500000000000006E-05, -2.449828E-07, -8.466574217900001E-05, 5.8500000000000006E-05, 5.8500000000000006E-05
DataValue, 5.95E-05, 5.5970808000000004E-08, 7.0324895205E-05, 5.95E-05, 5.95E-05
DataValue, 6.0500000000000007E-05, 1.9126125000000002E-07, 0.000235883082496, 6.0500000000000007E-05, 6.0500000000000007E-05
DataValue, 6.15E-05, -8.380564E-09, 7.73699212E-05, 6.15E-05, 6.15E-05
DataValue, 6.25E-05, -2.0307757E-08, 0.00024292810121600002, 6.25E-05, 6.25E-05
DataValue, 6.35E-05, 1.2954495800000002E-07, 0.00020770296396200002, 6.35E-05, 6.35E-05
DataValue, 6.4500000000000009E-05, -4.3727413900000003E-07, 0.000140775184263, 6.4500000000000009E-05, 6.4500000000000009E-05
DataValue, 6.55E-05, 2.38831348E-07, 3.3971193720000004E-06, 6.55E-05, 6.55E-05
DataValue, 6.65E-05, 5.20507285E-07, 0.000158387760166, 6.65E-05, 6.65E-05
DataValue, 6.75E-05, -2.92760916E-07, 0.000235883082496, 6.75E-05, 6.75E-05
DataValue, 6.85E-05, 2.3517746E-08, 7.384741184100001E-05, 6.85E-05, 6.85E-05
DataValue, 6.9500000000000009E-05, 3.15248599E-07, 3.1577234040000006E-05, 6.9500000000000009E-05, 6.9500000000000009E-05
DataValue, 7.05E-05, -3.14118921E-07, 0.00042962137376900006, 7.05E-05, 7.05E-05
DataValue, 7.15E-05, -1.4408706800000002E-07, 0.000450756459031, 7.15E-05, 7.15E-05
DataValue, 7.25E-05, 2.5131328100000004E-07, 0.00023236055858400002, 7.25E-05, 7.25E-05
DataValue, 7.3500000000000011E-05, -4.9538454000000009E-07, 3.8622263673E-05, 7.3500000000000011E-05, 7.3500000000000011E-05
DataValue, 7.4500000000000008E-05, 1.78709954E-07, 0.000144297693623, 7.4500000000000008E-05, 7.4500000000000008E-05
DataValue, 7.55E-05, 3.4404778000000005E-08, -0.000179773633135, 7.55E-05, 7.55E-05
DataValue, 7.65E-05, -9.8389272E-08, -0.00023261134629100003, 7.65E-05, 7.65E-05
DataValue, 7.75E-05, 1.188929E-09, -0.000408737076214, 7.75E-05, 7.75E-05
DataValue, 7.8500000000000011E-05, 6.6580462E-08, -3.5350542021E-05, 7.8500000000000011E-05, 7.8500000000000011E-05
DataValue, 7.9500000000000008E-05, -8.9582564000000009E-08, -1.0692939213000001E-05, 7.9500000000000008E-05, 7.9500000000000008E-05
DataValue, 8.05E-05, 1.01807295E-07, 3.5099750676E-05, 8.05E-05, 8.05E-05
DataValue, 8.15E-05, 2.9375189600000004E-07, -0.00016920609050400003, 8.15E-05, 8.15E-05
DataValue, 8.25E-05, 7.0949142000000008E-08, 0.000133730150992, 8.25E-05, 8.25E-05
DataValue, 8.350000000000001E-05, -4.3373759700000004E-07, 0.00027110823430100004, 8.350000000000001E-05, 8.350000000000001E-05
DataValue, 8.4500000000000008E-05, -5.29432498E-07, -6.7053173552000011E-05, 8.4500000000000008E-05, 8.4500000000000008E-05
DataValue, 8.55E-05, 4.36600857E-07, -0.000271359022008, 8.55E-05, 8.55E-05
DataValue, 8.65E-05, 1.33497565E-07, -2.4782997571000002E-05, 8.65E-05, 8.65E-05
DataValue, 8.75E-05, -5.9695239E-08, -8.8188258815E-05, 8.75E-05, 8.75E-05
DataValue, 8.850000000000001E-05, 2.21842015E-07, -9.8755801446E-05, 8.850000000000001E-05, 8.850000000000001E-05
DataValue, 8.9500000000000007E-05, 6.9444930000000008E-09, -0.000165683581145, 8.9500000000000007E-05, 8.9500000000000007E-05
DataValue, 9.05E-05, 8.530338400000001E-08, 3.3971193720000004E-06, 9.05E-05, 9.05E-05
DataValue, 9.15E-05, -1.4949591800000002E-07, 0.00019361289741900002, 9.15E-05, 9.15E-05
DataValue, 9.2500000000000012E-05, 9.7507957E-08, -9.8755801446E-05, 9.2500000000000012E-05, 9.2500000000000012E-05
DataValue, 9.3500000000000009E-05, -8.9166498000000012E-08, -0.000172728599864, 9.3500000000000009E-05, 9.3500000000000009E-05
DataValue, 9.45E-05, 1.824759E-08, 4.2144780309000006E-05, 9.45E-05, 9.45E-05
DataValue, 9.55E-05, 5.3405074000000004E-08, -4.9440597650000006E-05, 9.55E-05, 9.55E-05
DataValue, 9.65E-05, -2.3705622000000003E-08, 1.0442147868E-05, 9.65E-05, 9.65E-05
DataValue, 9.7500000000000012E-05, 2.9368254700000005E-07, -0.00014102597197100002, 9.7500000000000012E-05, 9.7500000000000012E-05
DataValue, 9.8500000000000009E-05, 3.5514283000000004E-08, -0.000398169533582, 9.8500000000000009E-05, 9.8500000000000009E-05
DataValue, 9.95E-05, -2.7396865200000004E-07, -0.00043691720929900005, 9.95E-05, 9.95E-05
DataValue, 0.0001005, 8.2668308E-08, 0.0034906864166260004, 0.0001005, 0.0001005
DataValue, 0.0001015, -3.01636987E-07, 0.010891489684582001, 0.0001015, 0.0001015
DataValue, 0.00010250000000000001, -1.7147800700000002E-07, 0.018394446000457, 0.00010250000000000001, 0.00010250000000000001
DataValue, 0.00010350000000000001, -3.1710072800000005E-07, 0.025848086923361, 0.00010350000000000001, 0.00010350000000000001
DataValue, 0.0001045, -1.2064875E-07, 0.033453196287155006, 0.0001045, 0.0001045
DataValue, 0.0001055, -7.7789263700000008E-07, 0.040825817734003005, 0.0001055, 0.0001055
DataValue, 0.0001065, -6.7461784000000009E-08, 0.048360478132963007, 0.0001065, 0.0001065
DataValue, 0.00010750000000000001, -3.9393404400000004E-07, 0.055757757276297004, 0.00010750000000000001, 0.00010750000000000001
DataValue, 0.00010850000000000001, -4.6658535E-08, 0.063292413949966, 0.00010850000000000001, 0.00010850000000000001
DataValue, 0.0001095, -4.0773352300000003E-07, 0.070869341492653, 0.0001095, 0.0001095
DataValue, 0.0001105, -6.3717195000000007E-08, 0.078647054731846008, 0.0001105, 0.0001105
DataValue, 0.00011150000000000001, -2.3284758300000002E-07, 0.08579071611166, 0.00011150000000000001, 0.00011150000000000001
DataValue, 0.00011250000000000001, -7.37464973E-07, 0.092994257807732, 0.00011250000000000001, 0.00011250000000000001
DataValue, 0.00011350000000000001, 1.45078047E-07, 0.10063458979129801, 0.00011350000000000001, 0.00011350000000000001
DataValue, 0.0001145, -5.55367251E-07, 0.107940286397934, 0.0001145, 0.0001145
DataValue, 0.0001155, -3.96915851E-07, 0.11512973904609701, 0.0001155, 0.0001155
DataValue, 0.00011650000000000001, -2.9255289700000004E-07, 0.122699625790119, 0.00011650000000000001, 0.00011650000000000001
DataValue, 0.00011750000000000001, -1.75846694E-07, 0.13030825555324502, 0.00011750000000000001, 0.00011750000000000001
DataValue, 0.00011850000000000001, -7.8233063000000005E-07, 0.137490659952164, 0.00011850000000000001, 0.00011850000000000001
DataValue, 0.0001195, -1.38054133E-07, 0.144856244325638, 0.0001195, 0.0001195
DataValue, 0.0001205, 1.5196447000000003E-08, 0.152595207095146, 0.0001205, 0.0001205
DataValue, 0.00012150000000000001, -2.5684065000000004E-07, 0.160077020525932, 0.00012150000000000001, 0.00012150000000000001
DataValue, 0.0001225, -5.28114981E-07, 0.167506009340286, 0.0001225, 0.0001225
DataValue, 0.00012350000000000002, 2.0813324000000003E-08, 0.175012484192848, 0.00012350000000000002, 0.00012350000000000002
DataValue, 0.00012450000000000002, -4.2673383400000005E-07, 0.18243442475795701, 0.00012450000000000002, 0.00012450000000000002
DataValue, 0.00012550000000000002, -4.1522270100000004E-07, 0.189923286437988, 0.00012550000000000002, 0.00012550000000000002
DataValue, 0.0001265, -3.8304702300000003E-07, 0.197834864258766, 0.0001265, 0.0001265
DataValue, 0.0001275, -1.3964904600000002E-07, 0.20604231953620902, 0.0001275, 0.0001275
DataValue, 0.0001285, -5.54881808E-07, 0.21360515058040602, 0.0001285, 0.0001285
DataValue, 0.0001295, 3.0729538E-08, 0.22143571078777302, 0.0001295, 0.0001295
DataValue, 0.0001305, -3.22232182E-07, 0.22891047596931502, 0.0001305, 0.0001305
DataValue, 0.0001315, -8.74211651E-07, 0.23655785620212602, 0.0001315, 0.0001315
DataValue, 0.0001325, 3.1795301E-07, 0.24360993504524203, 0.0001325, 0.0001325
DataValue, 0.00013350000000000002, -1.6128441900000002E-07, 0.251010745763779, 0.00013350000000000002, 0.00013350000000000002
DataValue, 0.00013450000000000002, -7.46757109E-07, 0.25883424282074, 0.00013450000000000002, 0.00013450000000000002
DataValue, 0.00013550000000000001, -2.0469386200000002E-07, 0.26627731323242204, 0.00013550000000000001, 0.00013550000000000001
DataValue, 0.0001365, -2.2189121300000002E-07, 0.273826062679291, 0.0001365, 0.0001365
DataValue, 0.0001375, -7.432898880000001E-07, 0.281145840883255, 0.0001375, 0.0001375
DataValue, 0.0001385, -6.00232909E-07, 0.288419842720032, 0.0001385, 0.0001385
DataValue, 0.0001395, -3.2651016000000004E-08, 0.29569736123085, 0.0001395, 0.0001395
DataValue, 0.0001405, -8.12772726E-07, 0.303108721971512, 0.0001405, 0.0001405
DataValue, 0.0001415, -1.71616691E-07, 0.3105588555336, 0.0001415, 0.0001415
DataValue, 0.00014250000000000002, -7.8764877000000008E-08, 0.31792089343071, 0.00014250000000000002, 0.00014250000000000002
DataValue, 0.00014350000000000002, -6.9731470400000006E-07, 0.325483739376068, 0.00014350000000000002, 0.00014350000000000002
DataValue, 0.00014450000000000002, -1.0463024600000001E-07, 0.332993745803833, 0.00014450000000000002, 0.00014450000000000002
DataValue, 0.0001455, -5.8331289700000008E-07, 0.34052136540412903, 0.0001455, 0.0001455
DataValue, 0.0001465, -1.67872116E-07, 0.34804895520210305, 0.0001465, 0.0001465
DataValue, 0.0001475, -5.90802074E-07, 0.35552725195884705, 0.0001475, 0.0001475
DataValue, 0.0001485, -1.44503133E-07, 0.363009095191956, 0.0001485, 0.0001485
DataValue, 0.0001495, -2.7258178600000004E-07, 0.37050852179527305, 0.0001495, 0.0001495
DataValue, 0.0001505, -9.1984009E-07, 0.377912849187851, 0.0001505, 0.0001505
DataValue, 0.0001515, -2.8860029E-07, 0.38521149754524203, 0.0001515, 0.0001515
DataValue, 0.00015250000000000002, 9.2307147000000011E-08, 0.39298921823501604, 0.00015250000000000002, 0.00015250000000000002
DataValue, 0.00015350000000000002, -5.0641028800000008E-07, 0.40036183595657304, 0.00015350000000000002, 0.00015350000000000002
DataValue, 0.00015450000000000002, -6.68744917E-07, 0.408248752355576, 0.00015450000000000002, 0.00015450000000000002
DataValue, 0.0001555, 2.5609801900000004E-07, 0.41583272814750705, 0.0001555, 0.0001555
DataValue, 0.0001565, -4.5294592600000003E-07, 0.42341667413711503, 0.0001565, 0.0001565
DataValue, 0.0001575, -7.66381504E-07, 0.430641353130341, 0.0001575, 0.0001575
DataValue, 0.0001585, 2.1698792800000001E-07, 0.43832397460937506, 0.0001585, 0.0001585
DataValue, 0.0001595, -9.0139457100000006E-07, 0.44601362943649303, 0.0001595, 0.0001595
DataValue, 0.0001605, -1.1385301900000001E-07, 0.453361570835113, 0.0001605, 0.0001605
DataValue, 0.00016150000000000002, -2.51778545E-07, 0.460801124572754, 0.00016150000000000002, 0.00016150000000000002
DataValue, 0.00016250000000000002, -5.15216982E-07, 0.468134999275207, 0.00016250000000000002, 0.00016250000000000002
DataValue, 0.00016350000000000002, -4.51142967E-07, 0.47556400299072304, 0.00016350000000000002, 0.00016350000000000002
DataValue, 0.00016450000000000001, -3.19735818E-07, 0.48279571533203103, 0.00016450000000000001, 0.00016450000000000001
DataValue, 0.0001655, -3.8475925000000006E-08, 0.49042901396751404, 0.0001655, 0.0001655
DataValue, 0.0001665, -8.1443698700000011E-07, 0.49773117899894703, 0.0001665, 0.0001665
DataValue, 0.0001675, -2.9391842000000002E-08, 0.505146086215973, 0.0001675, 0.0001675
DataValue, 0.0001685, -6.0786072700000009E-07, 0.51242709159851108, 0.0001685, 0.0001685
DataValue, 0.0001695, -1.80631432E-07, 0.520141422748566, 0.0001695, 0.0001695
DataValue, 0.0001705, -3.6231310200000005E-07, 0.527573943138123, 0.0001705, 0.0001705
DataValue, 0.00017150000000000002, -7.7262245700000006E-07, 0.535249471664429, 0.00017150000000000002, 0.00017150000000000002
DataValue, 0.00017250000000000002, -1.16834819E-07, 0.54266434907913208, 0.00017250000000000002, 0.00017250000000000002
DataValue, 0.00017350000000000002, -7.60903276E-07, 0.5501074194908141, 0.00017350000000000002, 0.00017350000000000002
DataValue, 0.0001745, 2.0674635E-08, 0.557589292526245, 0.0001745, 0.0001745
DataValue, 0.0001755, -5.81509994E-07, 0.56498652696609508, 0.0001755, 0.0001755
DataValue, 0.0001765, -3.26531534E-07, 0.572246432304382, 0.0001765, 0.0001765
DataValue, 0.0001775, -4.4025594500000006E-07, 0.579752922058105, 0.0001775, 0.0001775
DataValue, 0.0001785, -3.6376934500000004E-07, 0.587238252162933, 0.0001785, 0.0001785
DataValue, 0.0001795, -2.70362762E-07, 0.595058262348175, 0.0001795, 0.0001795
DataValue, 0.00018050000000000002, -6.69299652E-07, 0.60255414247512806, 0.00018050000000000002, 0.00018050000000000002
DataValue, 0.00018150000000000002, -2.94841243E-07, 0.61007475852966309, 0.00018150000000000002, 0.00018150000000000002
DataValue, 0.00018250000000000002, -6.5036869000000009E-07, 0.6177009940147401, 0.00018250000000000002, 0.00018250000000000002
DataValue, 0.00018350000000000002, -7.6177780000000012E-09, 0.62523913383483909, 0.00018350000000000002, 0.00018350000000000002
DataValue, 0.0001845, -4.38106269E-07, 0.632798492908478, 0.0001845, 0.0001845
DataValue, 0.0001855, -1.0196956740000001E-06, 0.64011824131012007, 0.0001855, 0.0001855
DataValue, 0.0001865, -2.8559713000000003E-08, 0.647617697715759, 0.0001865, 0.0001865
