
SetupTitle, FE PUND 3V - reverse
ApplicationTest, WGFMU Pattern Editor, Public
TestParameter, Name, ExecutionMode, Enable1, Channel1, OperationMode1, VForceRange1, InitMeasRange1, Enable2, Channel2, OperationMode2, VForceRange2, InitMeasRange2, RepeatCount, WaveformCh1, WaveformCh2, MeasurementEvent, Output_to_File_for_PatternValidation, Output_Enable, Output_Filename, DataDisplay_for_RunVector, DataDisplay_PatternValidation, DataDisplay_Mode, LogToFile, LogFile, WarningLevel, IForceRange1, IForceRange2, Result_Update_Interval_s
TestParameter, Value, Run Vector, Enable, WGFMU1:RS	RSWGFMU, Fast IV Imeas, Auto, 100uA (Imeas), Enable, WGFMU2:RS	RSWGFMU, PG Vmeas, Auto, 5V (Vmeas), 1, , Disable, C:\WGFMUPatternEditor_Pattern.csv, , Disable, x(time)_y(meas), Disable, C:\WGFMUPatternEditor_Log.log, 2, 10mA, 10mA, 10
MetaData, TestRecord.EntryPoint, true
MetaData, TestRecord.RecordTime, 04/22/2021 11:57:35
MetaData, TestRecord.TestTarget, FlashIntB_1_25um_D8
MetaData, TestRecord.IterationIndex, 2
MetaData, TestRecord.Preservation, true
MetaData, TestRecord.Flag, 
MetaData, TestRecord.Remarks, 
MetaData, TestRecord.LinkKey, 5a7eb22f-8dff-4d3f-91ab-663b1d2d9eb8
MetaData, TestRecord.Parameters, 
Dimension1, 5000, 5000, 5000, 5000, 5000
Dimension2, 1, 1, 1, 1, 1
DataName, Time, MeasResult1_value, MeasResult2_value, MeasResult1_time, MeasResult2_time
DataValue, 5.0000000000000008E-07, -4.718848E-09, -0.0015477124834430002, 5.0000000000000008E-07, 5.0000000000000008E-07
DataValue, 1.5E-06, -2.430627E-09, -0.001424474758096, 1.5E-06, 1.5E-06
DataValue, 2.5E-06, -1.9488267E-08, -0.0015617967583240002, 2.5E-06, 2.5E-06
DataValue, 3.5000000000000004E-06, 2.6276131000000002E-08, -0.001484333071858, 3.5000000000000004E-06, 3.5000000000000004E-06
DataValue, 4.5E-06, -2.3787347E-08, -0.001361095230095, 4.5E-06, 4.5E-06
DataValue, 5.5000000000000007E-06, -2.1845826000000003E-08, -0.001435037935153, 5.5000000000000007E-06, 5.5000000000000007E-06
DataValue, 6.5000000000000004E-06, -2.5936886000000003E-08, -0.0014808119740340002, 6.5000000000000004E-06, 6.5000000000000004E-06
DataValue, 7.5E-06, -2.0251006000000002E-08, -0.0014596855035050001, 7.5E-06, 7.5E-06
DataValue, 8.5E-06, 1.3309552000000001E-08, -0.001487854169682, 8.5E-06, 8.5E-06
DataValue, 9.5E-06, -2.6560945E-08, -0.0014808119740340002, 9.5E-06, 9.5E-06
DataValue, 1.0500000000000001E-05, -2.153268E-09, -0.0015406702877950001, 1.0500000000000001E-05, 1.0500000000000001E-05
DataValue, 1.15E-05, 3.532612E-09, -0.001685034600087, 1.15E-05, 1.15E-05
DataValue, 1.25E-05, -2.3163286000000002E-08, -0.001773061580025, 1.25E-05, 1.25E-05
DataValue, 1.3500000000000001E-05, -9.4339670000000014E-09, -0.0018117934232580002, 1.3500000000000001E-05, 1.3500000000000001E-05
DataValue, 1.45E-05, 1.1298692E-08, -0.001706161070615, 1.45E-05, 1.45E-05
DataValue, 1.55E-05, -4.0947880000000007E-09, -0.0018153145210820002, 1.55E-05, 1.55E-05
DataValue, 1.65E-05, -1.0612747000000001E-08, -0.0016920767957340002, 1.65E-05, 1.65E-05
DataValue, 1.7500000000000002E-05, -6.3449825E-08, -0.0015794022474440001, 1.7500000000000002E-05, 1.7500000000000002E-05
DataValue, 1.8500000000000002E-05, 5.6993748000000006E-08, -0.0018399620894340002, 1.8500000000000002E-05, 1.8500000000000002E-05
DataValue, 1.95E-05, -2.1291106000000003E-08, -0.0018188356189060002, 1.95E-05, 1.95E-05
DataValue, 2.05E-05, -5.3742223000000007E-08, -0.0017237664433200001, 2.05E-05, 2.05E-05
DataValue, 2.15E-05, 1.0882652E-08, -0.0017272875411440002, 2.15E-05, 2.15E-05
DataValue, 2.25E-05, -2.8017086000000003E-08, -0.0018857361283150002, 2.25E-05, 2.25E-05
DataValue, 2.3500000000000002E-05, -1.9765627E-08, -0.001642781659029, 2.3500000000000002E-05, 2.3500000000000002E-05
DataValue, 2.4500000000000003E-05, 1.6360511E-08, -0.0017448929138480002, 2.4500000000000003E-05, 2.4500000000000003E-05
DataValue, 2.5500000000000003E-05, -4.5005386E-08, -0.001766019384377, 2.5500000000000003E-05, 2.5500000000000003E-05
DataValue, 2.65E-05, -2.0736387000000002E-08, -0.0018751729512590002, 2.65E-05, 2.65E-05
DataValue, 2.75E-05, 4.3888491E-08, -0.0016040498157960002, 2.75E-05, 2.75E-05
DataValue, 2.85E-05, -5.0691266000000006E-08, -0.0017554562073200002, 2.85E-05, 2.85E-05
DataValue, 2.9500000000000002E-05, -7.007067E-09, -0.001431516837329, 2.9500000000000002E-05, 2.9500000000000002E-05
DataValue, 3.0500000000000003E-05, -2.9681246000000002E-08, -0.001565317856148, 3.0500000000000003E-05, 3.0500000000000003E-05
DataValue, 3.15E-05, 1.4349651E-08, -0.0017308086389680002, 3.15E-05, 3.15E-05
DataValue, 3.2500000000000004E-05, -1.0959447000000001E-08, -0.0017378508346160002, 3.2500000000000004E-05, 3.2500000000000004E-05
DataValue, 3.35E-05, -3.6545906000000005E-08, -0.001505459542386, 3.35E-05, 3.35E-05
DataValue, 3.4500000000000005E-05, -2.361288E-09, -0.0016991188749670002, 3.4500000000000005E-05, 3.4500000000000005E-05
DataValue, 3.55E-05, -2.5798206000000003E-08, -0.001776582677849, 3.55E-05, 3.55E-05
DataValue, 3.65E-05, 2.7698720000000003E-09, -0.0017554562073200002, 3.65E-05, 3.65E-05
DataValue, 3.7500000000000003E-05, -2.361288E-09, -0.0018364409916100002, 3.7500000000000003E-05, 3.7500000000000003E-05
DataValue, 3.85E-05, -1.0474067000000002E-08, -0.001959678716958, 3.85E-05, 3.85E-05
DataValue, 3.9500000000000005E-05, -8.35808E-10, -0.001850525382906, 3.9500000000000005E-05, 3.9500000000000005E-05
DataValue, 4.05E-05, -5.3534205000000004E-08, -0.001959678716958, 4.05E-05, 4.05E-05
DataValue, 4.1500000000000006E-05, 6.791592E-09, -0.0018047513440250002, 4.1500000000000006E-05, 4.1500000000000006E-05
DataValue, 4.25E-05, -3.9943565E-08, -0.0019808053039010003, 4.25E-05, 4.25E-05
DataValue, 4.35E-05, 2.6553490000000004E-08, -0.0018822150304910002, 4.35E-05, 4.35E-05
DataValue, 4.4500000000000004E-05, -2.1174800000000003E-10, -0.001924467971548, 4.4500000000000004E-05, 4.4500000000000004E-05
DataValue, 4.55E-05, -4.7016247000000005E-08, -0.001899820519611, 4.55E-05, 4.55E-05
DataValue, 4.6500000000000005E-05, -2.0736387000000002E-08, -0.0019737631082530002, 4.6500000000000005E-05, 4.6500000000000005E-05
DataValue, 4.75E-05, 3.327947E-08, -0.001931510167196, 4.75E-05, 4.75E-05
DataValue, 4.85E-05, -4.5074724E-08, -0.0018681307556110002, 4.85E-05, 4.85E-05
DataValue, 4.9500000000000004E-05, 2.4681311E-08, -0.0018822150304910002, 4.9500000000000004E-05, 4.9500000000000004E-05
DataValue, 5.05E-05, -3.4257685000000004E-08, -0.001787145854905, 5.05E-05, 5.05E-05
DataValue, 5.1500000000000005E-05, -3.3009567E-08, -0.0017836248734970001, 5.1500000000000005E-05, 5.1500000000000005E-05
DataValue, 5.25E-05, 1.8856751E-08, -0.0018047513440250002, 5.25E-05, 5.25E-05
DataValue, 5.3500000000000006E-05, -1.7962787000000002E-08, -0.0019667209126060002, 5.3500000000000006E-05, 5.3500000000000006E-05
DataValue, 5.45E-05, -3.6199207E-08, -0.001713203266263, 5.45E-05, 5.45E-05
DataValue, 5.55E-05, 7.762352E-09, -0.001713203266263, 5.55E-05, 5.55E-05
DataValue, 5.6500000000000005E-05, -1.2554267E-08, -0.001646302756853, 5.6500000000000005E-05, 5.6500000000000005E-05
DataValue, 5.75E-05, -4.9268670000000007E-09, -0.0016639081295580002, 5.75E-05, 5.75E-05
DataValue, 5.8500000000000006E-05, -1.3663707000000002E-08, -0.0016744713066150002, 5.8500000000000006E-05, 5.8500000000000006E-05
DataValue, 5.95E-05, -1.0820767000000002E-08, -0.0015265860129150002, 5.95E-05, 5.95E-05
DataValue, 6.0500000000000007E-05, 5.058092E-09, -0.001910383696668, 6.0500000000000007E-05, 6.0500000000000007E-05
DataValue, 6.15E-05, -1.0612747000000001E-08, -0.001646302756853, 6.15E-05, 6.15E-05
DataValue, 6.25E-05, -1.9280247E-08, -0.0016885556979100002, 6.25E-05, 6.25E-05
DataValue, 6.35E-05, -2.1013747E-08, -0.001825877814554, 6.35E-05, 6.35E-05
DataValue, 6.4500000000000009E-05, -2.5312826E-08, -0.0018646096577870001, 6.4500000000000009E-05, 6.4500000000000009E-05
DataValue, 6.55E-05, -2.1174800000000003E-10, -0.001850525382906, 6.55E-05, 6.55E-05
DataValue, 6.65E-05, -1.42408E-10, -0.0016603870317340001, 6.65E-05, 6.65E-05
DataValue, 6.75E-05, -9.7806670000000014E-09, -0.001850525382906, 6.75E-05, 6.75E-05
DataValue, 6.85E-05, -1.2554267E-08, -0.0017484140116720002, 6.85E-05, 6.85E-05
DataValue, 6.9500000000000009E-05, -1.6021266E-08, -0.0018751729512590002, 6.9500000000000009E-05, 6.9500000000000009E-05
DataValue, 7.05E-05, 1.1714731000000001E-08, -0.00206883228384, 7.05E-05, 7.05E-05
DataValue, 7.15E-05, -1.6090606000000002E-08, -0.0019174258923160001, 7.15E-05, 7.15E-05
DataValue, 7.25E-05, -1.5050507000000002E-08, -0.002026579342782, 7.25E-05, 7.25E-05
DataValue, 7.3500000000000011E-05, -2.2919480000000003E-09, -0.001910383696668, 7.3500000000000011E-05, 7.3500000000000011E-05
DataValue, 7.4500000000000008E-05, -1.5743908000000002E-08, -0.002075874479488, 7.4500000000000008E-05, 7.4500000000000008E-05
DataValue, 7.55E-05, -1.8170807000000002E-08, -0.0019209469901400001, 7.55E-05, 7.55E-05
DataValue, 7.65E-05, 3.4042209000000005E-08, -0.002132211811841, 7.65E-05, 7.65E-05
DataValue, 7.75E-05, -3.0860026E-08, -0.0018681307556110002, 7.75E-05, 7.75E-05
DataValue, 7.8500000000000011E-05, -1.6678880000000001E-09, -0.0019667209126060002, 7.8500000000000011E-05, 7.8500000000000011E-05
DataValue, 7.9500000000000008E-05, 9.2878320000000012E-09, -0.001899820519611, 7.9500000000000008E-05, 7.9500000000000008E-05
DataValue, 8.05E-05, -3.2454846000000006E-08, -0.0019491155399010002, 8.05E-05, 8.05E-05
DataValue, 8.15E-05, 1.2061432000000002E-08, -0.001931510167196, 8.15E-05, 8.15E-05
DataValue, 8.25E-05, -7.7004670000000011E-09, -0.0018962994217870002, 8.25E-05, 8.25E-05
DataValue, 8.350000000000001E-05, -1.7616086E-08, -0.0018329198937860002, 8.350000000000001E-05, 8.350000000000001E-05
DataValue, 8.4500000000000008E-05, -3.0097286E-08, -0.001653344836086, 8.4500000000000008E-05, 8.4500000000000008E-05
DataValue, 8.55E-05, 4.1045549E-08, -0.001713203266263, 8.55E-05, 8.55E-05
DataValue, 8.65E-05, -6.1716321000000008E-08, -0.001931510167196, 8.65E-05, 8.65E-05
DataValue, 8.75E-05, -2.9750586000000003E-08, -0.001628697384149, 8.75E-05, 8.75E-05
DataValue, 8.850000000000001E-05, 4.3125748000000004E-08, -0.0018962994217870002, 8.850000000000001E-05, 8.850000000000001E-05
DataValue, 8.9500000000000007E-05, -4.3757264000000004E-08, -0.001906862598844, 8.9500000000000007E-05, 8.9500000000000007E-05
DataValue, 9.05E-05, 8.109052E-09, -0.0019737631082530002, 9.05E-05, 9.05E-05
DataValue, 9.15E-05, -1.6853347E-08, -0.0019033415010200002, 9.15E-05, 9.15E-05
DataValue, 9.2500000000000012E-05, 7.693012E-09, -0.0016991188749670002, 9.2500000000000012E-05, 9.2500000000000012E-05
DataValue, 9.3500000000000009E-05, -2.3579327E-08, -0.002195591107011, 9.3500000000000009E-05, 9.3500000000000009E-05
DataValue, 9.45E-05, -5.5844800000000006E-10, -0.0019350312650200001, 9.45E-05, 9.45E-05
DataValue, 9.55E-05, -2.0736387000000002E-08, -0.002030100440606, 9.55E-05, 9.55E-05
DataValue, 9.65E-05, -2.4827447E-08, -0.0019561578519640003, 9.65E-05, 9.65E-05
DataValue, 9.7500000000000012E-05, 7.0689520000000007E-09, -0.001790666952729, 9.7500000000000012E-05, 9.7500000000000012E-05
DataValue, 9.8500000000000009E-05, 1.7991120000000002E-09, -0.0015406702877950001, 9.8500000000000009E-05, 9.8500000000000009E-05
DataValue, 9.95E-05, -2.4619426E-08, -0.001558275776915, 9.95E-05, 9.95E-05
DataValue, 0.0001005, -2.64535799E-07, 0.001698722946458, 0.0001005, 0.0001005
DataValue, 0.0001015, -2.42277679E-07, 0.0093148183077570012, 0.0001015, 0.0001015
DataValue, 0.00010250000000000001, -2.8499110300000004E-07, 0.016913307830691, 0.00010250000000000001, 0.00010250000000000001
DataValue, 0.00010350000000000001, -3.1113228300000003E-07, 0.024293491616845003, 0.00010350000000000001, 0.00010350000000000001
DataValue, 0.0001045, -2.88319427E-07, 0.031698323786259, 0.0001045, 0.0001045
DataValue, 0.0001055, -3.1411391900000003E-07, 0.039113715291023005, 0.0001055, 0.0001055
DataValue, 0.0001065, -2.8727933500000004E-07, 0.046539671719074006, 0.0001065, 0.0001065
DataValue, 0.00010750000000000001, -2.9469870800000004E-07, 0.053976193070412, 0.00010750000000000001, 0.00010750000000000001
DataValue, 0.00010850000000000001, -3.25277654E-07, 0.061292998492718007, 0.00010850000000000001, 0.00010850000000000001
DataValue, 0.0001095, -3.27011151E-07, 0.068757683038712, 0.0001095, 0.0001095
DataValue, 0.0001105, -2.8443639600000003E-07, 0.076486453413963013, 0.0001105, 0.0001105
DataValue, 0.00011150000000000001, -2.85961875E-07, 0.083887763321400008, 0.00011150000000000001, 0.00011150000000000001
DataValue, 0.00011250000000000001, -3.32211641E-07, 0.091102458536625, 0.00011250000000000001, 0.00011250000000000001
DataValue, 0.00011350000000000001, -2.9400530400000004E-07, 0.098546020686626, 0.00011350000000000001, 0.00011350000000000001
DataValue, 0.0001145, -3.4503955200000004E-07, 0.10620789229869801, 0.0001145, 0.0001145
DataValue, 0.0001155, -3.19453079E-07, 0.113633848726749, 0.0001155, 0.0001155
DataValue, 0.00011650000000000001, -3.1473797400000003E-07, 0.12126754969358401, 0.00011650000000000001, 0.00011650000000000001
DataValue, 0.00011750000000000001, -3.3248900900000004E-07, 0.12860195338726002, 0.00011750000000000001, 0.00011750000000000001
DataValue, 0.00011850000000000001, -3.4802116000000004E-07, 0.135925799608231, 0.00011850000000000001, 0.00011850000000000001
DataValue, 0.0001195, -3.2319744E-07, 0.143091201782227, 0.0001195, 0.0001195
DataValue, 0.0001205, -3.36580058E-07, 0.150672078132629, 0.0001205, 0.0001205
DataValue, 0.00012150000000000001, -3.27011151E-07, 0.15818959474563601, 0.00012150000000000001, 0.00012150000000000001
DataValue, 0.0001225, -3.23266789E-07, 0.165643721818924, 0.0001225, 0.0001225
DataValue, 0.00012350000000000002, -3.65286837E-07, 0.173168256878853, 0.00012350000000000002, 0.00012350000000000002
DataValue, 0.00012450000000000002, -3.53637716E-07, 0.18063294887542702, 0.00012450000000000002, 0.00012450000000000002
DataValue, 0.00012550000000000002, -3.4802116000000004E-07, 0.188477918505669, 0.00012550000000000002, 0.00012550000000000002
DataValue, 0.0001265, -3.4947731800000004E-07, 0.195537686347961, 0.0001265, 0.0001265
DataValue, 0.0001275, -3.8809969300000004E-07, 0.204027011990547, 0.0001275, 0.0001275
DataValue, 0.0001285, -3.29715419E-07, 0.21149522066116303, 0.0001285, 0.0001285
DataValue, 0.0001295, -3.67783059E-07, 0.219009205698967, 0.0001295, 0.0001295
DataValue, 0.0001305, -3.4885326300000003E-07, 0.22657600045204202, 0.0001305, 0.0001305
DataValue, 0.0001315, -4.1840127100000005E-07, 0.23424491286277802, 0.0001315, 0.0001315
DataValue, 0.0001325, -3.46773049E-07, 0.24162156879901903, 0.0001325, 0.0001325
DataValue, 0.00013350000000000002, -3.5169620100000004E-07, 0.24891373515129103, 0.00013350000000000002, 0.00013350000000000002
DataValue, 0.00013450000000000002, -3.99471446E-07, 0.25643828511238104, 0.00013450000000000002, 0.00013450000000000002
DataValue, 0.00013550000000000001, -3.39700364E-07, 0.26394522190094, 0.00013550000000000001, 0.00013550000000000001
DataValue, 0.0001365, -3.63345322E-07, 0.27140989899635304, 0.0001365, 0.0001365
DataValue, 0.0001375, -3.6431606500000004E-07, 0.278621077537537, 0.0001375, 0.0001375
DataValue, 0.0001385, -3.8220579800000004E-07, 0.286036461591721, 0.0001385, 0.0001385
DataValue, 0.0001395, -3.7901614300000005E-07, 0.29351171851158103, 0.0001395, 0.0001395
DataValue, 0.0001405, -3.9600445200000006E-07, 0.30120176076889005, 0.0001405, 0.0001405
DataValue, 0.0001415, -3.6285993600000004E-07, 0.308451652526856, 0.0001415, 0.0001415
DataValue, 0.00014250000000000002, -3.7825341800000005E-07, 0.31574383378028903, 0.00014250000000000002, 0.00014250000000000002
DataValue, 0.00014350000000000002, -4.01759678E-07, 0.32289865612983704, 0.00014350000000000002, 0.00014350000000000002
DataValue, 0.00014450000000000002, -4.1035781400000004E-07, 0.33011335134506203, 0.00014450000000000002, 0.00014450000000000002
DataValue, 0.0001455, -3.5634195700000003E-07, 0.338028728961945, 0.0001455, 0.0001455
DataValue, 0.0001465, -4.30813117E-07, 0.345937073230743, 0.0001465, 0.0001465
DataValue, 0.0001475, -3.8678223300000003E-07, 0.35345107316970803, 0.0001475, 0.0001475
DataValue, 0.0001485, -3.8213644900000004E-07, 0.36104956269264205, 0.0001485, 0.0001485
DataValue, 0.0001495, -3.7346893600000003E-07, 0.368648052215576, 0.0001495, 0.0001495
DataValue, 0.0001505, -4.69920877E-07, 0.37624654173851, 0.0001505, 0.0001505
DataValue, 0.0001515, -3.9101198000000004E-07, 0.38339433073997503, 0.0001515, 0.0001515
DataValue, 0.00015250000000000002, -3.9891674E-07, 0.390904784202576, 0.00015250000000000002, 0.00015250000000000002
DataValue, 0.00015350000000000002, -4.4495848800000006E-07, 0.398630052804947, 0.00015350000000000002, 0.00015350000000000002
DataValue, 0.00015450000000000002, -3.4822917900000003E-07, 0.406418681144714, 0.00015450000000000002, 0.00015450000000000002
DataValue, 0.0001555, -4.40382053E-07, 0.41418617963790905, 0.0001555, 0.0001555
DataValue, 0.0001565, -4.2720745300000005E-07, 0.42140790820121804, 0.0001565, 0.0001565
DataValue, 0.0001575, -3.7402367100000004E-07, 0.428925395011902, 0.0001575, 0.0001575
DataValue, 0.0001585, -4.1763851800000005E-07, 0.43624222278595004, 0.0001585, 0.0001585
DataValue, 0.0001595, -4.1479557900000004E-07, 0.443897038698196, 0.0001595, 0.0001595
DataValue, 0.0001605, -4.38787225E-07, 0.45135116577148404, 0.0001605, 0.0001605
DataValue, 0.00016150000000000002, -4.03978532E-07, 0.458463758230209, 0.00016150000000000002, 0.00016150000000000002
DataValue, 0.00016250000000000002, -4.7463601000000005E-07, 0.46587914228439303, 0.00016250000000000002, 0.00016250000000000002
DataValue, 0.00016350000000000002, -3.9246811000000005E-07, 0.47343185544014005, 0.00016350000000000002, 0.00016350000000000002
DataValue, 0.00016450000000000001, -4.36637691E-07, 0.48079091310501104, 0.00016450000000000001, 0.00016450000000000001
DataValue, 0.0001655, -4.3760843500000005E-07, 0.488185167312622, 0.0001655, 0.0001655
DataValue, 0.0001665, -4.12854064E-07, 0.49545621871948203, 0.0001665, 0.0001665
DataValue, 0.0001675, -4.3906459300000005E-07, 0.503051161766052, 0.0001675, 0.0001675
DataValue, 0.0001685, -4.1167527300000005E-07, 0.51032924652099609, 0.0001685, 0.0001685
DataValue, 0.0001695, -4.88920023E-07, 0.517938315868378, 0.0001695, 0.0001695
DataValue, 0.0001705, -4.0432524900000005E-07, 0.52535015344619707, 0.0001705, 0.0001705
DataValue, 0.00017150000000000002, -4.35042864E-07, 0.53298741579055808, 0.00017150000000000002, 0.00017150000000000002
DataValue, 0.00017250000000000002, -4.5639959000000003E-07, 0.540177464485168, 0.00017250000000000002, 0.00017250000000000002
DataValue, 0.00017350000000000002, -4.7727093000000008E-07, 0.54789918661117509, 0.00017350000000000002, 0.00017350000000000002
DataValue, 0.0001745, -4.2526593800000003E-07, 0.555536389350891, 0.0001745, 0.0001745
DataValue, 0.0001755, -4.2249232E-07, 0.562948286533356, 0.0001755, 0.0001755
DataValue, 0.0001765, -5.14714543E-07, 0.570187628269196, 0.0001765, 0.0001765
DataValue, 0.0001775, -4.10011125E-07, 0.57734596729278609, 0.0001775, 0.0001775
DataValue, 0.0001785, -4.43155642E-07, 0.585243761539459, 0.0001785, 0.0001785
DataValue, 0.0001795, -4.8309550500000008E-07, 0.592792928218842, 0.0001795, 0.0001795
DataValue, 0.00018050000000000002, -4.5043634600000004E-07, 0.600511133670807, 0.00018050000000000002, 0.00018050000000000002
DataValue, 0.00018150000000000002, -4.6735530600000004E-07, 0.60825753211975109, 0.00018150000000000002, 0.00018150000000000002
DataValue, 0.00018250000000000002, -4.38925895E-07, 0.6159088015556331, 0.00018250000000000002, 0.00018250000000000002
DataValue, 0.00018350000000000002, -5.01817283E-07, 0.623232662677765, 0.00018350000000000002, 0.00018350000000000002
DataValue, 0.0001845, -4.65413791E-07, 0.630989611148834, 0.0001845, 0.0001845
