
SetupTitle, FE PUND 3V - reverse
ApplicationTest, WGFMU Pattern Editor, Public
TestParameter, Name, ExecutionMode, Enable1, Channel1, OperationMode1, VForceRange1, InitMeasRange1, Enable2, Channel2, OperationMode2, VForceRange2, InitMeasRange2, RepeatCount, WaveformCh1, WaveformCh2, MeasurementEvent, Output_to_File_for_PatternValidation, Output_Enable, Output_Filename, DataDisplay_for_RunVector, DataDisplay_PatternValidation, DataDisplay_Mode, LogToFile, LogFile, WarningLevel, IForceRange1, IForceRange2, Result_Update_Interval_s
TestParameter, Value, Run Vector, Enable, WGFMU1:RS	RSWGFMU, Fast IV Imeas, Auto, 100uA (Imeas), Enable, WGFMU2:RS	RSWGFMU, PG Vmeas, Auto, 5V (Vmeas), 1, , Disable, C:\WGFMUPatternEditor_Pattern.csv, , Disable, x(time)_y(meas), Disable, C:\WGFMUPatternEditor_Log.log, 2, 10mA, 10mA, 10
MetaData, TestRecord.EntryPoint, true
MetaData, TestRecord.RecordTime, 04/22/2021 11:55:51
MetaData, TestRecord.TestTarget, FlashIntB_1_25um_D9
MetaData, TestRecord.IterationIndex, 3
MetaData, TestRecord.Preservation, true
MetaData, TestRecord.Flag, 
MetaData, TestRecord.Remarks, 
MetaData, TestRecord.LinkKey, a2699ecc-68cc-4441-bdb0-4c7e538b58d5
MetaData, TestRecord.Parameters, 
Dimension1, 5000, 5000, 5000, 5000, 5000
Dimension2, 1, 1, 1, 1, 1
DataName, Time, MeasResult1_value, MeasResult2_value, MeasResult1_time, MeasResult2_time
DataValue, 5.0000000000000008E-07, -1.6678880000000001E-09, -0.0019561578519640003, 5.0000000000000008E-07, 5.0000000000000008E-07
DataValue, 1.5E-06, 1.2893512000000001E-08, -0.001857567462139, 1.5E-06, 1.5E-06
DataValue, 2.5E-06, -1.4495787000000001E-08, -0.001825877814554, 2.5E-06, 2.5E-06
DataValue, 3.5000000000000004E-06, 2.1491671000000002E-08, -0.001769540482201, 3.5000000000000004E-06, 3.5000000000000004E-06
DataValue, 4.5E-06, -3.5400670000000004E-09, -0.001927989069372, 4.5E-06, 4.5E-06
DataValue, 5.5000000000000007E-06, -2.3787347E-08, -0.001720245345496, 5.5000000000000007E-06, 5.5000000000000007E-06
DataValue, 6.5000000000000004E-06, 1.1922752E-08, -0.0018927783239630002, 6.5000000000000004E-06, 6.5000000000000004E-06
DataValue, 7.5E-06, 4.5727120000000007E-09, -0.002082916675135, 7.5E-06, 7.5E-06
DataValue, 8.5E-06, -1.7372280000000002E-09, -0.0019350312650200001, 8.5E-06, 8.5E-06
DataValue, 9.5E-06, -2.2919480000000003E-09, -0.002082916675135, 9.5E-06, 9.5E-06
DataValue, 1.0500000000000001E-05, 6.2033200000000009E-10, -0.0021181274205450003, 1.0500000000000001E-05, 1.0500000000000001E-05
DataValue, 1.15E-05, -4.164127E-09, -0.001843483187258, 1.15E-05, 1.15E-05
DataValue, 1.25E-05, -1.321188E-09, -0.001706161070615, 1.25E-05, 1.25E-05
DataValue, 1.3500000000000001E-05, -1.5743908000000002E-08, -0.0016920767957340002, 1.3500000000000001E-05, 1.3500000000000001E-05
DataValue, 1.45E-05, -7.839147E-09, -0.0017448929138480002, 1.45E-05, 1.45E-05
DataValue, 1.55E-05, 1.1160012000000001E-08, -0.0016603870317340001, 1.55E-05, 1.55E-05
DataValue, 1.65E-05, -5.897627E-09, -0.001639260561205, 1.65E-05, 1.65E-05
DataValue, 1.7500000000000002E-05, 2.0867612E-08, -0.0017272875411440002, 1.7500000000000002E-05, 1.7500000000000002E-05
DataValue, 1.8500000000000002E-05, -7.908487E-09, -0.001491375267506, 1.8500000000000002E-05, 1.8500000000000002E-05
DataValue, 1.95E-05, 1.8232692000000003E-08, -0.001825877814554, 1.95E-05, 1.95E-05
DataValue, 2.05E-05, -2.2469887000000002E-08, -0.0019033415010200002, 2.05E-05, 2.05E-05
DataValue, 2.15E-05, -6.799047E-09, -0.0016955978935580002, 2.15E-05, 2.15E-05
DataValue, 2.25E-05, 1.7677971000000002E-08, -0.0016920767957340002, 2.25E-05, 2.25E-05
DataValue, 2.3500000000000002E-05, -9.711327E-09, -0.00157588114962, 2.3500000000000002E-05, 2.3500000000000002E-05
DataValue, 2.4500000000000003E-05, -2.1845826000000003E-08, -0.0017413719324400002, 2.4500000000000003E-05, 2.4500000000000003E-05
DataValue, 2.5500000000000003E-05, 6.444892E-09, -0.0016040498157960002, 2.5500000000000003E-05, 2.5500000000000003E-05
DataValue, 2.65E-05, 3.1199271000000004E-08, -0.0015265860129150002, 2.65E-05, 2.65E-05
DataValue, 2.75E-05, -2.3926026E-08, -0.0014702487969770002, 2.75E-05, 2.75E-05
DataValue, 2.85E-05, 3.532612E-09, -0.0014772908762100002, 2.85E-05, 2.85E-05
DataValue, 2.9500000000000002E-05, -1.0543407000000001E-08, -0.0014737697783860002, 2.9500000000000002E-05, 2.9500000000000002E-05
DataValue, 3.0500000000000003E-05, -4.2334670000000006E-09, -0.0015970076201480001, 3.0500000000000003E-05, 3.0500000000000003E-05
DataValue, 3.15E-05, -1.6506647E-08, -0.0015899654245, 3.15E-05, 3.15E-05
DataValue, 3.2500000000000004E-05, 7.693012E-09, -0.001685034600087, 3.2500000000000004E-05, 3.2500000000000004E-05
DataValue, 3.35E-05, 5.543472E-09, -0.001519543817267, 3.35E-05, 3.35E-05
DataValue, 3.4500000000000005E-05, -2.6491605000000003E-08, -0.0015829233452680001, 3.4500000000000005E-05, 3.4500000000000005E-05
DataValue, 3.55E-05, 1.383072E-09, -0.0013470109552140002, 3.55E-05, 3.55E-05
DataValue, 3.65E-05, 4.156672E-09, -0.0012941947206850002, 3.65E-05, 3.65E-05
DataValue, 3.7500000000000003E-05, -1.0543407000000001E-08, -0.0013892638962720002, 3.7500000000000003E-05, 3.7500000000000003E-05
DataValue, 3.85E-05, -6.3830070000000006E-09, -0.0013575741322710002, 3.85E-05, 3.85E-05
DataValue, 3.9500000000000005E-05, 8.1783920000000014E-09, -0.0015441913856190002, 3.9500000000000005E-05, 3.9500000000000005E-05
DataValue, 4.05E-05, -1.8517508000000003E-08, -0.0014808119740340002, 4.05E-05, 4.05E-05
DataValue, 4.1500000000000006E-05, -4.2334670000000006E-09, -0.0015441913856190002, 4.1500000000000006E-05, 4.1500000000000006E-05
DataValue, 4.25E-05, 3.8793120000000006E-09, -0.0014596855035050001, 4.25E-05, 4.25E-05
DataValue, 4.35E-05, -1.9904306000000002E-08, -0.0016603870317340001, 4.35E-05, 4.35E-05
DataValue, 4.4500000000000004E-05, 3.809972E-09, -0.001913904794492, 4.4500000000000004E-05, 4.4500000000000004E-05
DataValue, 4.55E-05, 1.2824172000000001E-08, -0.0016322183655570002, 4.55E-05, 4.55E-05
DataValue, 4.6500000000000005E-05, -9.7806670000000014E-09, -0.001766019384377, 4.6500000000000005E-05, 4.6500000000000005E-05
DataValue, 4.75E-05, -1.6229286E-08, -0.001769540482201, 4.75E-05, 4.75E-05
DataValue, 4.85E-05, 1.8440712E-08, -0.001766019384377, 4.85E-05, 4.85E-05
DataValue, 4.9500000000000004E-05, -9.0872670000000013E-09, -0.001639260561205, 4.9500000000000004E-05, 4.9500000000000004E-05
DataValue, 5.05E-05, -6.5910270000000004E-09, -0.0015547546790910002, 5.05E-05, 5.05E-05
DataValue, 5.1500000000000005E-05, 1.036372E-09, -0.0018117934232580002, 5.1500000000000005E-05, 5.1500000000000005E-05
DataValue, 5.25E-05, 7.2769720000000006E-09, -0.0018188356189060002, 5.25E-05, 5.25E-05
DataValue, 5.3500000000000006E-05, 7.970372E-09, -0.001825877814554, 5.3500000000000006E-05, 5.3500000000000006E-05
DataValue, 5.45E-05, 4.156672E-09, -0.001646302756853, 5.45E-05, 5.45E-05
DataValue, 5.55E-05, -2.5693070000000004E-09, -0.0018962994217870002, 5.55E-05, 5.55E-05
DataValue, 5.6500000000000005E-05, -7.908487E-09, -0.0016146129928530002, 5.6500000000000005E-05, 5.6500000000000005E-05
DataValue, 5.75E-05, 1.937792E-09, -0.0016181340906770002, 5.75E-05, 5.75E-05
DataValue, 5.8500000000000006E-05, 3.4388911000000006E-08, -0.001829398912378, 5.8500000000000006E-05, 5.8500000000000006E-05
DataValue, 5.95E-05, -3.6684586E-08, -0.001766019384377, 5.95E-05, 5.95E-05
DataValue, 6.0500000000000007E-05, 2.5998771000000003E-08, -0.0016110918950290002, 6.0500000000000007E-05, 6.0500000000000007E-05
DataValue, 6.15E-05, 7.4849920000000013E-09, -0.001847004285082, 6.15E-05, 6.15E-05
DataValue, 6.25E-05, -3.6129865E-08, -0.0014632066013290002, 6.25E-05, 6.25E-05
DataValue, 6.35E-05, 1.3864272000000002E-08, -0.0018153145210820002, 6.35E-05, 6.35E-05
DataValue, 6.4500000000000009E-05, -1.4981167E-08, -0.001639260561205, 6.4500000000000009E-05, 6.4500000000000009E-05
DataValue, 6.55E-05, 3.6712920000000003E-09, -0.001857567462139, 6.55E-05, 6.55E-05
DataValue, 6.65E-05, -1.459868E-09, -0.001649823854677, 6.65E-05, 6.65E-05
DataValue, 6.75E-05, -8.3938670000000012E-09, -0.001639260561205, 6.75E-05, 6.75E-05
DataValue, 6.85E-05, 1.1057120000000001E-09, -0.001501938444562, 6.85E-05, 6.85E-05
DataValue, 6.9500000000000009E-05, -1.043828E-09, -0.001519543817267, 6.9500000000000009E-05, 6.9500000000000009E-05
DataValue, 7.05E-05, 7.2769720000000006E-09, -0.0017589773051440002, 7.05E-05, 7.05E-05
DataValue, 7.15E-05, -2.2400547E-08, -0.001685034600087, 7.15E-05, 7.15E-05
DataValue, 7.25E-05, 3.948652E-09, -0.001642781659029, 7.25E-05, 7.25E-05
DataValue, 7.3500000000000011E-05, 1.0535952E-08, -0.0017484140116720002, 7.3500000000000011E-05, 7.3500000000000011E-05
DataValue, 7.4500000000000008E-05, -2.153268E-09, -0.0018223567167300002, 7.4500000000000008E-05, 7.4500000000000008E-05
DataValue, 7.55E-05, -3.1206724E-08, -0.001625176286325, 7.55E-05, 7.55E-05
DataValue, 7.65E-05, 1.4210972000000002E-08, -0.001913904794492, 7.65E-05, 7.65E-05
DataValue, 7.75E-05, -9.295287E-09, -0.001639260561205, 7.75E-05, 7.75E-05
DataValue, 7.8500000000000011E-05, -1.1444827E-08, -0.0019631998147820002, 7.8500000000000011E-05, 7.8500000000000011E-05
DataValue, 7.9500000000000008E-05, 1.6291171000000002E-08, -0.0017977091483770001, 7.9500000000000008E-05, 7.9500000000000008E-05
DataValue, 8.05E-05, -1.3733047000000001E-08, -0.0018012302462010001, 8.05E-05, 8.05E-05
DataValue, 8.15E-05, -2.1152427E-08, -0.0016815135022630002, 8.15E-05, 8.15E-05
DataValue, 8.25E-05, 1.3933612000000001E-08, -0.0015617967583240002, 8.25E-05, 8.25E-05
DataValue, 8.350000000000001E-05, -1.4634467E-08, -0.0016674292273820002, 8.350000000000001E-05, 8.350000000000001E-05
DataValue, 8.4500000000000008E-05, 8.109052E-09, -0.001709682168439, 8.4500000000000008E-05, 8.4500000000000008E-05
DataValue, 8.55E-05, -9.156607000000001E-09, -0.0016815135022630002, 8.55E-05, 8.55E-05
DataValue, 8.65E-05, 1.3170872000000002E-08, -0.00165686593391, 8.65E-05, 8.65E-05
DataValue, 8.75E-05, 7.5901200000000007E-10, -0.0014420801308010001, 8.75E-05, 8.75E-05
DataValue, 8.850000000000001E-05, -2.7773270000000002E-09, -0.0013399687595670002, 8.850000000000001E-05, 8.850000000000001E-05
DataValue, 8.9500000000000007E-05, 3.532612E-09, -0.001382221700624, 8.9500000000000007E-05, 8.9500000000000007E-05
DataValue, 9.05E-05, 4.2260120000000006E-09, -0.001558275776915, 9.05E-05, 9.05E-05
DataValue, 9.15E-05, -2.2261867000000002E-08, -0.001491375267506, 9.15E-05, 9.15E-05
DataValue, 9.2500000000000012E-05, 6.306212E-09, -0.0014667276991530002, 9.2500000000000012E-05, 9.2500000000000012E-05
DataValue, 9.3500000000000009E-05, 1.5667112E-08, -0.001646302756853, 9.3500000000000009E-05, 9.3500000000000009E-05
DataValue, 9.45E-05, -1.3039647000000001E-08, -0.001586444326676, 9.45E-05, 9.45E-05
DataValue, 9.55E-05, -2.3163286000000002E-08, -0.0013998271897440002, 9.55E-05, 9.55E-05
DataValue, 9.65E-05, 6.3755520000000006E-09, -0.001491375267506, 9.65E-05, 9.65E-05
DataValue, 9.7500000000000012E-05, -1.6678880000000001E-09, -0.001452643307857, 9.7500000000000012E-05, 9.7500000000000012E-05
DataValue, 9.8500000000000009E-05, 1.3309552000000001E-08, -0.0014596855035050001, 9.8500000000000009E-05, 9.8500000000000009E-05
DataValue, 9.95E-05, 1.2130772000000001E-08, -0.0015829233452680001, 9.95E-05, 9.95E-05
DataValue, 0.0001005, -1.92006183E-07, 0.0021001261193310003, 0.0001005, 0.0001005
DataValue, 0.0001015, -2.76462288E-07, 0.00922679156065, 0.0001015, 0.0001015
DataValue, 0.00010250000000000001, -2.89775585E-07, 0.017004856839776, 0.00010250000000000001, 0.00010250000000000001
DataValue, 0.00010350000000000001, -2.7230188900000005E-07, 0.024582220241427002, 0.00010350000000000001, 0.00010350000000000001
DataValue, 0.0001045, -2.9913647400000004E-07, 0.031987052410841, 0.0001045, 0.0001045
DataValue, 0.0001055, -2.97402977E-07, 0.039522159844637, 0.0001055, 0.0001055
DataValue, 0.0001065, -3.06763866E-07, 0.046860091388226006, 0.0001065, 0.0001065
DataValue, 0.00010750000000000001, -2.9622418700000004E-07, 0.054419849067926004, 0.00010750000000000001, 0.00010750000000000001
DataValue, 0.00010850000000000001, -2.95600131E-07, 0.062021858990192004, 0.00010850000000000001, 0.00010850000000000001
DataValue, 0.0001095, -3.16402122E-07, 0.069264724850655, 0.0001095, 0.0001095
DataValue, 0.0001105, -3.08566712E-07, 0.076585046947002008, 0.0001105, 0.0001105
DataValue, 0.00011150000000000001, -3.1307379800000005E-07, 0.084204666316509011, 0.00011150000000000001, 0.00011150000000000001
DataValue, 0.00011250000000000001, -3.3775884800000003E-07, 0.091419354081154008, 0.00011250000000000001, 0.00011250000000000001
DataValue, 0.00011350000000000001, -3.29715419E-07, 0.099144600331783, 0.00011350000000000001, 0.00011350000000000001
DataValue, 0.0001145, -3.27843225E-07, 0.10656704008579201, 0.0001145, 0.0001145
DataValue, 0.0001155, -3.41711228E-07, 0.11362680792808501, 0.0001155, 0.0001155
DataValue, 0.00011650000000000001, -3.36718756E-07, 0.121323883533478, 0.00011650000000000001, 0.00011650000000000001
DataValue, 0.00011750000000000001, -3.32211641E-07, 0.128806173801422, 0.00011750000000000001, 0.00011750000000000001
DataValue, 0.00011850000000000001, -3.50725429E-07, 0.136115938425064, 0.00011850000000000001, 0.00011850000000000001
DataValue, 0.0001195, -3.4815985800000003E-07, 0.143746122717857, 0.0001195, 0.0001195
DataValue, 0.0001205, -3.2506963500000004E-07, 0.15082348883152003, 0.0001205, 0.0001205
DataValue, 0.00012150000000000001, -3.76589242E-07, 0.158524096012115, 0.00012150000000000001, 0.00012150000000000001
DataValue, 0.0001225, -3.7152742E-07, 0.166136667132378, 0.0001225, 0.0001225
DataValue, 0.00012350000000000002, -3.6965525400000003E-07, 0.17369289696216603, 0.00012350000000000002, 0.00012350000000000002
DataValue, 0.00012450000000000002, -3.2506963500000004E-07, 0.181023791432381, 0.00012450000000000002, 0.00012450000000000002
DataValue, 0.00012550000000000002, -4.12854064E-07, 0.188784256577492, 0.00012550000000000002, 0.00012550000000000002
DataValue, 0.0001265, -3.8449400100000003E-07, 0.196358099579811, 0.0001265, 0.0001265
DataValue, 0.0001275, -3.6653494800000004E-07, 0.20457276701927202, 0.0001275, 0.0001275
DataValue, 0.0001285, -4.0945641900000005E-07, 0.21187196671962702, 0.0001285, 0.0001285
DataValue, 0.0001295, -3.8005623500000003E-07, 0.21948453783988903, 0.0001295, 0.0001295
DataValue, 0.0001305, -3.9551906600000004E-07, 0.22701613605022403, 0.0001305, 0.0001305
DataValue, 0.0001315, -3.80194933E-07, 0.234435051679611, 0.0001315, 0.0001315
DataValue, 0.0001325, -3.98847391E-07, 0.24190677702426902, 0.0001325, 0.0001325
DataValue, 0.00013350000000000002, -3.8643551600000005E-07, 0.24925526976585402, 0.00013350000000000002, 0.00013350000000000002
DataValue, 0.00013450000000000002, -3.8671288400000003E-07, 0.25658968091011003, 0.00013450000000000002, 0.00013450000000000002
DataValue, 0.00013550000000000001, -4.0564270900000006E-07, 0.264251559972763, 0.00013550000000000001, 0.00013550000000000001
DataValue, 0.0001365, -3.9787661900000003E-07, 0.271895825862885, 0.0001365, 0.0001365
DataValue, 0.0001375, -4.0945641900000005E-07, 0.27957880496978804, 0.0001375, 0.0001375
DataValue, 0.0001385, -4.4225421900000004E-07, 0.286691397428513, 0.0001385, 0.0001385
DataValue, 0.0001395, -3.8269115500000005E-07, 0.29389551281929005, 0.0001395, 0.0001395
DataValue, 0.0001405, -3.9600445200000006E-07, 0.30141302943229703, 0.0001405, 0.0001405
DataValue, 0.0001415, -4.1985740000000005E-07, 0.30880376696586603, 0.0001415, 0.0001415
DataValue, 0.00014250000000000002, -4.21729595E-07, 0.316479712724686, 0.00014250000000000002, 0.00014250000000000002
DataValue, 0.00014350000000000002, -3.9711389400000003E-07, 0.323465555906296, 0.00014350000000000002, 0.00014350000000000002
DataValue, 0.00014450000000000002, -4.6714728800000006E-07, 0.331085175275803, 0.00014450000000000002, 0.00014450000000000002
DataValue, 0.0001455, -4.01066274E-07, 0.33875760436058, 0.0001455, 0.0001455
DataValue, 0.0001465, -4.3719239800000003E-07, 0.346187084913254, 0.0001465, 0.0001465
DataValue, 0.0001475, -4.4745471000000004E-07, 0.353778511285782, 0.0001475, 0.0001475
DataValue, 0.0001485, -4.1306208200000006E-07, 0.36124673485755904, 0.0001485, 0.0001485
DataValue, 0.0001495, -4.3199190700000003E-07, 0.36874312162399303, 0.0001495, 0.0001495
DataValue, 0.0001505, -4.4426508300000005E-07, 0.37639793753624, 0.0001505, 0.0001505
DataValue, 0.0001515, -4.7186239300000004E-07, 0.38417249917984003, 0.0001515, 0.0001515
DataValue, 0.00015250000000000002, -4.2491922200000006E-07, 0.39164772629737804, 0.00015250000000000002, 0.00015250000000000002
DataValue, 0.00015350000000000002, -4.5265522900000004E-07, 0.39926031231880205, 0.00015350000000000002, 0.00015350000000000002
DataValue, 0.00015450000000000002, -4.7103031900000005E-07, 0.406950354576111, 0.00015450000000000002, 0.00015450000000000002
DataValue, 0.0001555, -4.4149149400000004E-07, 0.41429179906845104, 0.0001555, 0.0001555
DataValue, 0.0001565, -4.3844053700000004E-07, 0.421816349029541, 0.0001565, 0.0001565
DataValue, 0.0001575, -4.9342713700000009E-07, 0.42936202883720404, 0.0001575, 0.0001575
DataValue, 0.0001585, -4.6610719600000003E-07, 0.436604887247086, 0.0001585, 0.0001585
DataValue, 0.0001595, -4.4676133400000003E-07, 0.444125920534134, 0.0001595, 0.0001595
DataValue, 0.0001605, -4.4225421900000004E-07, 0.451798349618912, 0.0001605, 0.0001605
DataValue, 0.00016150000000000002, -4.8059922600000005E-07, 0.459234863519669, 0.00016150000000000002, 0.00016150000000000002
DataValue, 0.00016250000000000002, -4.4059007100000005E-07, 0.46657630801200906, 0.00016250000000000002, 0.00016250000000000002
DataValue, 0.00016350000000000002, -4.7740962800000006E-07, 0.473924815654755, 0.00016350000000000002, 0.00016350000000000002
DataValue, 0.00016450000000000001, -4.5452739500000006E-07, 0.481185287237167, 0.00016450000000000001, 0.00016450000000000001
DataValue, 0.0001655, -4.8163934700000008E-07, 0.48880487680435203, 0.0001655, 0.0001655
DataValue, 0.0001665, -4.8025253800000008E-07, 0.49621322751045205, 0.0001665, 0.0001665
DataValue, 0.0001675, -4.3954995E-07, 0.503427922725677, 0.0001675, 0.0001675
DataValue, 0.0001685, -4.92664412E-07, 0.510917246341705, 0.0001685, 0.0001685
DataValue, 0.0001695, -4.3642967300000003E-07, 0.51818126440048207, 0.0001695, 0.0001695
DataValue, 0.0001705, -4.82471421E-07, 0.52562481164932207, 0.0001705, 0.0001705
DataValue, 0.00017150000000000002, -4.7595347E-07, 0.53339231014251709, 0.00017150000000000002, 0.00017150000000000002
DataValue, 0.00017250000000000002, -4.8600776400000009E-07, 0.540585875511169, 0.00017250000000000002, 0.00017250000000000002
DataValue, 0.00017350000000000002, -5.03065394E-07, 0.54804706573486306, 0.00017350000000000002, 0.00017350000000000002
DataValue, 0.0001745, -4.8205538400000005E-07, 0.555726528167725, 0.0001745, 0.0001745
DataValue, 0.0001755, -4.9980644700000006E-07, 0.563265144824982, 0.0001755, 0.0001755
DataValue, 0.0001765, -4.7380393700000006E-07, 0.570515036582947, 0.0001765, 0.0001765
DataValue, 0.0001775, -4.8039123600000007E-07, 0.57817339897155806, 0.0001775, 0.0001775
DataValue, 0.0001785, -4.9696348E-07, 0.58574724197387706, 0.0001785, 0.0001785
DataValue, 0.0001795, -4.9682478200000006E-07, 0.59306055307388306, 0.0001795, 0.0001795
DataValue, 0.00018050000000000002, -4.97171527E-07, 0.600916087627411, 0.00018050000000000002, 0.00018050000000000002
DataValue, 0.00018150000000000002, -5.0396681700000008E-07, 0.60856032371521007, 0.00018150000000000002, 0.00018150000000000002
DataValue, 0.00018250000000000002, -5.3503112000000009E-07, 0.616507411003113, 0.00018250000000000002, 0.00018250000000000002
DataValue, 0.00018350000000000002, -4.62570853E-07, 0.623936891555786, 0.00018350000000000002, 0.00018350000000000002
