
SetupTitle, FE PUND 2V - reverse
ApplicationTest, WGFMU Pattern Editor, Public
TestParameter, Name, ExecutionMode, Enable1, Channel1, OperationMode1, VForceRange1, InitMeasRange1, Enable2, Channel2, OperationMode2, VForceRange2, InitMeasRange2, RepeatCount, WaveformCh1, WaveformCh2, MeasurementEvent, Output_to_File_for_PatternValidation, Output_Enable, Output_Filename, DataDisplay_for_RunVector, DataDisplay_PatternValidation, DataDisplay_Mode, LogToFile, LogFile, WarningLevel, IForceRange1, IForceRange2, Result_Update_Interval_s
TestParameter, Value, Run Vector, Enable, WGFMU1:RS	RSWGFMU, Fast IV Imeas, Auto, 10uA (Imeas), Enable, WGFMU2:RS	RSWGFMU, PG Vmeas, Auto, 5V (Vmeas), 1, , Disable, C:\WGFMUPatternEditor_Pattern.csv, , Disable, x(time)_y(meas), Disable, C:\WGFMUPatternEditor_Log.log, 2, 10mA, 10mA, 10
MetaData, TestRecord.EntryPoint, true
MetaData, TestRecord.RecordTime, 04/22/2021 11:57:03
MetaData, TestRecord.TestTarget, FlashIntB_1_25um_D8
MetaData, TestRecord.IterationIndex, 2
MetaData, TestRecord.Preservation, true
MetaData, TestRecord.Flag, 
MetaData, TestRecord.Remarks, 
MetaData, TestRecord.LinkKey, f6875086-4d91-4e01-be65-2563b2828b64
MetaData, TestRecord.Parameters, 
Dimension1, 5000, 5000, 5000, 5000, 5000
Dimension2, 1, 1, 1, 1, 1
DataName, Time, MeasResult1_value, MeasResult2_value, MeasResult1_time, MeasResult2_time
DataValue, 5.0000000000000008E-07, -5.7858320000000007E-09, -0.001572360051796, 5.0000000000000008E-07, 5.0000000000000008E-07
DataValue, 1.5E-06, 2.4890134000000003E-08, -0.0016885556979100002, 1.5E-06, 1.5E-06
DataValue, 2.5E-06, -6.3184740000000004E-09, -0.0021005219314250002, 2.5E-06, 2.5E-06
DataValue, 3.5000000000000004E-06, -3.3195864000000005E-08, -0.002072353381664, 3.5000000000000004E-06, 3.5000000000000004E-06
DataValue, 4.5E-06, 1.0529829E-08, -0.001843483187258, 4.5E-06, 4.5E-06
DataValue, 5.5000000000000007E-06, 2.2212907000000002E-08, -0.0018364409916100002, 5.5000000000000007E-06, 5.5000000000000007E-06
DataValue, 6.5000000000000004E-06, -1.3992722E-08, -0.002047705696896, 6.5000000000000004E-06, 6.5000000000000004E-06
DataValue, 7.5E-06, -1.3901611000000001E-08, -0.001625176286325, 7.5E-06, 7.5E-06
DataValue, 8.5E-06, 3.085432E-08, -0.001794188050553, 8.5E-06, 8.5E-06
DataValue, 9.5E-06, -2.8997803000000003E-08, -0.001762498402968, 9.5E-06, 9.5E-06
DataValue, 1.0500000000000001E-05, 5.1613600000000005E-09, -0.001713203266263, 1.0500000000000001E-05, 1.0500000000000001E-05
DataValue, 1.15E-05, 1.4818998000000001E-08, -0.0015441913856190002, 1.15E-05, 1.15E-05
DataValue, 1.25E-05, -2.9053610000000003E-09, -0.001702639972791, 1.25E-05, 1.25E-05
DataValue, 1.3500000000000001E-05, -2.0272289E-08, -0.001850525382906, 1.3500000000000001E-05, 1.3500000000000001E-05
DataValue, 1.45E-05, 2.0047299E-08, -0.002023058244959, 1.45E-05, 1.45E-05
DataValue, 1.55E-05, 1.50996E-09, -0.0020089738536630004, 1.55E-05, 1.55E-05
DataValue, 1.65E-05, -1.8968718000000002E-08, -0.0018329198937860002, 1.65E-05, 1.65E-05
DataValue, 1.7500000000000002E-05, 3.198268E-08, -0.0016040498157960002, 1.7500000000000002E-05, 1.7500000000000002E-05
DataValue, 1.8500000000000002E-05, -7.0823940000000008E-09, -0.0018153145210820002, 1.8500000000000002E-05, 1.8500000000000002E-05
DataValue, 1.95E-05, -2.2395847000000002E-08, -0.001702639972791, 1.95E-05, 1.95E-05
DataValue, 2.05E-05, 1.2464160000000001E-08, -0.001829398912378, 2.05E-05, 2.05E-05
DataValue, 2.15E-05, -9.7806460000000013E-09, -0.0016920767957340002, 2.15E-05, 2.15E-05
DataValue, 2.25E-05, 9.948129E-09, -0.0019737631082530002, 2.25E-05, 2.25E-05
DataValue, 2.3500000000000002E-05, -5.9257400000000009E-10, -0.001931510167196, 2.3500000000000002E-05, 2.3500000000000002E-05
DataValue, 2.4500000000000003E-05, 3.8017220000000006E-09, -0.001931510167196, 2.4500000000000003E-05, 2.4500000000000003E-05
DataValue, 2.5500000000000003E-05, -3.2978340000000004E-09, -0.0019033415010200002, 2.5500000000000003E-05, 2.5500000000000003E-05
DataValue, 2.65E-05, -5.9400180000000005E-09, -0.001702639972791, 2.65E-05, 2.65E-05
DataValue, 2.75E-05, 3.4232650000000004E-09, -0.0015794022474440001, 2.75E-05, 2.75E-05
DataValue, 2.85E-05, 4.481541E-09, -0.001843483187258, 2.85E-05, 2.85E-05
DataValue, 2.9500000000000002E-05, 3.6965950000000003E-09, -0.0016744713066150002, 2.9500000000000002E-05, 2.9500000000000002E-05
DataValue, 3.0500000000000003E-05, -3.942611E-09, -0.001625176286325, 3.0500000000000003E-05, 3.0500000000000003E-05
DataValue, 3.15E-05, 6.962531E-09, -0.001628697384149, 3.15E-05, 3.15E-05
DataValue, 3.2500000000000004E-05, -5.358317E-09, -0.001776582677849, 3.2500000000000004E-05, 3.2500000000000004E-05
DataValue, 3.35E-05, 2.27388E-09, -0.001625176286325, 3.35E-05, 3.35E-05
DataValue, 3.4500000000000005E-05, -6.4025750000000005E-09, -0.001927989069372, 3.4500000000000005E-05, 3.4500000000000005E-05
DataValue, 3.55E-05, 3.184978E-09, -0.0017448929138480002, 3.55E-05, 3.55E-05
DataValue, 3.65E-05, 2.0404729000000003E-08, -0.001847004285082, 3.65E-05, 3.65E-05
DataValue, 3.7500000000000003E-05, -2.4197018E-08, -0.0019772842060770002, 3.7500000000000003E-05, 3.7500000000000003E-05
DataValue, 3.85E-05, -7.1104280000000004E-09, -0.0018751729512590002, 3.85E-05, 3.85E-05
DataValue, 3.9500000000000005E-05, 3.7652512E-08, -0.002026579342782, 3.9500000000000005E-05, 3.9500000000000005E-05
DataValue, 4.05E-05, -1.4637498E-08, -0.0018153145210820002, 4.05E-05, 4.05E-05
DataValue, 4.1500000000000006E-05, -2.9123955000000002E-08, -0.0017836248734970001, 4.1500000000000006E-05, 4.1500000000000006E-05
DataValue, 4.25E-05, 1.4945149E-08, -0.002037142636254, 4.25E-05, 4.25E-05
DataValue, 4.35E-05, 8.49738E-09, -0.001924467971548, 4.35E-05, 4.35E-05
DataValue, 4.4500000000000004E-05, -9.276038E-09, -0.0019033415010200002, 4.4500000000000004E-05, 4.4500000000000004E-05
DataValue, 4.55E-05, 1.208597E-09, -0.0017413719324400002, 4.55E-05, 4.55E-05
DataValue, 4.6500000000000005E-05, 1.5127370000000003E-08, -0.0019631998147820002, 4.6500000000000005E-05, 4.6500000000000005E-05
DataValue, 4.75E-05, -2.5108116000000003E-08, -0.0019209469901400001, 4.75E-05, 4.75E-05
DataValue, 4.85E-05, 9.84326E-10, -0.0019420734606680002, 4.85E-05, 4.85E-05
DataValue, 4.9500000000000004E-05, 1.1461952000000002E-08, -0.001931510167196, 4.9500000000000004E-05, 4.9500000000000004E-05
DataValue, 5.05E-05, 8.8828450000000011E-09, -0.0019174258923160001, 5.05E-05, 5.05E-05
DataValue, 5.1500000000000005E-05, -1.3277860000000002E-08, -0.0019350312650200001, 5.1500000000000005E-05, 5.1500000000000005E-05
DataValue, 5.25E-05, -5.771815E-09, -0.0017484140116720002, 5.25E-05, 5.25E-05
DataValue, 5.3500000000000006E-05, 9.191216E-09, -0.0018082724418490002, 5.3500000000000006E-05, 5.3500000000000006E-05
DataValue, 5.45E-05, -7.706146E-09, -0.0016991188749670002, 5.45E-05, 5.45E-05
DataValue, 5.55E-05, -2.0853730000000003E-09, -0.0016920767957340002, 5.55E-05, 5.55E-05
DataValue, 5.6500000000000005E-05, 1.1251699E-08, -0.0017589773051440002, 5.6500000000000005E-05, 5.6500000000000005E-05
DataValue, 5.75E-05, 4.138127E-09, -0.0017272875411440002, 5.75E-05, 5.75E-05
DataValue, 5.8500000000000006E-05, -4.461236E-09, -0.0017237664433200001, 5.8500000000000006E-05, 5.8500000000000006E-05
DataValue, 5.95E-05, 5.6382E-10, -0.001998410793021, 5.95E-05, 5.95E-05
DataValue, 6.0500000000000007E-05, -1.1238402E-08, -0.0017308086389680002, 6.0500000000000007E-05, 6.0500000000000007E-05
DataValue, 6.15E-05, 5.9813480000000008E-09, -0.002012494951487, 6.15E-05, 6.15E-05
DataValue, 6.25E-05, -1.167266E-09, -0.001720245345496, 6.25E-05, 6.25E-05
DataValue, 6.35E-05, 8.81276E-09, -0.001906862598844, 6.35E-05, 6.35E-05
DataValue, 6.4500000000000009E-05, -6.374541E-09, -0.001702639972791, 6.4500000000000009E-05, 6.4500000000000009E-05
DataValue, 6.55E-05, -9.871756E-09, -0.001776582677849, 6.55E-05, 6.55E-05
DataValue, 6.65E-05, 1.19458E-09, -0.001572360051796, 6.65E-05, 6.65E-05
DataValue, 6.75E-05, -1.5877730000000001E-09, -0.0016146129928530002, 6.75E-05, 6.75E-05
DataValue, 6.85E-05, 2.0418746E-08, -0.002001931890845, 6.85E-05, 6.85E-05
DataValue, 6.9500000000000009E-05, -2.0272289E-08, -0.002030100440606, 6.9500000000000009E-05, 6.9500000000000009E-05
DataValue, 7.05E-05, -2.5024015E-08, -0.0017237664433200001, 7.05E-05, 7.05E-05
DataValue, 7.15E-05, 3.1807470000000006E-08, -0.001762498402968, 7.15E-05, 7.15E-05
DataValue, 7.25E-05, 1.3886875E-08, -0.002072353381664, 7.25E-05, 7.25E-05
DataValue, 7.3500000000000011E-05, -2.2045425000000003E-08, -0.0018962994217870002, 7.3500000000000011E-05, 7.3500000000000011E-05
DataValue, 7.4500000000000008E-05, -5.7928400000000004E-09, -0.00206883228384, 7.4500000000000008E-05, 7.4500000000000008E-05
DataValue, 7.55E-05, 2.2051713000000002E-08, -0.002054747892544, 7.55E-05, 7.55E-05
DataValue, 7.65E-05, -2.5766910000000003E-08, -0.0017554562073200002, 7.65E-05, 7.65E-05
DataValue, 7.75E-05, 1.9563716E-08, -0.0019631998147820002, 7.75E-05, 7.75E-05
DataValue, 7.8500000000000011E-05, 8.595499E-09, -0.002037142636254, 7.8500000000000011E-05, 7.8500000000000011E-05
DataValue, 7.9500000000000008E-05, -2.1659961E-08, -0.002040663734078, 7.9500000000000008E-05, 7.9500000000000008E-05
DataValue, 8.05E-05, 1.0375643E-08, -0.0019843264017250003, 8.05E-05, 8.05E-05
DataValue, 8.15E-05, 6.906463E-09, -0.0018962994217870002, 8.15E-05, 8.15E-05
DataValue, 8.25E-05, -8.371948E-09, -0.0021110852248970003, 8.25E-05, 8.25E-05
DataValue, 8.350000000000001E-05, -1.4658524000000001E-08, -0.0018751729512590002, 8.350000000000001E-05, 8.350000000000001E-05
DataValue, 8.4500000000000008E-05, 1.8119975E-08, -0.0021462959703060004, 8.4500000000000008E-05, 8.4500000000000008E-05
DataValue, 8.55E-05, -4.2369650000000006E-09, -0.002023058244959, 8.55E-05, 8.55E-05
DataValue, 8.65E-05, -8.5401510000000009E-09, -0.001927989069372, 8.65E-05, 8.65E-05
DataValue, 8.75E-05, 1.9038081E-08, -0.002082916675135, 8.75E-05, 8.75E-05
DataValue, 8.850000000000001E-05, -1.6396619000000002E-08, -0.002213196596131, 8.850000000000001E-05, 8.850000000000001E-05
DataValue, 8.9500000000000007E-05, -5.526519E-09, -0.0020054527558390003, 8.9500000000000007E-05, 8.9500000000000007E-05
DataValue, 9.05E-05, 1.1006404E-08, -0.00205122679472, 9.05E-05, 9.05E-05
DataValue, 9.15E-05, 1.7524258E-08, -0.0018892572261390002, 9.15E-05, 9.15E-05
DataValue, 9.2500000000000012E-05, -1.6158332E-08, -0.002072353381664, 9.2500000000000012E-05, 9.2500000000000012E-05
DataValue, 9.3500000000000009E-05, -5.827883E-09, -0.002072353381664, 9.3500000000000009E-05, 9.3500000000000009E-05
DataValue, 9.45E-05, -6.27616E-10, -0.002037142636254, 9.45E-05, 9.45E-05
DataValue, 9.55E-05, 3.3952320000000003E-09, -0.0021075641270730003, 9.55E-05, 9.55E-05
DataValue, 9.65E-05, 1.1868442000000001E-08, -0.0020089738536630004, 9.65E-05, 9.65E-05
DataValue, 9.7500000000000012E-05, -1.746891E-08, -0.0019526366377250002, 9.7500000000000012E-05, 9.7500000000000012E-05
DataValue, 9.8500000000000009E-05, 6.9765470000000006E-09, -0.001998410793021, 9.8500000000000009E-05, 9.8500000000000009E-05
DataValue, 9.95E-05, -2.148449E-09, -0.001924467971548, 9.95E-05, 9.95E-05
DataValue, 0.0001005, -9.826927500000001E-08, 0.00027268572012000003, 0.0001005, 0.0001005
DataValue, 0.0001015, -1.7409365700000002E-07, 0.0051458599045870008, 0.0001015, 0.0001015
DataValue, 0.00010250000000000001, -1.6952414200000002E-07, 0.010019034147263, 0.00010250000000000001, 0.00010250000000000001
DataValue, 0.00010350000000000001, -1.58163459E-07, 0.015191500075161, 0.00010350000000000001, 0.00010350000000000001
DataValue, 0.0001045, -2.1961349700000003E-07, 0.020332276821136003, 0.0001045, 0.0001045
DataValue, 0.0001055, -1.37453497E-07, 0.025318125262856, 0.0001055, 0.0001055
DataValue, 0.0001065, -1.6181485300000002E-07, 0.030103273689747002, 0.0001065, 0.0001065
DataValue, 0.00010750000000000001, -2.0097805E-07, 0.035141937434673004, 0.00010750000000000001, 0.00010750000000000001
DataValue, 0.00010850000000000001, -1.6934893700000003E-07, 0.040170039981604004, 0.00010850000000000001, 0.00010850000000000001
DataValue, 0.0001095, -1.5892037200000002E-07, 0.045155890285969, 0.0001095, 0.0001095
DataValue, 0.0001105, -1.8571366E-07, 0.050064273178577007, 0.0001105, 0.0001105
DataValue, 0.00011150000000000001, -1.8569963300000002E-07, 0.055377583950758, 0.00011150000000000001, 0.00011150000000000001
DataValue, 0.00011250000000000001, -1.54392907E-07, 0.060166250914335008, 0.00011250000000000001, 0.00011250000000000001
DataValue, 0.00011350000000000001, -1.8497075900000002E-07, 0.065412662923336, 0.00011350000000000001, 0.00011350000000000001
DataValue, 0.0001145, -1.7581773200000003E-07, 0.070282310247421, 0.0001145, 0.0001145
DataValue, 0.0001155, -1.60854697E-07, 0.075035773217678, 0.0001155, 0.0001155
DataValue, 0.00011650000000000001, -1.94446173E-07, 0.080053307116032008, 0.00011650000000000001, 0.00011650000000000001
DataValue, 0.00011750000000000001, -1.5507973200000002E-07, 0.084778599441051011, 0.00011750000000000001, 0.00011750000000000001
DataValue, 0.00011850000000000001, -1.8445213400000003E-07, 0.089694023132324011, 0.00011850000000000001, 0.00011850000000000001
DataValue, 0.0001195, -1.7673583800000002E-07, 0.094919309020042, 0.0001195, 0.0001195
DataValue, 0.0001205, -1.7262888700000002E-07, 0.09999318420887, 0.0001205, 0.0001205
DataValue, 0.00012150000000000001, -1.7593687600000002E-07, 0.10502833127975501, 0.00012150000000000001, 0.00012150000000000001
DataValue, 0.0001225, -1.72271456E-07, 0.10987333208322501, 0.0001225, 0.0001225
DataValue, 0.00012350000000000002, -1.74191769E-07, 0.114778198301792, 0.00012350000000000002, 0.00012350000000000002
DataValue, 0.00012450000000000002, -1.75495344E-07, 0.119742922484875, 0.00012450000000000002, 0.00012450000000000002
DataValue, 0.00012550000000000002, -1.8534920800000001E-07, 0.12458088248968101, 0.00012550000000000002, 0.00012550000000000002
DataValue, 0.0001265, -1.7117814400000002E-07, 0.129577293992043, 0.0001265, 0.0001265
DataValue, 0.0001275, -1.87718072E-07, 0.13448567688465102, 0.0001275, 0.0001275
DataValue, 0.0001285, -1.7086276200000002E-07, 0.139693364500999, 0.0001285, 0.0001285
DataValue, 0.0001295, -1.76161137E-07, 0.14490455389022802, 0.0001295, 0.0001295
DataValue, 0.0001305, -1.8813857100000002E-07, 0.14964392781257602, 0.0001305, 0.0001305
DataValue, 0.0001315, -1.74254851E-07, 0.1545769572258, 0.0001315, 0.0001315
DataValue, 0.0001325, -1.7910468800000002E-07, 0.15937267243862102, 0.0001325, 0.0001325
DataValue, 0.00013350000000000002, -1.74254851E-07, 0.164668381214142, 0.00013350000000000002, 0.00013350000000000002
DataValue, 0.00013450000000000002, -1.82770108E-07, 0.16946761310100603, 0.00013450000000000002, 0.00013450000000000002
DataValue, 0.00013550000000000001, -1.5667765800000003E-07, 0.174316138029098, 0.00013550000000000001, 0.00013550000000000001
DataValue, 0.0001365, -2.0923400300000002E-07, 0.17924916744232203, 0.0001365, 0.0001365
DataValue, 0.0001375, -1.88615147E-07, 0.18437585234642, 0.0001375, 0.0001375
DataValue, 0.0001385, -1.3885518500000002E-07, 0.189523681998253, 0.0001385, 0.0001385
DataValue, 0.0001395, -2.10145089E-07, 0.19435812532901803, 0.0001395, 0.0001395
DataValue, 0.0001405, -1.97719118E-07, 0.20023480057716403, 0.0001405, 0.0001405
DataValue, 0.0001415, -1.6864108E-07, 0.20538966357708002, 0.0001415, 0.0001415
DataValue, 0.00014250000000000002, -1.8386342000000003E-07, 0.21025227010250103, 0.00014250000000000002, 0.00014250000000000002
DataValue, 0.00014350000000000002, -1.85188014E-07, 0.215329676866531, 0.00014350000000000002, 0.00014350000000000002
DataValue, 0.00014450000000000002, -1.7072959200000002E-07, 0.220241576433182, 0.00014450000000000002, 0.00014450000000000002
DataValue, 0.0001455, -1.7836880800000002E-07, 0.22538235783577001, 0.0001455, 0.0001455
DataValue, 0.0001465, -1.9544837900000002E-07, 0.23037172853946702, 0.0001465, 0.0001465
DataValue, 0.0001475, -1.7071558000000002E-07, 0.235227286815643, 0.0001475, 0.0001475
DataValue, 0.0001485, -1.71016936E-07, 0.24018849432468403, 0.0001485, 0.0001485
DataValue, 0.0001495, -2.05575589E-07, 0.245413780212402, 0.0001495, 0.0001495
DataValue, 0.0001505, -1.64751398E-07, 0.25038555264473, 0.0001505, 0.0001505
DataValue, 0.0001515, -1.7489261900000002E-07, 0.255308002233505, 0.0001515, 0.0001515
DataValue, 0.00015250000000000002, -2.0022113700000002E-07, 0.260371327400207, 0.00015250000000000002, 0.00015250000000000002
DataValue, 0.00015350000000000002, -1.6819954900000002E-07, 0.26513534784317, 0.00015350000000000002, 0.00015350000000000002
DataValue, 0.00015450000000000002, -1.8073065200000001E-07, 0.269902884960175, 0.00015450000000000002, 0.00015450000000000002
DataValue, 0.0001555, -1.96955199E-07, 0.275159865617752, 0.0001555, 0.0001555
DataValue, 0.0001565, -1.7816555000000002E-07, 0.28027245402336104, 0.0001565, 0.0001565
DataValue, 0.0001575, -1.76890026E-07, 0.28504705429077104, 0.0001575, 0.0001575
DataValue, 0.0001585, -1.7943408200000002E-07, 0.289937824010849, 0.0001585, 0.0001585
DataValue, 0.0001595, -1.8584681500000003E-07, 0.29469481110572804, 0.0001595, 0.0001595
DataValue, 0.0001605, -1.73862375E-07, 0.299511641263962, 0.0001605, 0.0001605
DataValue, 0.00016150000000000002, -1.9894560000000002E-07, 0.30461016297340404, 0.00016150000000000002, 0.00016150000000000002
DataValue, 0.00016250000000000002, -1.9570769900000001E-07, 0.30942347645759605, 0.00016250000000000002, 0.00016250000000000002
DataValue, 0.00016350000000000002, -1.70112855E-07, 0.314581871032715, 0.00016350000000000002, 0.00016350000000000002
DataValue, 0.00016450000000000001, -1.79006577E-07, 0.319662779569626, 0.00016450000000000001, 0.00016450000000000001
DataValue, 0.0001655, -1.8880437800000002E-07, 0.32466974854469305, 0.0001655, 0.0001655
DataValue, 0.0001665, -1.8370923300000002E-07, 0.32966265082359303, 0.0001665, 0.0001665
DataValue, 0.0001675, -1.9460736700000002E-07, 0.334412574768066, 0.0001675, 0.0001675
DataValue, 0.0001685, -1.8226549500000002E-07, 0.33960264921188305, 0.0001685, 0.0001685
DataValue, 0.0001695, -1.8035218800000002E-07, 0.344282180070877, 0.0001695, 0.0001695
DataValue, 0.0001705, -1.9282021000000002E-07, 0.34935605525970503, 0.0001705, 0.0001705
DataValue, 0.00017150000000000002, -2.11848146E-07, 0.354387670755386, 0.00017150000000000002, 0.00017150000000000002
DataValue, 0.00017250000000000002, -1.72530761E-07, 0.359627038240433, 0.00017250000000000002, 0.00017250000000000002
DataValue, 0.00017350000000000002, -1.9209834100000002E-07, 0.36437344551086404, 0.00017350000000000002, 0.00017350000000000002
DataValue, 0.0001745, -2.0912186500000003E-07, 0.36961987614631603, 0.0001745, 0.0001745
DataValue, 0.0001755, -1.67449642E-07, 0.37458106875419606, 0.0001755, 0.0001755
DataValue, 0.0001765, -1.96415556E-07, 0.37929579615593, 0.0001765, 0.0001765
DataValue, 0.0001775, -1.97158442E-07, 0.384619653224945, 0.0001775, 0.0001775
DataValue, 0.0001785, -1.9524513600000002E-07, 0.389373123645782, 0.0001785, 0.0001785
DataValue, 0.0001795, -1.8898659000000002E-07, 0.39447867870330805, 0.0001795, 0.0001795
DataValue, 0.00018050000000000002, -2.00375325E-07, 0.39961242675781206, 0.00018050000000000002, 0.00018050000000000002
DataValue, 0.00018150000000000002, -2.1408384000000003E-07, 0.404901087284088, 0.00018150000000000002, 0.00018150000000000002
DataValue, 0.00018250000000000002, -1.8609210900000002E-07, 0.409629881381988, 0.00018250000000000002, 0.00018250000000000002
DataValue, 0.00018350000000000002, -2.1447631600000003E-07, 0.41496431827545205, 0.00018350000000000002, 0.00018350000000000002
DataValue, 0.0001845, -1.8682098400000002E-07, 0.41966849565506004, 0.0001845, 0.0001845
DataValue, 0.0001855, -2.0053651900000002E-07, 0.42479518055915805, 0.0001855, 0.0001855
