
SetupTitle, FE PUND 2.5V - reverse
ApplicationTest, WGFMU Pattern Editor, Public
TestParameter, Name, ExecutionMode, Enable1, Channel1, OperationMode1, VForceRange1, InitMeasRange1, Enable2, Channel2, OperationMode2, VForceRange2, InitMeasRange2, RepeatCount, WaveformCh1, WaveformCh2, MeasurementEvent, Output_to_File_for_PatternValidation, Output_Enable, Output_Filename, DataDisplay_for_RunVector, DataDisplay_PatternValidation, DataDisplay_Mode, LogToFile, LogFile, WarningLevel, IForceRange1, IForceRange2, Result_Update_Interval_s
TestParameter, Value, Run Vector, Enable, WGFMU1:RS	RSWGFMU, Fast IV Imeas, Auto, 10uA (Imeas), Enable, WGFMU2:RS	RSWGFMU, PG Vmeas, Auto, 5V (Vmeas), 1, , Disable, C:\WGFMUPatternEditor_Pattern.csv, , Disable, x(time)_y(meas), Disable, C:\WGFMUPatternEditor_Log.log, 2, 10mA, 10mA, 10
MetaData, TestRecord.EntryPoint, true
MetaData, TestRecord.RecordTime, 04/22/2021 11:57:19
MetaData, TestRecord.TestTarget, FlashIntB_1_25um_D8
MetaData, TestRecord.IterationIndex, 2
MetaData, TestRecord.Preservation, true
MetaData, TestRecord.Flag, 
MetaData, TestRecord.Remarks, 
MetaData, TestRecord.LinkKey, 0625ee69-5cd1-4533-acb0-2ed217a9ca96
MetaData, TestRecord.Parameters, 
Dimension1, 5000, 5000, 5000, 5000, 5000
Dimension2, 1, 1, 1, 1, 1
DataName, Time, MeasResult1_value, MeasResult2_value, MeasResult1_time, MeasResult2_time
DataValue, 5.0000000000000008E-07, 1.5688045000000002E-08, -0.0016639081295580002, 5.0000000000000008E-07, 5.0000000000000008E-07
DataValue, 1.5E-06, -2.3482157000000002E-08, -0.0014808119740340002, 1.5E-06, 1.5E-06
DataValue, 2.5E-06, 5.168368E-09, -0.001766019384377, 2.5E-06, 2.5E-06
DataValue, 3.5000000000000004E-06, -4.159872E-09, -0.001773061580025, 3.5000000000000004E-06, 3.5000000000000004E-06
DataValue, 4.5E-06, -9.8297050000000013E-09, -0.00150898064021, 4.5E-06, 4.5E-06
DataValue, 5.5000000000000007E-06, 9.8920610000000014E-09, -0.001899820519611, 5.5000000000000007E-06, 5.5000000000000007E-06
DataValue, 6.5000000000000004E-06, 1.4188500000000001E-09, -0.001787145854905, 6.5000000000000004E-06, 6.5000000000000004E-06
DataValue, 7.5E-06, 8.6515660000000009E-09, -0.001843483187258, 7.5E-06, 7.5E-06
DataValue, 8.5E-06, -1.0011925000000002E-08, -0.0019420734606680002, 8.5E-06, 8.5E-06
DataValue, 9.5E-06, 1.6907515000000002E-08, -0.002072353381664, 9.5E-06, 9.5E-06
DataValue, 1.0500000000000001E-05, -1.1588825000000001E-08, -0.0018822150304910002, 1.0500000000000001E-05, 1.0500000000000001E-05
DataValue, 1.15E-05, -1.7174555E-08, -0.00214981706813, 1.15E-05, 1.15E-05
DataValue, 1.25E-05, 1.6080518000000002E-08, -0.002058268990368, 1.25E-05, 1.25E-05
DataValue, 1.3500000000000001E-05, -3.977653E-09, -0.001847004285082, 1.3500000000000001E-05, 1.3500000000000001E-05
DataValue, 1.45E-05, -7.3276900000000008E-09, -0.002037142636254, 1.45E-05, 1.45E-05
DataValue, 1.55E-05, 1.5407707E-08, -0.00223080185242, 1.55E-05, 1.55E-05
DataValue, 1.65E-05, 3.6195020000000004E-09, -0.0020793955773120002, 1.65E-05, 1.65E-05
DataValue, 1.7500000000000002E-05, -1.7167547E-08, -0.0021110852248970003, 1.7500000000000002E-05, 1.7500000000000002E-05
DataValue, 1.8500000000000002E-05, 4.334364E-09, -0.0019843264017250003, 1.8500000000000002E-05, 1.8500000000000002E-05
DataValue, 1.95E-05, 1.0347610000000001E-08, -0.0019526366377250002, 1.95E-05, 1.95E-05
DataValue, 2.05E-05, -1.0866954000000001E-08, -0.0019702420104300003, 2.05E-05, 2.05E-05
DataValue, 2.15E-05, 1.8119975E-08, -0.0017413719324400002, 2.15E-05, 2.15E-05
DataValue, 2.25E-05, -1.5983121E-08, -0.0016357394633810002, 2.25E-05, 2.25E-05
DataValue, 2.3500000000000002E-05, 1.1174606000000001E-08, -0.0018892572261390002, 2.3500000000000002E-05, 2.3500000000000002E-05
DataValue, 2.4500000000000003E-05, -1.093704E-08, -0.002030100440606, 2.4500000000000003E-05, 2.4500000000000003E-05
DataValue, 2.5500000000000003E-05, 6.33177E-09, -0.0019843264017250003, 2.5500000000000003E-05, 2.5500000000000003E-05
DataValue, 2.65E-05, 1.930467E-09, -0.002058268990368, 2.65E-05, 2.65E-05
DataValue, 2.75E-05, -1.0894989E-08, -0.00206883228384, 2.75E-05, 2.75E-05
DataValue, 2.85E-05, 5.2454610000000005E-09, -0.0020793955773120002, 2.85E-05, 2.85E-05
DataValue, 2.9500000000000002E-05, 3.3181390000000004E-09, -0.0021181274205450003, 2.9500000000000002E-05, 2.9500000000000002E-05
DataValue, 3.0500000000000003E-05, -3.115614E-09, -0.0023857294581830003, 3.0500000000000003E-05, 3.0500000000000003E-05
DataValue, 3.15E-05, 7.453122E-09, -0.0024103769101200003, 3.15E-05, 3.15E-05
DataValue, 3.2500000000000004E-05, 7.46039E-10, -0.002213196596131, 3.2500000000000004E-05, 3.2500000000000004E-05
DataValue, 3.35E-05, -9.822696E-09, -0.002174464752898, 3.35E-05, 3.35E-05
DataValue, 3.4500000000000005E-05, 6.9134710000000008E-09, -0.0022765758913010003, 3.4500000000000005E-05, 3.4500000000000005E-05
DataValue, 3.55E-05, 1.7299987000000002E-08, -0.002072353381664, 3.55E-05, 3.55E-05
DataValue, 3.65E-05, -3.1086319000000004E-08, -0.0019631998147820002, 3.65E-05, 3.65E-05
DataValue, 3.7500000000000003E-05, 2.133711E-09, -0.0020089738536630004, 3.7500000000000003E-05, 3.7500000000000003E-05
DataValue, 3.85E-05, 1.7552292E-08, -0.0022272809874270003, 3.85E-05, 3.85E-05
DataValue, 3.9500000000000005E-05, 4.509574E-09, -0.0022448862437160003, 3.9500000000000005E-05, 3.9500000000000005E-05
DataValue, 4.05E-05, -1.5877994E-08, -0.002061790088192, 4.05E-05, 4.05E-05
DataValue, 4.1500000000000006E-05, 5.364605E-09, -0.0022413651458920002, 4.1500000000000006E-05, 4.1500000000000006E-05
DataValue, 4.25E-05, 5.8902380000000007E-09, -0.0021427748724820003, 4.25E-05, 4.25E-05
DataValue, 4.35E-05, -1.3474097000000002E-08, -0.0018117934232580002, 4.35E-05, 4.35E-05
DataValue, 4.4500000000000004E-05, 1.1959552E-08, -0.0019702420104300003, 4.4500000000000004E-05, 4.4500000000000004E-05
DataValue, 4.55E-05, 1.755255E-09, -0.0018646096577870001, 4.55E-05, 4.55E-05
DataValue, 4.6500000000000005E-05, -2.4070866E-08, -0.001762498402968, 4.6500000000000005E-05, 4.6500000000000005E-05
DataValue, 4.75E-05, 1.5533859E-08, -0.0015547546790910002, 4.75E-05, 4.75E-05
DataValue, 4.85E-05, 1.1539045000000001E-08, -0.0015829233452680001, 4.85E-05, 4.85E-05
DataValue, 4.9500000000000004E-05, -5.862925E-09, -0.0015477124834430002, 4.9500000000000004E-05, 4.9500000000000004E-05
DataValue, 5.05E-05, -5.38635E-09, -0.0016955978935580002, 5.05E-05, 5.05E-05
DataValue, 5.1500000000000005E-05, 9.422495E-09, -0.001769540482201, 5.1500000000000005E-05, 5.1500000000000005E-05
DataValue, 5.25E-05, -1.0187136000000001E-08, -0.0018786939326670001, 5.25E-05, 5.25E-05
DataValue, 5.3500000000000006E-05, 1.7061960000000001E-09, -0.0019843264017250003, 5.3500000000000006E-05, 5.3500000000000006E-05
DataValue, 5.45E-05, 8.8828450000000011E-09, -0.001790666952729, 5.45E-05, 5.45E-05
DataValue, 5.55E-05, -9.374156E-09, -0.0016110918950290002, 5.55E-05, 5.55E-05
DataValue, 5.6500000000000005E-05, 5.637934E-09, -0.0018117934232580002, 5.6500000000000005E-05, 5.6500000000000005E-05
DataValue, 5.75E-05, -1.2653850000000002E-09, -0.0018822150304910002, 5.75E-05, 5.75E-05
DataValue, 5.8500000000000006E-05, -1.903153E-09, -0.001709682168439, 5.8500000000000006E-05, 5.8500000000000006E-05
DataValue, 5.95E-05, 1.3382267000000001E-08, -0.0018751729512590002, 5.95E-05, 5.95E-05
DataValue, 6.0500000000000007E-05, -1.5906027000000002E-08, -0.001931510167196, 6.0500000000000007E-05, 6.0500000000000007E-05
DataValue, 6.15E-05, 1.4868057000000001E-08, -0.0022800969891250003, 6.15E-05, 6.15E-05
DataValue, 6.25E-05, -5.9330090000000005E-09, -0.00205122679472, 6.25E-05, 6.25E-05
DataValue, 6.35E-05, -1.188292E-09, -0.00216742255725, 6.35E-05, 6.35E-05
DataValue, 6.4500000000000009E-05, 9.7939430000000016E-09, -0.002026579342782, 6.4500000000000009E-05, 6.4500000000000009E-05
DataValue, 6.55E-05, -1.8786498E-08, -0.0019174258923160001, 6.55E-05, 6.55E-05
DataValue, 6.65E-05, 2.1848468000000002E-08, -0.00205122679472, 6.65E-05, 6.65E-05
DataValue, 6.75E-05, 3.46558E-10, -0.001931510167196, 6.75E-05, 6.75E-05
DataValue, 6.85E-05, -2.6951337000000002E-08, -0.0019526366377250002, 6.85E-05, 6.85E-05
DataValue, 6.9500000000000009E-05, 5.000166E-09, -0.0019631998147820002, 6.9500000000000009E-05, 6.9500000000000009E-05
DataValue, 7.05E-05, 2.1512063E-08, -0.002308265771717, 7.05E-05, 7.05E-05
DataValue, 7.15E-05, -2.224867E-08, -0.0018927783239630002, 7.15E-05, 7.15E-05
DataValue, 7.25E-05, 2.4813041000000002E-08, -0.002016016049311, 7.25E-05, 7.25E-05
DataValue, 7.3500000000000011E-05, 3.3181390000000004E-09, -0.002170943655074, 7.3500000000000011E-05, 7.3500000000000011E-05
DataValue, 7.4500000000000008E-05, -2.4190010000000003E-08, -0.002093479735777, 7.4500000000000008E-05, 7.4500000000000008E-05
DataValue, 7.55E-05, 1.0845209000000001E-08, -0.0021075641270730003, 7.55E-05, 7.55E-05
DataValue, 7.65E-05, -5.3232750000000007E-09, -0.0018399620894340002, 7.65E-05, 7.65E-05
DataValue, 7.75E-05, -2.8282680000000004E-09, -0.0018857361283150002, 7.75E-05, 7.75E-05
DataValue, 7.8500000000000011E-05, 6.2266440000000008E-09, -0.001790666952729, 7.8500000000000011E-05, 7.8500000000000011E-05
DataValue, 7.9500000000000008E-05, 7.726451E-09, -0.002318828832358, 7.9500000000000008E-05, 7.9500000000000008E-05
DataValue, 8.05E-05, -1.2471889000000002E-08, -0.0018927783239630002, 8.05E-05, 8.05E-05
DataValue, 8.15E-05, 3.8297550000000007E-09, -0.0020899588707830002, 8.15E-05, 8.15E-05
DataValue, 8.25E-05, 1.4931134E-08, -0.0022167176939550002, 8.25E-05, 8.25E-05
DataValue, 8.350000000000001E-05, -1.0201153E-08, -0.002135732909665, 8.350000000000001E-05, 8.350000000000001E-05
DataValue, 8.4500000000000008E-05, -5.561561E-09, -0.0021462959703060004, 8.4500000000000008E-05, 8.4500000000000008E-05
DataValue, 8.55E-05, 7.670383E-09, -0.0022378440480680002, 8.55E-05, 8.55E-05
DataValue, 8.65E-05, 5.4697310000000006E-09, -0.00203362153843, 8.65E-05, 8.65E-05
DataValue, 8.75E-05, -2.947411E-09, -0.0018364409916100002, 8.75E-05, 8.75E-05
DataValue, 8.850000000000001E-05, -5.22489E-10, -0.001720245345496, 8.850000000000001E-05, 8.850000000000001E-05
DataValue, 8.9500000000000007E-05, 3.4232650000000004E-09, -0.0018223567167300002, 8.9500000000000007E-05, 8.9500000000000007E-05
DataValue, 9.05E-05, -8.421007E-09, -0.001931510167196, 9.05E-05, 9.05E-05
DataValue, 9.15E-05, 3.62651E-09, -0.0019350312650200001, 9.15E-05, 9.15E-05
DataValue, 9.2500000000000012E-05, 7.179792E-09, -0.0019420734606680002, 9.2500000000000012E-05, 9.2500000000000012E-05
DataValue, 9.3500000000000009E-05, -9.00945E-10, -0.0019209469901400001, 9.3500000000000009E-05, 9.3500000000000009E-05
DataValue, 9.45E-05, -1.1413614000000002E-08, -0.0019209469901400001, 9.45E-05, 9.45E-05
DataValue, 9.55E-05, 1.5905307E-08, -0.0018399620894340002, 9.55E-05, 9.55E-05
DataValue, 9.65E-05, 1.5309850000000002E-09, -0.0019455944420770002, 9.65E-05, 9.65E-05
DataValue, 9.7500000000000012E-05, -3.031513E-09, -0.0018822150304910002, 9.7500000000000012E-05, 9.7500000000000012E-05
DataValue, 9.8500000000000009E-05, 1.2253906000000002E-08, -0.0019209469901400001, 9.8500000000000009E-05, 9.8500000000000009E-05
DataValue, 9.95E-05, -5.155072E-09, -0.0019385523628440001, 9.95E-05, 9.95E-05
DataValue, 0.0001005, -1.4690789400000002E-07, 0.001170561066829, 0.0001005, 0.0001005
DataValue, 0.0001015, -2.25773931E-07, 0.007163438480347, 0.0001015, 0.0001015
DataValue, 0.00010250000000000001, -2.05134057E-07, 0.013469692319632002, 0.00010250000000000001, 0.00010250000000000001
DataValue, 0.00010350000000000001, -2.2714057500000003E-07, 0.019656229764223, 0.00010350000000000001, 0.00010350000000000001
DataValue, 0.0001045, -2.20706823E-07, 0.025789950042963004, 0.0001045, 0.0001045
DataValue, 0.0001055, -2.09149889E-07, 0.032113809138536, 0.0001055, 0.0001055
DataValue, 0.0001065, -2.3345518200000002E-07, 0.038261614739895006, 0.0001065, 0.0001065
DataValue, 0.00010750000000000001, -2.3026633800000001E-07, 0.044613640755415004, 0.00010750000000000001, 0.00010750000000000001
DataValue, 0.00010850000000000001, -2.2243089900000002E-07, 0.050550181418657004, 0.00010850000000000001, 0.00010850000000000001
DataValue, 0.0001095, -2.2149176E-07, 0.057032492011786007, 0.0001095, 0.0001095
DataValue, 0.0001105, -2.3299963900000002E-07, 0.063321135938168, 0.0001105, 0.0001105
DataValue, 0.00011150000000000001, -2.1927009200000002E-07, 0.069518238306046, 0.00011150000000000001, 0.00011150000000000001
DataValue, 0.00011250000000000001, -2.31436758E-07, 0.075570978224277011, 0.00011250000000000001, 0.00011250000000000001
DataValue, 0.00011350000000000001, -2.4140277300000003E-07, 0.081923000514507, 0.00011350000000000001, 0.00011350000000000001
DataValue, 0.0001145, -1.97719118E-07, 0.087968699634075012, 0.0001145, 0.0001145
DataValue, 0.0001155, -2.40947202E-07, 0.094289034605026009, 0.0001155, 0.0001155
DataValue, 0.00011650000000000001, -2.38319046E-07, 0.10019036382436701, 0.00011650000000000001, 0.00011650000000000001
DataValue, 0.00011750000000000001, -2.2414796800000002E-07, 0.10669028013944601, 0.00011750000000000001, 0.00011750000000000001
DataValue, 0.00011850000000000001, -2.3246698800000002E-07, 0.11283808201551401, 0.00011850000000000001, 0.00011850000000000001
DataValue, 0.0001195, -2.3450644400000002E-07, 0.118661947548389, 0.0001195, 0.0001195
DataValue, 0.0001205, -2.3674915900000002E-07, 0.12510904669761702, 0.0001205, 0.0001205
DataValue, 0.00012150000000000001, -2.3480080800000003E-07, 0.131380081176758, 0.00012150000000000001, 0.00012150000000000001
DataValue, 0.0001225, -2.4219471600000003E-07, 0.137615919113159, 0.0001225, 0.0001225
DataValue, 0.00012350000000000002, -2.2873149400000003E-07, 0.143739074468613, 0.00012350000000000002, 0.00012350000000000002
DataValue, 0.00012450000000000002, -2.3716965800000003E-07, 0.149988994002342, 0.00012450000000000002, 0.00012450000000000002
DataValue, 0.00012550000000000002, -2.50548794E-07, 0.15645369887352, 0.00012550000000000002, 0.00012550000000000002
DataValue, 0.0001265, -2.2334900500000002E-07, 0.162576854228973, 0.0001265, 0.0001265
DataValue, 0.0001275, -2.39881928E-07, 0.16878099739551503, 0.0001275, 0.0001275
DataValue, 0.0001285, -2.43561374E-07, 0.17499218881130202, 0.0001285, 0.0001285
DataValue, 0.0001295, -2.47668311E-07, 0.181259706616402, 0.0001295, 0.0001295
DataValue, 0.0001305, -2.30784963E-07, 0.187411025166511, 0.0001305, 0.0001305
DataValue, 0.0001315, -2.4641380500000003E-07, 0.19391445815563202, 0.0001315, 0.0001315
DataValue, 0.0001325, -2.7327016E-07, 0.20088268816471103, 0.0001325, 0.0001325
DataValue, 0.00013350000000000002, -2.3128957600000003E-07, 0.207245275378227, 0.00013350000000000002, 0.00013350000000000002
DataValue, 0.00013450000000000002, -2.5208362300000003E-07, 0.21343533694744102, 0.00013450000000000002, 0.00013450000000000002
DataValue, 0.00013550000000000001, -2.52132679E-07, 0.219378918409347, 0.00013550000000000001, 0.00013550000000000001
DataValue, 0.0001365, -2.3060275100000001E-07, 0.225896432995796, 0.0001365, 0.0001365
DataValue, 0.0001375, -2.4824299800000003E-07, 0.232332959771156, 0.0001375, 0.0001375
DataValue, 0.0001385, -2.5989103800000004E-07, 0.238255426287651, 0.0001385, 0.0001385
DataValue, 0.0001395, -2.5445248800000003E-07, 0.24439266324043302, 0.0001395, 0.0001395
DataValue, 0.0001405, -2.40421571E-07, 0.25061088800430303, 0.0001405, 0.0001405
DataValue, 0.0001415, -2.5722783900000003E-07, 0.25713896751403803, 0.0001415, 0.0001415
DataValue, 0.00014250000000000002, -2.3438029500000002E-07, 0.263283252716064, 0.00014250000000000002, 0.00014250000000000002
DataValue, 0.00014350000000000002, -2.45832098E-07, 0.269621193408966, 0.00014350000000000002, 0.00014350000000000002
DataValue, 0.00014450000000000002, -2.67635386E-07, 0.275990843772888, 0.00014450000000000002, 0.00014450000000000002
DataValue, 0.0001455, -2.4707259200000003E-07, 0.28203299641609203, 0.0001455, 0.0001455
DataValue, 0.0001465, -2.59982158E-07, 0.28826531767845104, 0.0001465, 0.0001465
DataValue, 0.0001475, -2.3516524500000002E-07, 0.29422298073768605, 0.0001475, 0.0001475
DataValue, 0.0001485, -2.7018643300000004E-07, 0.300356715917587, 0.0001485, 0.0001485
DataValue, 0.0001495, -2.38248958E-07, 0.30633196234703103, 0.0001495, 0.0001495
DataValue, 0.0001505, -2.63269101E-07, 0.312803715467453, 0.0001505, 0.0001505
DataValue, 0.0001515, -2.66570083E-07, 0.318754345178604, 0.0001515, 0.0001515
DataValue, 0.00015250000000000002, -2.48614441E-07, 0.325152158737183, 0.00015250000000000002, 0.00015250000000000002
DataValue, 0.00015350000000000002, -2.71805391E-07, 0.331314027309418, 0.00015350000000000002, 0.00015350000000000002
DataValue, 0.00015450000000000002, -2.5542667E-07, 0.337563961744309, 0.00015450000000000002, 0.00015450000000000002
DataValue, 0.0001555, -2.7189651100000004E-07, 0.34356740117073103, 0.0001555, 0.0001555
DataValue, 0.0001565, -2.61643152E-07, 0.350137740373611, 0.0001565, 0.0001565
DataValue, 0.0001575, -2.6654206E-07, 0.35642638802528404, 0.0001575, 0.0001575
DataValue, 0.0001585, -2.70599941E-07, 0.362715035676956, 0.0001585, 0.0001585
DataValue, 0.0001595, -2.6398396400000004E-07, 0.368700861930847, 0.0001595, 0.0001595
DataValue, 0.0001605, -2.71125572E-07, 0.37507402896881104, 0.0001605, 0.0001605
DataValue, 0.00016150000000000002, -2.63906884E-07, 0.381408423185348, 0.00016150000000000002, 0.00016150000000000002
DataValue, 0.00016250000000000002, -2.73389304E-07, 0.38769707083702104, 0.00016250000000000002, 0.00016250000000000002
DataValue, 0.00016350000000000002, -2.64565671E-07, 0.393971651792526, 0.00016350000000000002, 0.00016350000000000002
DataValue, 0.00016450000000000001, -2.81995682E-07, 0.40002438426017806, 0.00016450000000000001, 0.00016450000000000001
DataValue, 0.0001655, -2.85121445E-07, 0.406805992126465, 0.0001655, 0.0001655
DataValue, 0.0001665, -2.6500720200000003E-07, 0.412960827350616, 0.0001665, 0.0001665
DataValue, 0.0001675, -3.0431056100000003E-07, 0.41900652647018405, 0.0001675, 0.0001675
DataValue, 0.0001685, -2.58489337E-07, 0.42522123456001304, 0.0001685, 0.0001685
DataValue, 0.0001695, -2.82675501E-07, 0.43165072798728904, 0.0001695, 0.0001695
DataValue, 0.0001705, -2.88057976E-07, 0.43792879581451405, 0.0001705, 0.0001705
DataValue, 0.00017150000000000002, -2.64586703E-07, 0.444192796945572, 0.00017150000000000002, 0.00017150000000000002
DataValue, 0.00017250000000000002, -2.8179243800000004E-07, 0.45042160153389005, 0.00017250000000000002, 0.00017250000000000002
DataValue, 0.00017350000000000002, -2.95592059E-07, 0.456657439470291, 0.00017350000000000002, 0.00017350000000000002
DataValue, 0.0001745, -2.7926239500000003E-07, 0.462787628173828, 0.0001745, 0.0001745
DataValue, 0.0001755, -2.73893903E-07, 0.46876290440559404, 0.0001755, 0.0001755
DataValue, 0.0001765, -2.84364518E-07, 0.475083231925964, 0.0001765, 0.0001765
DataValue, 0.0001775, -2.98717822E-07, 0.48146343231201205, 0.0001775, 0.0001775
DataValue, 0.0001785, -2.88324316E-07, 0.48763236403465304, 0.0001785, 0.0001785
DataValue, 0.0001795, -2.7623474400000004E-07, 0.493928074836731, 0.0001795, 0.0001795
DataValue, 0.00018050000000000002, -2.85149468E-07, 0.499924451112747, 0.00018050000000000002, 0.00018050000000000002
DataValue, 0.00018150000000000002, -3.0553704300000004E-07, 0.506019473075867, 0.00018150000000000002, 0.00018150000000000002
DataValue, 0.00018250000000000002, -2.8296986400000003E-07, 0.51266020536422707, 0.00018250000000000002, 0.00018250000000000002
DataValue, 0.00018350000000000002, -2.95283684E-07, 0.518818557262421, 0.00018350000000000002, 0.00018350000000000002
DataValue, 0.0001845, -2.89796077E-07, 0.524751603603363, 0.0001845, 0.0001845
DataValue, 0.0001855, -2.82381137E-07, 0.5311282873153691, 0.0001855, 0.0001855
DataValue, 0.0001865, -3.2468412300000005E-07, 0.537589430809021, 0.0001865, 0.0001865
