
SetupTitle, FE PUND 2.5V - reverse
ApplicationTest, WGFMU Pattern Editor, Public
TestParameter, Name, ExecutionMode, Enable1, Channel1, OperationMode1, VForceRange1, InitMeasRange1, Enable2, Channel2, OperationMode2, VForceRange2, InitMeasRange2, RepeatCount, WaveformCh1, WaveformCh2, MeasurementEvent, Output_to_File_for_PatternValidation, Output_Enable, Output_Filename, DataDisplay_for_RunVector, DataDisplay_PatternValidation, DataDisplay_Mode, LogToFile, LogFile, WarningLevel, IForceRange1, IForceRange2, Result_Update_Interval_s
TestParameter, Value, Run Vector, Enable, WGFMU1:RS	RSWGFMU, Fast IV Imeas, Auto, 10uA (Imeas), Enable, WGFMU2:RS	RSWGFMU, PG Vmeas, Auto, 5V (Vmeas), 1, , Disable, C:\WGFMUPatternEditor_Pattern.csv, , Disable, x(time)_y(meas), Disable, C:\WGFMUPatternEditor_Log.log, 2, 10mA, 10mA, 10
MetaData, TestRecord.EntryPoint, true
MetaData, TestRecord.RecordTime, 04/22/2021 11:16:45
MetaData, TestRecord.TestTarget, FlashIntB_1_25um_E4
MetaData, TestRecord.IterationIndex, 13
MetaData, TestRecord.Preservation, true
MetaData, TestRecord.Flag, 
MetaData, TestRecord.Remarks, 
MetaData, TestRecord.LinkKey, 26c5bc87-0959-46b8-8ca4-35e1a5e7aa59
MetaData, TestRecord.Parameters, 
Dimension1, 5000, 5000, 5000, 5000, 5000
Dimension2, 1, 1, 1, 1, 1
DataName, Time, MeasResult1_value, MeasResult2_value, MeasResult1_time, MeasResult2_time
DataValue, 5.0000000000000008E-07, -7.558969E-09, -0.0021251696161930004, 5.0000000000000008E-07, 5.0000000000000008E-07
DataValue, 1.5E-06, 4.93709E-09, -0.0021040430292490002, 1.5E-06, 1.5E-06
DataValue, 2.5E-06, -2.28135E-10, -0.0018962994217870002, 2.5E-06, 2.5E-06
DataValue, 3.5000000000000004E-06, -8.918607E-09, -0.0018188356189060002, 3.5000000000000004E-06, 3.5000000000000004E-06
DataValue, 4.5E-06, 1.1034700000000001E-09, -0.0019702420104300003, 4.5E-06, 4.5E-06
DataValue, 5.5000000000000007E-06, -1.0691743000000002E-08, -0.00232939212583, 5.5000000000000007E-06, 5.5000000000000007E-06
DataValue, 6.5000000000000004E-06, 1.1735282000000001E-08, -0.0021462959703060004, 6.5000000000000004E-06, 6.5000000000000004E-06
DataValue, 7.5E-06, 4.4044480000000006E-09, -0.002301223576069, 7.5E-06, 7.5E-06
DataValue, 8.5E-06, -1.6501746000000003E-08, -0.002086437772959, 8.5E-06, 8.5E-06
DataValue, 9.5E-06, -3.844492E-09, -0.002054747892544, 9.5E-06, 9.5E-06
DataValue, 1.0500000000000001E-05, 2.4602787E-08, -0.0017448929138480002, 1.0500000000000001E-05, 1.0500000000000001E-05
DataValue, 1.15E-05, -6.2904400000000009E-09, -0.0022765758913010003, 1.15E-05, 1.15E-05
DataValue, 1.25E-05, -2.608229E-08, -0.002047705696896, 1.25E-05, 1.25E-05
DataValue, 1.3500000000000001E-05, 3.1779436E-08, -0.00232939212583, 1.3500000000000001E-05, 1.3500000000000001E-05
DataValue, 1.45E-05, -1.0635676000000001E-08, -0.00232939212583, 1.45E-05, 1.45E-05
DataValue, 1.55E-05, -1.5373386000000002E-08, -0.0024138980079440003, 1.55E-05, 1.55E-05
DataValue, 1.65E-05, 5.595884E-09, -0.0022624917328360004, 1.65E-05, 1.65E-05
DataValue, 1.7500000000000002E-05, 1.1377851000000002E-08, -0.0024279823992400004, 1.7500000000000002E-05, 1.7500000000000002E-05
DataValue, 1.8500000000000002E-05, -1.3284868E-08, -0.0026286840438840002, 1.8500000000000002E-05, 1.8500000000000002E-05
DataValue, 1.95E-05, 3.332156E-09, -0.002181506948546, 1.95E-05, 1.95E-05
DataValue, 2.05E-05, 2.9480665000000003E-08, -0.0024033349473030004, 2.05E-05, 2.05E-05
DataValue, 2.15E-05, -2.9299166000000003E-08, -0.0023575609084220002, 2.15E-05, 2.15E-05
DataValue, 2.25E-05, 9.934111E-09, -0.0024209402035920004, 2.25E-05, 2.25E-05
DataValue, 2.3500000000000002E-05, 1.320732E-09, -0.002311786869541, 2.3500000000000002E-05, 2.3500000000000002E-05
DataValue, 2.4500000000000003E-05, -6.0171110000000009E-09, -0.002192070009187, 2.4500000000000003E-05, 2.4500000000000003E-05
DataValue, 2.5500000000000003E-05, -3.851501E-09, -0.0023575609084220002, 2.5500000000000003E-05, 2.5500000000000003E-05
DataValue, 2.65E-05, -1.013081E-09, -0.0024174191057680003, 2.65E-05, 2.65E-05
DataValue, 2.75E-05, 1.1945535E-08, -0.002294181380421, 2.75E-05, 2.75E-05
DataValue, 2.85E-05, -8.7083540000000013E-09, -0.0021005219314250002, 2.85E-05, 2.85E-05
DataValue, 2.9500000000000002E-05, 5.497765E-09, -0.002484319731593, 2.9500000000000002E-05, 2.9500000000000002E-05
DataValue, 3.0500000000000003E-05, -7.4258080000000006E-09, -0.002325871028006, 3.0500000000000003E-05, 3.0500000000000003E-05
DataValue, 3.15E-05, -1.7881000000000003E-11, -0.002325871028006, 3.15E-05, 3.15E-05
DataValue, 3.2500000000000004E-05, 1.1994595E-08, -0.0022448862437160003, 3.2500000000000004E-05, 3.2500000000000004E-05
DataValue, 3.35E-05, -1.6564821000000002E-08, -0.00216742255725, 3.35E-05, 3.35E-05
DataValue, 3.4500000000000005E-05, 3.6895860000000002E-09, -0.002058268990368, 3.4500000000000005E-05, 3.4500000000000005E-05
DataValue, 3.55E-05, -5.0569540000000004E-09, -0.00206883228384, 3.55E-05, 3.55E-05
DataValue, 3.65E-05, 9.934111E-09, -0.002192070009187, 3.65E-05, 3.65E-05
DataValue, 3.7500000000000003E-05, -1.5303302000000002E-08, -0.002202633302659, 3.7500000000000003E-05, 3.7500000000000003E-05
DataValue, 3.85E-05, 1.0971362E-08, -0.00216742255725, 3.85E-05, 3.85E-05
DataValue, 3.9500000000000005E-05, 3.26908E-09, -0.0021181274205450003, 3.9500000000000005E-05, 3.9500000000000005E-05
DataValue, 4.05E-05, -1.4364169000000001E-08, -0.002061790088192, 4.05E-05, 4.05E-05
DataValue, 4.1500000000000006E-05, 1.6830422E-08, -0.00226601283066, 4.1500000000000006E-05, 4.1500000000000006E-05
DataValue, 4.25E-05, -8.960658E-09, -0.002185027813539, 4.25E-05, 4.25E-05
DataValue, 4.35E-05, -1.0467473E-08, -0.002177985850722, 4.35E-05, 4.35E-05
DataValue, 4.4500000000000004E-05, 1.4629769000000002E-08, -0.002435024594888, 4.4500000000000004E-05, 4.4500000000000004E-05
DataValue, 4.55E-05, -4.222949E-09, -0.002156859263778, 4.55E-05, 4.55E-05
DataValue, 4.6500000000000005E-05, -8.764421E-09, -0.002315307967365, 4.6500000000000005E-05, 4.6500000000000005E-05
DataValue, 4.75E-05, 5.9953650000000006E-09, -0.0019772842060770002, 4.75E-05, 4.75E-05
DataValue, 4.85E-05, 9.21925E-09, -0.0019526366377250002, 4.85E-05, 4.85E-05
DataValue, 4.9500000000000004E-05, -7.6360620000000013E-09, -0.002030100440606, 4.9500000000000004E-05, 4.9500000000000004E-05
DataValue, 5.05E-05, -9.808679E-09, -0.0019667209126060002, 5.05E-05, 5.05E-05
DataValue, 5.1500000000000005E-05, 1.7755536E-08, -0.002019537147135, 5.1500000000000005E-05, 5.1500000000000005E-05
DataValue, 5.25E-05, -1.6768066000000003E-08, -0.002019537147135, 5.25E-05, 5.25E-05
DataValue, 5.3500000000000006E-05, 6.7803110000000009E-09, -0.0018681307556110002, 5.3500000000000006E-05, 5.3500000000000006E-05
DataValue, 5.45E-05, -9.850470000000001E-10, -0.0017167243640870001, 5.45E-05, 5.45E-05
DataValue, 5.55E-05, -2.4568200000000002E-09, -0.001790666952729, 5.55E-05, 5.55E-05
DataValue, 5.6500000000000005E-05, -1.202309E-09, -0.0018786939326670001, 5.6500000000000005E-05, 5.6500000000000005E-05
DataValue, 5.75E-05, 1.8890905000000003E-08, -0.0021005219314250002, 5.75E-05, 5.75E-05
DataValue, 5.8500000000000006E-05, -2.1176378000000002E-08, -0.001642781659029, 5.8500000000000006E-05, 5.8500000000000006E-05
DataValue, 5.95E-05, -2.400753E-09, -0.0017977091483770001, 5.95E-05, 5.95E-05
DataValue, 6.0500000000000007E-05, 1.9178250000000002E-08, -0.0019878474995490003, 6.0500000000000007E-05, 6.0500000000000007E-05
DataValue, 6.15E-05, -7.916399000000001E-09, -0.0019702420104300003, 6.15E-05, 6.15E-05
DataValue, 6.25E-05, 1.208597E-09, -0.0019808053039010003, 6.25E-05, 6.25E-05
DataValue, 6.35E-05, 1.222614E-09, -0.0018716518534350002, 6.35E-05, 6.35E-05
DataValue, 6.4500000000000009E-05, 6.345787E-09, -0.0019878474995490003, 6.4500000000000009E-05, 6.4500000000000009E-05
DataValue, 6.55E-05, -1.350213E-08, -0.001702639972791, 6.55E-05, 6.55E-05
DataValue, 6.65E-05, -7.706146E-09, -0.001857567462139, 6.65E-05, 6.65E-05
DataValue, 6.75E-05, 5.6309260000000005E-09, -0.0016075707972050002, 6.75E-05, 6.75E-05
DataValue, 6.85E-05, 9.5629300000000014E-10, -0.002065311186016, 6.85E-05, 6.85E-05
DataValue, 6.9500000000000009E-05, -1.3200768E-08, -0.001787145854905, 6.9500000000000009E-05, 6.9500000000000009E-05
DataValue, 7.05E-05, 1.9367478E-08, -0.002093479735777, 7.05E-05, 7.05E-05
DataValue, 7.15E-05, -1.0712769E-08, -0.0018751729512590002, 7.15E-05, 7.15E-05
DataValue, 7.25E-05, -8.371948E-09, -0.0017836248734970001, 7.25E-05, 7.25E-05
DataValue, 7.3500000000000011E-05, 7.628333E-09, -0.0018857361283150002, 7.3500000000000011E-05, 7.3500000000000011E-05
DataValue, 7.4500000000000008E-05, 1.0284533E-08, -0.00205122679472, 7.4500000000000008E-05, 7.4500000000000008E-05
DataValue, 7.55E-05, -1.1364555000000002E-08, -0.00206883228384, 7.55E-05, 7.55E-05
DataValue, 7.65E-05, -5.302249E-09, -0.002195591107011, 7.65E-05, 7.65E-05
DataValue, 7.75E-05, 1.5968382E-08, -0.002132211811841, 7.75E-05, 7.75E-05
DataValue, 7.8500000000000011E-05, -1.3999730000000001E-08, -0.0019455944420770002, 7.8500000000000011E-05, 7.8500000000000011E-05
DataValue, 7.9500000000000008E-05, -3.05228E-10, -0.0019491155399010002, 7.9500000000000008E-05, 7.9500000000000008E-05
DataValue, 8.05E-05, 1.5071302E-08, -0.0022378440480680002, 8.05E-05, 8.05E-05
DataValue, 8.15E-05, -1.5408428000000002E-08, -0.002368123969063, 8.15E-05, 8.15E-05
DataValue, 8.25E-05, -1.3985713000000002E-08, -0.002030100440606, 8.25E-05, 8.25E-05
DataValue, 8.350000000000001E-05, 7.4040630000000007E-09, -0.002019537147135, 8.350000000000001E-05, 8.350000000000001E-05
DataValue, 8.4500000000000008E-05, 2.0979421E-08, -0.002315307967365, 8.4500000000000008E-05, 8.4500000000000008E-05
DataValue, 8.55E-05, -2.8934727000000003E-08, -0.002086437772959, 8.55E-05, 8.55E-05
DataValue, 8.65E-05, 2.2395128E-08, -0.002132211811841, 8.65E-05, 8.65E-05
DataValue, 8.75E-05, -1.4826460000000002E-09, -0.001998410793021, 8.75E-05, 8.75E-05
DataValue, 8.850000000000001E-05, -2.4337186E-08, -0.0018716518534350002, 8.850000000000001E-05, 8.850000000000001E-05
DataValue, 8.9500000000000007E-05, 3.0104417E-08, -0.002174464752898, 8.9500000000000007E-05, 8.9500000000000007E-05
DataValue, 9.05E-05, -1.3838536000000002E-08, -0.0021427748724820003, 9.05E-05, 9.05E-05
DataValue, 9.15E-05, -5.2672070000000008E-09, -0.002075874479488, 9.15E-05, 9.15E-05
DataValue, 9.2500000000000012E-05, 2.4631080000000004E-09, -0.0019948896951970004, 9.2500000000000012E-05, 9.2500000000000012E-05
DataValue, 9.3500000000000009E-05, 1.0515812000000001E-08, -0.0022413651458920002, 9.3500000000000009E-05, 9.3500000000000009E-05
DataValue, 9.45E-05, -1.2997522000000002E-08, -0.0020899588707830002, 9.45E-05, 9.45E-05
DataValue, 9.55E-05, -2.7018500000000003E-10, -0.002030100440606, 9.55E-05, 9.55E-05
DataValue, 9.65E-05, 6.212627E-09, -0.002037142636254, 9.65E-05, 9.65E-05
DataValue, 9.7500000000000012E-05, -4.8957590000000006E-09, -0.002058268990368, 9.7500000000000012E-05, 9.7500000000000012E-05
DataValue, 9.8500000000000009E-05, 7.23586E-09, -0.001906862598844, 9.8500000000000009E-05, 9.8500000000000009E-05
DataValue, 9.95E-05, -4.110813E-09, -0.00205122679472, 9.95E-05, 9.95E-05
DataValue, 0.0001005, -1.5047518800000002E-07, 0.000853663892485, 0.0001005, 0.0001005
DataValue, 0.0001015, -2.0781128300000003E-07, 0.00711062271148, 0.0001015, 0.0001015
DataValue, 0.00010250000000000001, -2.3166802500000002E-07, 0.013212653808296, 0.00010250000000000001, 0.00010250000000000001
DataValue, 0.00010350000000000001, -2.16270479E-07, 0.019462570548058, 0.00010350000000000001, 0.00010350000000000001
DataValue, 0.0001045, -2.43077778E-07, 0.025804035365582, 0.0001045, 0.0001045
DataValue, 0.0001055, -2.0985774500000003E-07, 0.032011698931456, 0.0001055, 0.0001055
DataValue, 0.0001065, -2.2521325600000002E-07, 0.038300346583128, 0.0001065, 0.0001065
DataValue, 0.00010750000000000001, -2.3273331400000002E-07, 0.044624205678701005, 0.00010750000000000001, 0.00010750000000000001
DataValue, 0.00010850000000000001, -2.10075015E-07, 0.050736799836159, 0.00010850000000000001, 0.00010850000000000001
DataValue, 0.0001095, -2.52420023E-07, 0.057018406689167, 0.0001095, 0.0001095
DataValue, 0.0001105, -2.3286646900000002E-07, 0.063152126967907007, 0.0001105, 0.0001105
DataValue, 0.00011150000000000001, -2.1598313500000002E-07, 0.069479510188103, 0.00011150000000000001, 0.00011150000000000001
DataValue, 0.00011250000000000001, -2.27953549E-07, 0.075616747140884011, 0.00011250000000000001, 0.00011250000000000001
DataValue, 0.00011350000000000001, -2.53520369E-07, 0.081986382603645, 0.00011350000000000001, 0.00011350000000000001
DataValue, 0.0001145, -2.0825281400000002E-07, 0.087796166539192, 0.0001145, 0.0001145
DataValue, 0.0001155, -2.3763922700000003E-07, 0.094162277877331, 0.0001155, 0.0001155
DataValue, 0.00011650000000000001, -2.3159795100000001E-07, 0.10053190588951101, 0.00011650000000000001, 0.00011650000000000001
DataValue, 0.00011750000000000001, -2.3325894500000002E-07, 0.106633938848972, 0.00011750000000000001, 0.00011750000000000001
DataValue, 0.00011850000000000001, -2.3660898300000002E-07, 0.11278878897428502, 0.00011850000000000001, 0.00011850000000000001
DataValue, 0.0001195, -2.34345251E-07, 0.119003497064114, 0.0001195, 0.0001195
DataValue, 0.0001205, -2.4232088000000003E-07, 0.12534143030643502, 0.0001205, 0.0001205
DataValue, 0.00012150000000000001, -2.38956801E-07, 0.13151741027832, 0.00012150000000000001, 0.00012150000000000001
DataValue, 0.0001225, -2.3314680700000003E-07, 0.137858882546425, 0.0001225, 0.0001225
DataValue, 0.00012350000000000002, -2.39503464E-07, 0.14381301403045602, 0.00012350000000000002, 0.00012350000000000002
DataValue, 0.00012450000000000002, -2.4617551700000004E-07, 0.14990097284317, 0.00012450000000000002, 0.00012450000000000002
DataValue, 0.00012550000000000002, -2.35403533E-07, 0.156238913536072, 0.00012550000000000002, 0.00012550000000000002
DataValue, 0.0001265, -2.5220276700000003E-07, 0.162073343992233, 0.0001265, 0.0001265
DataValue, 0.0001275, -2.34212095E-07, 0.168580293655395, 0.0001275, 0.0001275
DataValue, 0.0001285, -2.51403804E-07, 0.175020352005959, 0.0001285, 0.0001285
DataValue, 0.0001295, -2.40407559E-07, 0.181083649396896, 0.0001295, 0.0001295
DataValue, 0.0001305, -2.47016516E-07, 0.18740046024322501, 0.0001305, 0.0001305
DataValue, 0.0001315, -2.3630761300000003E-07, 0.19396023452281902, 0.0001315, 0.0001315
DataValue, 0.0001325, -2.68896883E-07, 0.20080170035362202, 0.0001325, 0.0001325
DataValue, 0.00013350000000000002, -2.51761236E-07, 0.207016408443451, 0.00013350000000000002, 0.00013350000000000002
DataValue, 0.00013450000000000002, -2.54151132E-07, 0.21323463320732103, 0.00013450000000000002, 0.00013450000000000002
DataValue, 0.00013550000000000001, -2.5528649400000005E-07, 0.21934370696544603, 0.00013550000000000001, 0.00013550000000000001
DataValue, 0.0001365, -2.45390567E-07, 0.22591756284236902, 0.0001365, 0.0001365
DataValue, 0.0001375, -2.58510369E-07, 0.23206888139247903, 0.0001375, 0.0001375
DataValue, 0.0001385, -2.4746506700000003E-07, 0.23822373151779203, 0.0001385, 0.0001385
DataValue, 0.0001395, -2.47135659E-07, 0.24432224035263103, 0.0001395, 0.0001395
DataValue, 0.0001405, -2.52279875E-07, 0.250646114349365, 0.0001405, 0.0001405
DataValue, 0.0001415, -2.56022389E-07, 0.25646996498107905, 0.0001415, 0.0001415
DataValue, 0.00014250000000000002, -2.7177034700000005E-07, 0.263071984052658, 0.00014250000000000002, 0.00014250000000000002
DataValue, 0.00014350000000000002, -2.3406491300000003E-07, 0.26954373717308, 0.00014350000000000002, 0.00014350000000000002
DataValue, 0.00014450000000000002, -2.60725045E-07, 0.275480270385742, 0.00014450000000000002, 0.00014450000000000002
DataValue, 0.0001455, -2.76816422E-07, 0.28213158249855, 0.0001455, 0.0001455
DataValue, 0.0001465, -2.3523533300000002E-07, 0.288163214921951, 0.0001465, 0.0001465
DataValue, 0.0001475, -2.53331137E-07, 0.294166654348373, 0.0001475, 0.0001475
DataValue, 0.0001485, -2.69695846E-07, 0.300388395786285, 0.0001485, 0.0001485
DataValue, 0.0001495, -2.6701161500000004E-07, 0.30638831853866605, 0.0001495, 0.0001495
DataValue, 0.0001505, -2.4671516E-07, 0.312331885099411, 0.0001505, 0.0001505
DataValue, 0.0001515, -2.69275347E-07, 0.318983227014542, 0.0001515, 0.0001515
DataValue, 0.00015250000000000002, -2.73108981E-07, 0.32502537965774503, 0.00015250000000000002, 0.00015250000000000002
DataValue, 0.00015350000000000002, -2.41304633E-07, 0.331324607133865, 0.00015350000000000002, 0.00015350000000000002
DataValue, 0.00015450000000000002, -2.88976082E-07, 0.337380856275559, 0.00015450000000000002, 0.00015450000000000002
DataValue, 0.0001555, -2.6897399200000003E-07, 0.343701183795929, 0.0001555, 0.0001555
DataValue, 0.0001565, -2.59449507E-07, 0.349771529436111, 0.0001565, 0.0001565
DataValue, 0.0001575, -2.8663527E-07, 0.35623624920845004, 0.0001575, 0.0001575
DataValue, 0.0001585, -2.72373086E-07, 0.362799525260925, 0.0001585, 0.0001585
DataValue, 0.0001595, -2.70095342E-07, 0.368771284818649, 0.0001595, 0.0001595
DataValue, 0.0001605, -2.5102536900000003E-07, 0.375116258859634, 0.0001605, 0.0001605
DataValue, 0.00016150000000000002, -2.9628589000000003E-07, 0.381538718938827, 0.00016150000000000002, 0.00016150000000000002
DataValue, 0.00016250000000000002, -2.63773728E-07, 0.38746118545532204, 0.00016250000000000002, 0.00016250000000000002
DataValue, 0.00016350000000000002, -2.79199298E-07, 0.39397516846656805, 0.00016350000000000002, 0.00016350000000000002
DataValue, 0.00016450000000000001, -2.8825422800000004E-07, 0.400126487016678, 0.00016450000000000001, 0.00016450000000000001
DataValue, 0.0001655, -2.8007536900000004E-07, 0.40661233663559004, 0.0001655, 0.0001655
DataValue, 0.0001665, -2.9904723000000003E-07, 0.412922114133835, 0.0001665, 0.0001665
DataValue, 0.0001675, -2.6724990200000003E-07, 0.41922482848167403, 0.0001675, 0.0001675
DataValue, 0.0001685, -2.82605413E-07, 0.425576865673065, 0.0001685, 0.0001685
DataValue, 0.0001695, -2.83201132E-07, 0.43203803896904003, 0.0001695, 0.0001695
DataValue, 0.0001705, -3.01486153E-07, 0.437985152006149, 0.0001705, 0.0001705
DataValue, 0.00017150000000000002, -2.67985797E-07, 0.44416815042495705, 0.00017150000000000002, 0.00017150000000000002
DataValue, 0.00017250000000000002, -2.91772466E-07, 0.45065751671791104, 0.00017250000000000002, 0.00017250000000000002
DataValue, 0.00017350000000000002, -2.9814313500000004E-07, 0.45697784423828103, 0.00017350000000000002, 0.00017350000000000002
DataValue, 0.0001745, -2.8167329400000004E-07, 0.46294257044792203, 0.0001745, 0.0001745
DataValue, 0.0001755, -2.91835534E-07, 0.46884036064147905, 0.0001755, 0.0001755
DataValue, 0.0001765, -3.0360971E-07, 0.47513958811759904, 0.0001765, 0.0001765
DataValue, 0.0001775, -2.90048376E-07, 0.48133316636085505, 0.0001775, 0.0001775
DataValue, 0.0001785, -2.8796688400000003E-07, 0.487262666225433, 0.0001785, 0.0001785
DataValue, 0.0001795, -2.9943970500000003E-07, 0.49348089098930403, 0.0001795, 0.0001795
DataValue, 0.00018050000000000002, -3.07716675E-07, 0.49973782896995506, 0.00018050000000000002, 0.00018050000000000002
DataValue, 0.00018150000000000002, -2.82542345E-07, 0.50598776340484608, 0.00018150000000000002, 0.00018150000000000002
DataValue, 0.00018250000000000002, -3.07457356E-07, 0.51200526952743508, 0.00018250000000000002, 0.00018250000000000002
DataValue, 0.00018350000000000002, -2.96503146E-07, 0.518646061420441, 0.00018350000000000002, 0.00018350000000000002
DataValue, 0.0001845, -2.99236461E-07, 0.52477270364761308, 0.0001845, 0.0001845
DataValue, 0.0001855, -3.10106543E-07, 0.53073388338089, 0.0001855, 0.0001855
DataValue, 0.0001865, -3.01009578E-07, 0.53698033094406106, 0.0001865, 0.0001865
DataValue, 0.0001875, -3.15103563E-07, 0.54357177019119307, 0.0001875, 0.0001875
