
SetupTitle, FE PUND 2V
ApplicationTest, WGFMU Pattern Editor, Public
TestParameter, Name, ExecutionMode, Enable1, Channel1, OperationMode1, VForceRange1, InitMeasRange1, Enable2, Channel2, OperationMode2, VForceRange2, InitMeasRange2, RepeatCount, WaveformCh1, WaveformCh2, MeasurementEvent, Output_to_File_for_PatternValidation, Output_Enable, Output_Filename, DataDisplay_for_RunVector, DataDisplay_PatternValidation, DataDisplay_Mode, LogToFile, LogFile, WarningLevel, IForceRange1, IForceRange2, Result_Update_Interval_s
TestParameter, Value, Run Vector, Enable, WGFMU2:RS	RSWGFMU, Fast IV Imeas, Auto, 100uA (Imeas), Enable, WGFMU1:RS	RSWGFMU, PG Vmeas, Auto, 5V (Vmeas), 1, , Disable, C:\WGFMUPatternEditor_Pattern.csv, , Disable, x(time)_y(meas), Disable, C:\WGFMUPatternEditor_Log.log, 2, 10mA, 10mA, 10
MetaData, TestRecord.EntryPoint, true
MetaData, TestRecord.RecordTime, 04/22/2021 11:03:15
MetaData, TestRecord.TestTarget, FlashIntB_1_25um_D3
MetaData, TestRecord.IterationIndex, 4
MetaData, TestRecord.Preservation, true
MetaData, TestRecord.Flag, 
MetaData, TestRecord.Remarks, 
MetaData, TestRecord.LinkKey, c3a51847-08e1-46a1-885a-e815b5b3ec61
MetaData, TestRecord.Parameters, 
Dimension1, 5000, 5000, 5000, 5000, 5000
Dimension2, 1, 1, 1, 1, 1
DataName, Time, MeasResult1_value, MeasResult2_value, MeasResult1_time, MeasResult2_time
DataValue, 5.0000000000000008E-07, 2.44697532E-07, -0.00033854760113200005, 5.0000000000000008E-07, 5.0000000000000008E-07
DataValue, 1.5E-06, -7.9965161600000008E-07, -0.000261332723312, 1.5E-06, 1.5E-06
DataValue, 2.5E-06, 7.4687278600000006E-07, -0.000419272226281, 2.5E-06, 2.5E-06
DataValue, 3.5000000000000004E-06, 3.6128511700000005E-07, -0.00020868623687400002, 3.5000000000000004E-06, 3.5000000000000004E-06
DataValue, 4.5E-06, -5.3461661800000007E-07, -0.000496487074997, 4.5E-06, 4.5E-06
DataValue, 5.5000000000000007E-06, 2.7008803700000003E-07, -0.00042629175004500004, 5.5000000000000007E-06, 5.5000000000000007E-06
DataValue, 6.5000000000000004E-06, 4.5661050000000005E-09, -0.00023325459915200003, 6.5000000000000004E-06, 6.5000000000000004E-06
DataValue, 7.5E-06, -2.1664419600000001E-07, -0.000447350350441, 7.5E-06, 7.5E-06
DataValue, 8.5E-06, 2.3655867700000001E-07, -0.000145510435686, 8.5E-06, 8.5E-06
DataValue, 9.5E-06, 3.0257396600000003E-07, -5.11979124E-06, 9.5E-06, 9.5E-06
DataValue, 1.0500000000000001E-05, -6.94611515E-07, -7.1805348853E-05, 1.0500000000000001E-05, 1.0500000000000001E-05
DataValue, 1.15E-05, 2.30576262E-07, -0.00022974483727, 1.15E-05, 1.15E-05
DataValue, 1.25E-05, 3.75267263E-07, -8.2334649051000013E-05, 1.25E-05, 1.25E-05
DataValue, 1.3500000000000001E-05, -1.23221113E-07, -0.000198156936676, 1.3500000000000001E-05, 1.3500000000000001E-05
DataValue, 1.45E-05, -2.84885488E-07, -2.6178387998000003E-05, 1.45E-05, 1.45E-05
DataValue, 1.55E-05, 3.64415456E-07, -6.1276048655E-05, 1.55E-05, 1.55E-05
DataValue, 1.65E-05, -1.1188233600000001E-07, 5.4095075940000007E-06, 1.65E-05, 1.65E-05
DataValue, 1.7500000000000002E-05, -3.0860647400000003E-07, -4.7236986575000005E-05, 1.7500000000000002E-05, 1.7500000000000002E-05
DataValue, 1.8500000000000002E-05, 5.30323177E-07, -1.9158856958000003E-05, 1.8500000000000002E-05, 1.8500000000000002E-05
DataValue, 1.95E-05, -3.56535367E-07, 7.5604832091E-05, 1.95E-05, 1.95E-05
DataValue, 2.05E-05, -1.1876907300000001E-07, -6.4785817813E-05, 2.05E-05, 2.05E-05
DataValue, 2.15E-05, 1.6998689000000002E-07, -0.00014200067380400002, 2.15E-05, 2.15E-05
DataValue, 2.25E-05, 3.3573873E-08, 0.000321288476698, 2.25E-05, 2.25E-05
DataValue, 2.3500000000000002E-05, 2.41636769E-07, 0.00017387828847900002, 2.3500000000000002E-05, 2.3500000000000002E-05
DataValue, 2.4500000000000003E-05, -3.24884212E-07, 0.000124741563923, 2.4500000000000003E-05, 2.4500000000000003E-05
DataValue, 2.5500000000000003E-05, 5.04167474E-07, -5.0746752095000006E-05, 2.5500000000000003E-05, 2.5500000000000003E-05
DataValue, 2.65E-05, -5.09086988E-07, 0.00020195641263900003, 2.65E-05, 2.65E-05
DataValue, 2.75E-05, 1.68247823E-07, -1.2139323189E-05, 2.75E-05, 2.75E-05
DataValue, 2.85E-05, 3.2594712700000004E-07, -1.5649089619E-05, 2.85E-05, 2.85E-05
DataValue, 2.9500000000000002E-05, -8.0952958100000009E-07, -4.7236986575000005E-05, 2.9500000000000002E-05, 2.9500000000000002E-05
DataValue, 3.0500000000000003E-05, 5.11123801E-07, -9.286394924900001E-05, 3.0500000000000003E-05, 3.0500000000000003E-05
DataValue, 3.15E-05, 7.1689112200000006E-07, -9.988348028900001E-05, 3.15E-05, 3.15E-05
DataValue, 3.2500000000000004E-05, -5.62859213E-07, -0.00010339324944700001, 3.2500000000000004E-05, 3.2500000000000004E-05
DataValue, 3.35E-05, 5.06950016E-07, -0.000212195998756, 3.35E-05, 3.35E-05
DataValue, 3.4500000000000005E-05, 1.16353831E-07, -0.00015603973588400002, 3.4500000000000005E-05, 3.4500000000000005E-05
DataValue, 3.55E-05, 1.2720565200000002E-07, -0.00017358857439800002, 3.55E-05, 3.55E-05
DataValue, 3.65E-05, -7.13323971E-07, 0.000247583375312, 3.65E-05, 3.65E-05
DataValue, 3.7500000000000003E-05, 1.071175461E-06, -3.6707686377E-05, 3.7500000000000003E-05, 3.7500000000000003E-05
DataValue, 3.85E-05, -2.0913140000000002E-07, -3.3197920857E-05, 3.85E-05, 3.85E-05
DataValue, 3.9500000000000005E-05, -7.65913569E-07, 0.000124741563923, 3.9500000000000005E-05, 3.9500000000000005E-05
DataValue, 4.05E-05, 4.01422966E-07, -3.6707686377E-05, 4.05E-05, 4.05E-05
DataValue, 4.1500000000000006E-05, 1.0925840100000001E-07, -0.000184117874596, 4.1500000000000006E-05, 4.1500000000000006E-05
DataValue, 4.25E-05, -1.01239202E-07, -1.61002481E-06, 4.25E-05, 4.25E-05
DataValue, 4.35E-05, 2.95756792E-07, 8.6134132289000012E-05, 4.35E-05, 4.35E-05
DataValue, 4.4500000000000004E-05, -1.59115615E-07, -0.0001630592742, 4.4500000000000004E-05, 4.4500000000000004E-05
DataValue, 4.55E-05, -1.1988208800000002E-07, -0.000138490911922, 4.55E-05, 4.55E-05
DataValue, 4.6500000000000005E-05, 1.5781337500000002E-07, -8.584441820900001E-05, 4.6500000000000005E-05, 4.6500000000000005E-05
DataValue, 4.75E-05, 3.13773597E-07, -0.00039470384945200005, 4.75E-05, 4.75E-05
DataValue, 4.85E-05, -4.2637660200000005E-07, -0.000356096425094, 4.85E-05, 4.85E-05
DataValue, 4.9500000000000004E-05, -3.9884643000000005E-08, -0.000138490911922, 4.9500000000000004E-05, 4.9500000000000004E-05
DataValue, 5.05E-05, -1.6998422E-08, -0.000198156936676, 5.05E-05, 5.05E-05
DataValue, 5.1500000000000005E-05, 6.7729303000000011E-08, -0.000250803423114, 5.1500000000000005E-05, 5.1500000000000005E-05
DataValue, 5.25E-05, -2.1907889900000003E-07, -0.00020517647499200003, 5.25E-05, 5.25E-05
DataValue, 5.3500000000000006E-05, 1.7137814700000002E-07, -0.000608799571637, 5.3500000000000006E-05, 5.3500000000000006E-05
DataValue, 5.45E-05, -3.3566647100000005E-07, -0.000254313199548, 5.45E-05, 5.45E-05
DataValue, 5.55E-05, 3.4730294400000003E-07, -0.000384174549254, 5.55E-05, 5.55E-05
DataValue, 5.6500000000000005E-05, 2.91583007E-07, -0.00017358857439800002, 5.6500000000000005E-05, 5.6500000000000005E-05
DataValue, 5.75E-05, -4.9719176300000006E-07, -0.0001630592742, 5.75E-05, 5.75E-05
DataValue, 5.8500000000000006E-05, 1.4897887E-07, -0.00017358857439800002, 5.8500000000000006E-05, 5.8500000000000006E-05
DataValue, 5.95E-05, 1.4722302000000001E-08, -0.00036662572529200005, 5.95E-05, 5.95E-05
DataValue, 6.0500000000000007E-05, 4.6194276100000003E-07, -9.988348028900001E-05, 6.0500000000000007E-05, 6.0500000000000007E-05
DataValue, 6.15E-05, -1.55637466E-07, -0.00023325459915200003, 6.15E-05, 6.15E-05
DataValue, 6.25E-05, -2.84468115E-07, -0.00014200067380400002, 6.25E-05, 6.25E-05
DataValue, 6.35E-05, 7.64541767E-07, -0.00015603973588400002, 6.35E-05, 6.35E-05
DataValue, 6.4500000000000009E-05, -9.8595805000000012E-08, -0.00036662572529200005, 6.4500000000000009E-05, 6.4500000000000009E-05
DataValue, 6.55E-05, -3.8123022300000005E-07, -0.000384174549254, 6.55E-05, 6.55E-05
DataValue, 6.65E-05, 8.0600131000000008E-07, 8.9192744780000011E-06, 6.65E-05, 6.65E-05
DataValue, 6.75E-05, -6.9727164E-08, 8.6134132289000012E-05, 6.75E-05, 6.75E-05
DataValue, 6.85E-05, -7.4866193200000011E-07, -5.7766286773E-05, 6.85E-05, 6.85E-05
DataValue, 6.9500000000000009E-05, 1.0604627510000001E-06, -2.9688155337E-05, 6.9500000000000009E-05, 6.9500000000000009E-05
DataValue, 7.05E-05, -2.3800004100000003E-07, 1.899741505E-06, 7.05E-05, 7.05E-05
DataValue, 7.15E-05, -7.701569300000001E-07, 8.9643901447000008E-05, 7.15E-05, 7.15E-05
DataValue, 7.25E-05, 6.9956991000000005E-07, -7.1805348853E-05, 7.25E-05, 7.25E-05
DataValue, 7.3500000000000011E-05, 2.3765491000000002E-08, -0.00033152804826400004, 7.3500000000000011E-05, 7.3500000000000011E-05
DataValue, 7.4500000000000008E-05, -2.79876957E-07, 2.6468105716E-05, 7.4500000000000008E-05, 7.4500000000000008E-05
DataValue, 7.55E-05, 3.7964974800000003E-07, -6.1276048655E-05, 7.55E-05, 7.55E-05
DataValue, 7.65E-05, 6.6407601E-08, -0.000180608098162, 7.65E-05, 7.65E-05
DataValue, 7.75E-05, -8.0626011800000008E-07, -0.00011743231152600001, 7.75E-05, 7.75E-05
DataValue, 7.8500000000000011E-05, 6.76544573E-07, -9.6373711131000014E-05, 7.8500000000000011E-05, 7.8500000000000011E-05
DataValue, 7.9500000000000008E-05, 1.8250823100000003E-07, -0.00045787965063900005, 7.9500000000000008E-05, 7.9500000000000008E-05
DataValue, 8.05E-05, -5.22164839E-07, -0.00042278197361200005, 8.05E-05, 8.05E-05
DataValue, 8.15E-05, 8.9711207000000011E-08, -0.00037013547262200003, 8.15E-05, 8.15E-05
DataValue, 8.25E-05, 1.1231917800000001E-07, -0.00021570577519, 8.25E-05, 8.25E-05
DataValue, 8.350000000000001E-05, -1.35603315E-07, -0.00023325459915200003, 8.350000000000001E-05, 8.350000000000001E-05
DataValue, 8.4500000000000008E-05, -2.2346137E-07, -5.4256517615000006E-05, 8.4500000000000008E-05, 8.4500000000000008E-05
DataValue, 8.55E-05, 4.8599478000000004E-08, -0.000320998748066, 8.55E-05, 8.55E-05
DataValue, 8.65E-05, -2.2269618700000001E-07, -0.000289410847472, 8.65E-05, 8.65E-05
DataValue, 8.75E-05, 1.5802206100000002E-07, -0.00014902021212, 8.75E-05, 8.75E-05
DataValue, 8.850000000000001E-05, 5.49870379E-07, -0.000212195998756, 8.850000000000001E-05, 8.850000000000001E-05
DataValue, 8.9500000000000007E-05, -3.93821125E-07, -0.00053158472292100007, 8.9500000000000007E-05, 8.9500000000000007E-05
DataValue, 9.05E-05, -1.6945640000000002E-09, -0.000289410847472, 9.05E-05, 9.05E-05
DataValue, 9.15E-05, -3.1954464000000005E-08, -0.00036311594885800005, 9.15E-05, 9.15E-05
DataValue, 9.2500000000000012E-05, 6.0912129E-08, -0.00010339324944700001, 9.2500000000000012E-05, 9.2500000000000012E-05
DataValue, 9.3500000000000009E-05, -1.5676724E-08, -0.000226235060836, 9.3500000000000009E-05, 9.3500000000000009E-05
DataValue, 9.45E-05, 7.05900163E-07, -0.00027537179994400004, 9.45E-05, 9.45E-05
DataValue, 9.55E-05, -3.7615214400000004E-07, -2.6178387998000003E-05, 9.55E-05, 9.55E-05
DataValue, 9.65E-05, -4.1016844000000003E-07, -0.00024378389935, 9.65E-05, 9.65E-05
DataValue, 9.7500000000000012E-05, 9.1521519600000011E-07, -0.00024378389935, 9.7500000000000012E-05, 9.7500000000000012E-05
DataValue, 9.8500000000000009E-05, 2.7521892000000002E-08, -0.000226235060836, 9.8500000000000009E-05, 9.8500000000000009E-05
DataValue, 9.95E-05, -9.76619845E-07, -0.000254313199548, 9.95E-05, 9.95E-05
DataValue, 0.0001005, 7.2565603700000008E-07, -0.002669032430276, 0.0001005, 0.0001005
DataValue, 0.0001015, 8.0217535000000007E-07, -0.0071580233052370009, 0.0001015, 0.0001015
DataValue, 0.00010250000000000001, -2.3772179200000003E-07, -0.012377046048641, 0.00010250000000000001, 0.00010250000000000001
DataValue, 0.00010350000000000001, -1.4061186E-07, -0.016992388293147, 0.00010350000000000001, 0.00010350000000000001
DataValue, 0.0001045, 8.849552840000001E-07, -0.021825335919857, 0.0001045, 0.0001045
DataValue, 0.0001055, -5.58059355E-07, -0.026946086436510003, 0.0001055, 0.0001055
DataValue, 0.0001065, -8.5517968E-08, -0.031979091465473, 0.0001065, 0.0001065
DataValue, 0.00010750000000000001, 1.3051158020000002E-06, -0.037177056074142005, 0.00010750000000000001, 0.00010750000000000001
DataValue, 0.00010850000000000001, -3.3337090600000003E-07, -0.042438194155693006, 0.00010850000000000001, 0.00010850000000000001
DataValue, 0.0001095, -1.3323817400000001E-07, -0.047229025512934, 0.0001095, 0.0001095
DataValue, 0.0001105, 3.13077976E-07, -0.052019856870174006, 0.0001105, 0.0001105
DataValue, 0.00011150000000000001, 4.27856889E-07, -0.057140603661537004, 0.00011150000000000001, 0.00011150000000000001
DataValue, 0.00011250000000000001, -4.4084572400000003E-07, -0.062145531177521, 0.00011250000000000001, 0.00011250000000000001
DataValue, 0.00011350000000000001, 3.4660732200000003E-07, -0.067325949668884, 0.00011350000000000001, 0.00011350000000000001
DataValue, 0.0001145, 3.0104357100000004E-07, -0.072415105998516, 0.0001145, 0.0001145
DataValue, 0.0001155, -3.28710172E-07, -0.077128723263741011, 0.0001155, 0.0001155
DataValue, 0.00011650000000000001, 7.495161750000001E-07, -0.082407414913177, 0.00011650000000000001, 0.00011650000000000001
DataValue, 0.00011750000000000001, -2.93233057E-07, -0.087503589689732, 0.00011750000000000001, 0.00011750000000000001
DataValue, 0.00011850000000000001, 2.70435862E-07, -0.092417262494564, 0.00011850000000000001, 0.00011850000000000001
DataValue, 0.0001195, -2.1650507200000002E-07, -0.097492389380932, 0.0001195, 0.0001195
DataValue, 0.0001205, 5.4040981500000008E-07, -0.10242711752653101, 0.0001205, 0.0001205
DataValue, 0.00012150000000000001, 4.32656748E-07, -0.107614554464817, 0.00012150000000000001, 0.00012150000000000001
DataValue, 0.0001225, -1.10073699E-07, -0.11276338249445, 0.0001225, 0.0001225
DataValue, 0.00012350000000000002, 6.5762344500000009E-07, -0.11765950173139601, 0.00012350000000000002, 0.00012350000000000002
DataValue, 0.00012450000000000002, -2.2798296600000002E-07, -0.12239769101142901, 0.00012450000000000002, 0.00012450000000000002
DataValue, 0.00012550000000000002, 2.0198587000000002E-07, -0.12724468111991902, 0.00012550000000000002, 0.00012550000000000002
DataValue, 0.0001265, 4.31821974E-07, -0.132049545645714, 0.0001265, 0.0001265
DataValue, 0.0001275, -1.3177735500000002E-07, -0.13665436208248102, 0.0001275, 0.0001275
DataValue, 0.0001285, 2.3836730600000003E-07, -0.141862854361534, 0.0001285, 0.0001285
DataValue, 0.0001295, 1.9509913300000003E-07, -0.146916911005974, 0.0001295, 0.0001295
DataValue, 0.0001305, 1.3316192740000001E-06, -0.151935875415802, 0.0001305, 0.0001305
DataValue, 0.0001315, -1.029070404E-06, -0.15677584707737002, 0.0001315, 0.0001315
DataValue, 0.0001325, 6.4419776900000007E-07, -0.161696538329124, 0.0001325, 0.0001325
DataValue, 0.00013350000000000002, 4.2173536500000004E-07, -0.166971728205681, 0.00013350000000000002, 0.00013350000000000002
DataValue, 0.00013450000000000002, -4.40080527E-07, -0.17202578485012002, 0.00013450000000000002, 0.00013450000000000002
DataValue, 0.00013550000000000001, 6.6826658E-07, -0.17718163132667503, 0.00013550000000000001, 0.00013550000000000001
DataValue, 0.0001365, 5.46392243E-07, -0.182046175003052, 0.0001365, 0.0001365
DataValue, 0.0001375, -2.0947921100000002E-07, -0.186815947294235, 0.0001375, 0.0001375
DataValue, 0.0001385, -2.0697494600000003E-07, -0.191887557506561, 0.0001385, 0.0001385
DataValue, 0.0001395, 1.073123144E-06, -0.197001278400421, 0.0001395, 0.0001395
DataValue, 0.0001405, -3.28571048E-07, -0.20207640528678902, 0.0001405, 0.0001405
DataValue, 0.0001415, -4.89678939E-07, -0.206526786088943, 0.0001415, 0.0001415
DataValue, 0.00014250000000000002, 1.104357011E-06, -0.21156330406665802, 0.00014250000000000002, 0.00014250000000000002
DataValue, 0.00014350000000000002, -4.2268976600000003E-07, -0.21680338680744202, 0.00014350000000000002, 0.00014350000000000002
DataValue, 0.00014450000000000002, -6.1310047000000009E-08, -0.221696004271507, 0.00014450000000000002, 0.00014450000000000002
DataValue, 0.0001455, 8.18800913E-07, -0.22698521614074702, 0.0001455, 0.0001455
DataValue, 0.0001465, 1.8382992600000002E-07, -0.23163916170597101, 0.0001465, 0.0001465
DataValue, 0.0001475, -5.22025744E-07, -0.236419469118118, 0.0001475, 0.0001475
DataValue, 0.0001485, 2.532E-10, -0.241649016737938, 0.0001485, 0.0001485
DataValue, 0.0001495, 8.9406808000000009E-07, -0.24675573408603702, 0.0001495, 0.0001495
DataValue, 0.0001505, -5.3899907500000008E-07, -0.251971244812012, 0.0001505, 0.0001505
DataValue, 0.0001515, 3.8632779800000005E-07, -0.25717622041702304, 0.0001515, 0.0001515
DataValue, 0.00015250000000000002, 3.2817314400000003E-07, -0.26200214028358504, 0.00015250000000000002, 0.00015250000000000002
DataValue, 0.00015350000000000002, 8.8111257E-08, -0.267129927873611, 0.00015350000000000002, 0.00015350000000000002
DataValue, 0.00015450000000000002, 1.7805619700000002E-07, -0.27175930142402605, 0.00015450000000000002, 0.00015450000000000002
DataValue, 0.0001555, 7.8511562000000008E-08, -0.27666595578193703, 0.0001555, 0.0001555
DataValue, 0.0001565, 8.4940859300000012E-07, -0.281870931386948, 0.0001565, 0.0001565
DataValue, 0.0001575, -1.8234965200000002E-07, -0.286816209554672, 0.0001575, 0.0001575
DataValue, 0.0001585, 4.86011572E-07, -0.29187726974487305, 0.0001585, 0.0001585
DataValue, 0.0001595, -6.1101353000000009E-08, -0.29676288366317705, 0.0001595, 0.0001595
DataValue, 0.0001605, 2.0247280500000002E-07, -0.301862567663193, 0.0001605, 0.0001605
DataValue, 0.00016150000000000002, 2.57497135E-07, -0.306895583868027, 0.00016150000000000002, 0.00016150000000000002
DataValue, 0.00016250000000000002, 8.685912400000001E-08, -0.311886459589004, 0.00016250000000000002, 0.00016250000000000002
DataValue, 0.00016350000000000002, 6.6951872700000007E-07, -0.316666752099991, 0.00016350000000000002, 0.00016350000000000002
DataValue, 0.00016450000000000001, 6.85031296E-07, -0.32156991958618203, 0.00016450000000000001, 0.00016450000000000001
DataValue, 0.0001655, -8.6074472000000012E-08, -0.32653272151947005, 0.0001655, 0.0001655
DataValue, 0.0001665, -2.7250328600000005E-07, -0.33176928758621205, 0.0001665, 0.0001665
DataValue, 0.0001675, 9.94308266E-07, -0.33694618940353405, 0.0001675, 0.0001675
DataValue, 0.0001685, 1.79238768E-07, -0.342052906751633, 0.0001685, 0.0001685
DataValue, 0.0001695, -9.34395132E-07, -0.34682968258857705, 0.0001695, 0.0001695
DataValue, 0.0001705, 1.0522543330000001E-06, -0.35202065110206604, 0.0001705, 0.0001705
DataValue, 0.00017150000000000002, 1.1475388100000002E-07, -0.357292294502258, 0.00017150000000000002, 0.00017150000000000002
DataValue, 0.00017250000000000002, -2.84885488E-07, -0.36238849163055403, 0.00017250000000000002, 0.00017250000000000002
DataValue, 0.00017350000000000002, 3.98640452E-07, -0.367098599672317, 0.00017350000000000002, 0.00017350000000000002
DataValue, 0.0001745, 6.67431834E-07, -0.37210002541542003, 0.0001745, 0.0001745
DataValue, 0.0001755, -3.6432643900000003E-07, -0.377041757106781, 0.0001755, 0.0001755
DataValue, 0.0001765, 2.62436117E-07, -0.38220110535621604, 0.0001765, 0.0001765
DataValue, 0.0001775, 3.6545890200000003E-07, -0.38740611076355, 0.0001775, 0.0001775
DataValue, 0.0001785, -3.4011850400000003E-07, -0.39231625199317904, 0.0001785, 0.0001785
DataValue, 0.0001795, 5.42218459E-07, -0.39746159315109203, 0.0001795, 0.0001795
DataValue, 0.00018050000000000002, 1.44457275E-07, -0.402396321296692, 0.00018050000000000002, 0.00018050000000000002
DataValue, 0.00018150000000000002, -3.2024026000000004E-08, -0.40672737360000605, 0.00018150000000000002, 0.00018150000000000002
DataValue, 0.00018250000000000002, -2.64781789E-07, -0.411721765995026, 0.00018250000000000002, 0.00018250000000000002
DataValue, 0.00018350000000000002, 7.07291406E-07, -0.41671615839004506, 0.00018350000000000002, 0.00018350000000000002
DataValue, 0.0001845, 2.75931313E-07, -0.421552628278732, 0.0001845, 0.0001845
