
SetupTitle, FE PUND 3V - reverse
ApplicationTest, WGFMU Pattern Editor, Public
TestParameter, Name, ExecutionMode, Enable1, Channel1, OperationMode1, VForceRange1, InitMeasRange1, Enable2, Channel2, OperationMode2, VForceRange2, InitMeasRange2, RepeatCount, WaveformCh1, WaveformCh2, MeasurementEvent, Output_to_File_for_PatternValidation, Output_Enable, Output_Filename, DataDisplay_for_RunVector, DataDisplay_PatternValidation, DataDisplay_Mode, LogToFile, LogFile, WarningLevel, IForceRange1, IForceRange2, Result_Update_Interval_s
TestParameter, Value, Run Vector, Enable, WGFMU1:RS	RSWGFMU, Fast IV Imeas, Auto, 100uA (Imeas), Enable, WGFMU2:RS	RSWGFMU, PG Vmeas, Auto, 5V (Vmeas), 1, , Disable, C:\WGFMUPatternEditor_Pattern.csv, , Disable, x(time)_y(meas), Disable, C:\WGFMUPatternEditor_Log.log, 2, 10mA, 10mA, 10
MetaData, TestRecord.EntryPoint, true
MetaData, TestRecord.RecordTime, 04/22/2021 11:09:51
MetaData, TestRecord.TestTarget, FlashIntB_1_25um_E3
MetaData, TestRecord.IterationIndex, 8
MetaData, TestRecord.Preservation, true
MetaData, TestRecord.Flag, 
MetaData, TestRecord.Remarks, 
MetaData, TestRecord.LinkKey, 05a4f839-cc07-44fb-ba22-3ffbbcb6481d
MetaData, TestRecord.Parameters, 
Dimension1, 5000, 5000, 5000, 5000, 5000
Dimension2, 1, 1, 1, 1, 1
DataName, Time, MeasResult1_value, MeasResult2_value, MeasResult1_time, MeasResult2_time
DataValue, 5.0000000000000008E-07, 9.335206530000001E-07, -0.0016991188749670002, 5.0000000000000008E-07, 5.0000000000000008E-07
DataValue, 1.5E-06, 3.54254325E-07, -0.0017343297367920002, 1.5E-06, 1.5E-06
DataValue, 2.5E-06, 5.1207212E-07, -0.001491375267506, 2.5E-06, 2.5E-06
DataValue, 3.5000000000000004E-06, 2.79991184E-07, -0.0016322183655570002, 3.5000000000000004E-06, 3.5000000000000004E-06
DataValue, 4.5E-06, 4.2047400900000004E-07, -0.0015477124834430002, 4.5E-06, 4.5E-06
DataValue, 5.5000000000000007E-06, 9.0897430000000005E-07, -0.001653344836086, 5.5000000000000007E-06, 5.5000000000000007E-06
DataValue, 6.5000000000000004E-06, 2.7673220900000004E-07, -0.0016709503252060002, 6.5000000000000004E-06, 6.5000000000000004E-06
DataValue, 7.5E-06, 8.5377962500000008E-07, -0.0016674292273820002, 7.5E-06, 7.5E-06
DataValue, 8.5E-06, 3.32689581E-07, -0.0017448929138480002, 8.5E-06, 8.5E-06
DataValue, 9.5E-06, 2.6404296700000004E-07, -0.0017448929138480002, 9.5E-06, 9.5E-06
DataValue, 1.0500000000000001E-05, 9.12163898E-07, -0.0013927849940960002, 1.0500000000000001E-05, 1.0500000000000001E-05
DataValue, 1.15E-05, 2.4934288900000003E-07, -0.001565317856148, 1.15E-05, 1.15E-05
DataValue, 1.25E-05, 6.800136130000001E-07, -0.001431516837329, 1.25E-05, 1.25E-05
DataValue, 1.3500000000000001E-05, 4.32816535E-07, -0.0014068692689760002, 1.3500000000000001E-05, 1.3500000000000001E-05
DataValue, 1.45E-05, 8.578707020000001E-07, -0.001371658523567, 1.45E-05, 1.45E-05
DataValue, 1.55E-05, 3.58553393E-07, -0.001762498402968, 1.55E-05, 1.55E-05
DataValue, 1.65E-05, 7.59546595E-07, -0.0016815135022630002, 1.65E-05, 1.65E-05
DataValue, 1.7500000000000002E-05, 4.93073003E-07, -0.0013927849940960002, 1.7500000000000002E-05, 1.7500000000000002E-05
DataValue, 1.8500000000000002E-05, 1.22866751E-07, -0.0015617967583240002, 1.8500000000000002E-05, 1.8500000000000002E-05
DataValue, 1.95E-05, 1.0471688940000001E-06, -0.001790666952729, 1.95E-05, 1.95E-05
DataValue, 2.05E-05, 2.1280072800000002E-07, -0.0018646096577870001, 2.05E-05, 2.05E-05
DataValue, 2.15E-05, 4.3226180000000005E-07, -0.0017519351094960002, 2.15E-05, 2.15E-05
DataValue, 2.25E-05, 3.6195106600000004E-07, -0.001899820519611, 2.25E-05, 2.25E-05
DataValue, 2.3500000000000002E-05, 7.00607586E-07, -0.00165686593391, 2.3500000000000002E-05, 2.3500000000000002E-05
DataValue, 2.4500000000000003E-05, 6.67879135E-07, -0.001625176286325, 2.4500000000000003E-05, 2.4500000000000003E-05
DataValue, 2.5500000000000003E-05, 3.58553393E-07, -0.0015547546790910002, 2.5500000000000003E-05, 2.5500000000000003E-05
DataValue, 2.65E-05, 8.7444294600000009E-07, -0.00157588114962, 2.65E-05, 2.65E-05
DataValue, 2.75E-05, -1.18297763E-07, -0.001516022719443, 2.75E-05, 2.75E-05
DataValue, 2.85E-05, 8.5689993100000007E-07, -0.001766019384377, 2.85E-05, 2.85E-05
DataValue, 2.9500000000000002E-05, 4.37184951E-07, -0.0016005287179720002, 2.9500000000000002E-05, 2.9500000000000002E-05
DataValue, 3.0500000000000003E-05, -5.31841522E-07, -0.001512501738034, 3.0500000000000003E-05, 3.0500000000000003E-05
DataValue, 3.15E-05, 1.1315914600000001E-07, -0.0018540464807300001, 3.15E-05, 3.15E-05
DataValue, 3.2500000000000004E-05, 6.84104691E-07, -0.001709682168439, 3.2500000000000004E-05, 3.2500000000000004E-05
DataValue, 3.35E-05, 3.07588493E-07, -0.001713203266263, 3.35E-05, 3.35E-05
DataValue, 3.4500000000000005E-05, 1.19469092E-07, -0.0018892572261390002, 3.4500000000000005E-05, 3.4500000000000005E-05
DataValue, 3.55E-05, 7.80348614E-07, -0.001702639972791, 3.55E-05, 3.55E-05
DataValue, 3.65E-05, 1.86312846E-07, -0.0018822150304910002, 3.65E-05, 3.65E-05
DataValue, 3.7500000000000003E-05, 5.865433080000001E-07, -0.0016181340906770002, 3.7500000000000003E-05, 3.7500000000000003E-05
DataValue, 3.85E-05, 3.9246066300000003E-07, -0.0015230649150910001, 3.85E-05, 3.85E-05
DataValue, 3.9500000000000005E-05, -1.71620215E-07, -0.001646302756853, 3.9500000000000005E-05, 3.9500000000000005E-05
DataValue, 4.05E-05, 8.0586568200000011E-07, -0.0014456012286250001, 4.05E-05, 4.05E-05
DataValue, 4.1500000000000006E-05, 4.00226725E-07, -0.0015617967583240002, 4.1500000000000006E-05, 4.1500000000000006E-05
DataValue, 4.25E-05, 3.4482408800000005E-07, -0.001371658523567, 4.25E-05, 4.25E-05
DataValue, 4.35E-05, 4.25258463E-07, -0.0015512335812670002, 4.35E-05, 4.35E-05
DataValue, 4.4500000000000004E-05, 5.7974796200000006E-07, -0.001301236916333, 4.4500000000000004E-05, 4.4500000000000004E-05
DataValue, 4.55E-05, 4.5611477600000004E-07, -0.00150898064021, 4.55E-05, 4.55E-05
DataValue, 4.6500000000000005E-05, 4.2359431500000003E-07, -0.001720245345496, 4.6500000000000005E-05, 4.6500000000000005E-05
DataValue, 4.75E-05, 5.9458676600000005E-07, -0.0016005287179720002, 4.75E-05, 4.75E-05
DataValue, 4.85E-05, 2.81516662E-07, -0.001484333071858, 4.85E-05, 4.85E-05
DataValue, 4.9500000000000004E-05, 5.82868267E-07, -0.001769540482201, 4.9500000000000004E-05, 4.9500000000000004E-05
DataValue, 5.05E-05, 6.0013394400000008E-07, -0.001572360051796, 5.05E-05, 5.05E-05
DataValue, 5.1500000000000005E-05, 9.9360484E-08, -0.0014737697783860002, 5.1500000000000005E-05, 5.1500000000000005E-05
DataValue, 5.25E-05, 6.64412141E-07, -0.001449122210033, 5.25E-05, 5.25E-05
DataValue, 5.3500000000000006E-05, 5.13597627E-07, -0.001593486522324, 5.3500000000000006E-05, 5.3500000000000006E-05
DataValue, 5.45E-05, 2.9108557E-07, -0.0013892638962720002, 5.45E-05, 5.45E-05
DataValue, 5.55E-05, 4.9785745700000008E-07, -0.0015441913856190002, 5.55E-05, 5.55E-05
DataValue, 5.6500000000000005E-05, 6.7592253600000007E-07, -0.001431516837329, 5.6500000000000005E-05, 5.6500000000000005E-05
DataValue, 5.75E-05, 2.49550908E-07, -0.001449122210033, 5.75E-05, 5.75E-05
DataValue, 5.8500000000000006E-05, 3.9537292200000004E-07, -0.0014772908762100002, 5.8500000000000006E-05, 5.8500000000000006E-05
DataValue, 5.95E-05, -3.1244974300000004E-07, -0.0016005287179720002, 5.95E-05, 5.95E-05
DataValue, 6.0500000000000007E-05, 4.7622336300000004E-07, -0.001223773113452, 6.0500000000000007E-05, 6.0500000000000007E-05
DataValue, 6.15E-05, 6.6683901400000008E-07, -0.0013399687595670002, 6.15E-05, 6.15E-05
DataValue, 6.25E-05, 1.95951102E-07, -0.001354053150862, 6.25E-05, 6.25E-05
DataValue, 6.35E-05, 2.73334535E-07, -0.0015547546790910002, 6.35E-05, 6.35E-05
DataValue, 6.4500000000000009E-05, 5.8564188500000006E-07, -0.0016709503252060002, 6.4500000000000009E-05, 6.4500000000000009E-05
DataValue, 6.55E-05, 7.5330598300000005E-07, -0.0015829233452680001, 6.55E-05, 6.55E-05
DataValue, 6.65E-05, -3.1933680000000003E-09, -0.0015265860129150002, 6.65E-05, 6.65E-05
DataValue, 6.75E-05, 3.2929190800000004E-07, -0.0015371493063870002, 6.75E-05, 6.75E-05
DataValue, 6.85E-05, 7.0307031E-08, -0.002040663734078, 6.85E-05, 6.85E-05
DataValue, 6.9500000000000009E-05, 5.71704561E-07, -0.0017977091483770001, 6.9500000000000009E-05, 6.9500000000000009E-05
DataValue, 7.05E-05, 6.4135769000000008E-08, -0.001649823854677, 7.05E-05, 7.05E-05
DataValue, 7.15E-05, 6.7862680500000009E-07, -0.0016674292273820002, 7.15E-05, 7.15E-05
DataValue, 7.25E-05, 2.1273137900000003E-07, -0.001438559032977, 7.25E-05, 7.25E-05
DataValue, 7.3500000000000011E-05, 4.4716989600000005E-07, -0.0015899654245, 7.3500000000000011E-05, 7.3500000000000011E-05
DataValue, 7.4500000000000008E-05, 8.530169E-07, -0.0013892638962720002, 7.4500000000000008E-05, 7.4500000000000008E-05
DataValue, 7.55E-05, 1.1156432600000001E-07, -0.0015547546790910002, 7.55E-05, 7.55E-05
DataValue, 7.65E-05, 1.8014158300000002E-07, -0.0016181340906770002, 7.65E-05, 7.65E-05
DataValue, 7.75E-05, 3.2991596300000005E-07, -0.00150898064021, 7.75E-05, 7.75E-05
DataValue, 7.8500000000000011E-05, 5.9590422600000007E-07, -0.0015371493063870002, 7.8500000000000011E-05, 7.8500000000000011E-05
DataValue, 7.9500000000000008E-05, 2.98643641E-07, -0.0016955978935580002, 7.9500000000000008E-05, 7.9500000000000008E-05
DataValue, 8.05E-05, 3.8032615600000005E-07, -0.001364616327919, 8.05E-05, 8.05E-05
DataValue, 8.15E-05, 6.607371010000001E-07, -0.001794188050553, 8.15E-05, 8.15E-05
DataValue, 8.25E-05, 1.6752170500000003E-07, -0.001843483187258, 8.25E-05, 8.25E-05
DataValue, 8.350000000000001E-05, 4.7858094400000008E-07, -0.0017272875411440002, 8.350000000000001E-05, 8.350000000000001E-05
DataValue, 8.4500000000000008E-05, 1.1426858700000001E-07, -0.0013470109552140002, 8.4500000000000008E-05, 8.4500000000000008E-05
DataValue, 8.55E-05, 4.0071211100000003E-07, -0.0016357394633810002, 8.55E-05, 8.55E-05
DataValue, 8.65E-05, 2.73473205E-07, -0.0015547546790910002, 8.65E-05, 8.65E-05
DataValue, 8.75E-05, 6.1899442E-07, -0.001642781659029, 8.75E-05, 8.75E-05
DataValue, 8.850000000000001E-05, 2.6945150500000003E-07, -0.001649823854677, 8.850000000000001E-05, 8.850000000000001E-05
DataValue, 8.9500000000000007E-05, 1.40687121E-07, -0.001452643307857, 8.9500000000000007E-05, 8.9500000000000007E-05
DataValue, 9.05E-05, 7.3652569200000009E-07, -0.0016885556979100002, 9.05E-05, 9.05E-05
DataValue, 9.15E-05, -4.16598425E-07, -0.00157588114962, 9.15E-05, 9.15E-05
DataValue, 9.2500000000000012E-05, 1.12878206E-06, -0.0014632066013290002, 9.2500000000000012E-05, 9.2500000000000012E-05
DataValue, 9.3500000000000009E-05, 1.0525438700000001E-07, -0.0013470109552140002, 9.3500000000000009E-05, 9.3500000000000009E-05
DataValue, 9.45E-05, 1.3486256E-07, -0.001420953660272, 9.45E-05, 9.45E-05
DataValue, 9.55E-05, 9.4898348400000006E-07, -0.001315321191214, 9.55E-05, 9.55E-05
DataValue, 9.65E-05, 3.8802289700000003E-07, -0.0014702487969770002, 9.65E-05, 9.65E-05
DataValue, 9.7500000000000012E-05, 1.39230991E-07, -0.0014139114646240002, 9.7500000000000012E-05, 9.7500000000000012E-05
DataValue, 9.8500000000000009E-05, 8.001798050000001E-07, -0.001382221700624, 9.8500000000000009E-05, 9.8500000000000009E-05
DataValue, 9.95E-05, 5.9729097800000008E-07, -0.001431516837329, 9.95E-05, 9.95E-05
DataValue, 0.0001005, -8.575349966E-06, 0.0015402743592860002, 0.0001005, 0.0001005
DataValue, 0.0001015, -3.2032377931E-05, 0.0075225885957480006, 0.0001015, 0.0001015
DataValue, 0.00010250000000000001, -5.7816454500000003E-05, 0.014018980786204002, 0.00010250000000000001, 0.00010250000000000001
DataValue, 0.00010350000000000001, -8.2345548435000009E-05, 0.020089322701097003, 0.00010350000000000001, 0.00010350000000000001
DataValue, 0.0001045, -0.00010640389518800001, 0.026142058894038003, 0.0001045, 0.0001045
DataValue, 0.0001055, -0.00011321918282200001, 0.032786335796118005, 0.0001055, 0.0001055
DataValue, 0.0001065, -0.00011321918282200001, 0.039008084684610006, 0.0001065, 0.0001065
DataValue, 0.00010750000000000001, -0.00011321918282200001, 0.045184057205915007, 0.00010750000000000001, 0.00010750000000000001
DataValue, 0.00010850000000000001, -0.00011321918282200001, 0.051247358322144006, 0.00010850000000000001, 0.00010850000000000001
DataValue, 0.0001095, -0.00011321918282200001, 0.057536005973816, 0.0001095, 0.0001095
DataValue, 0.0001105, -0.00011321918282200001, 0.063891552388668, 0.0001105, 0.0001105
DataValue, 0.00011150000000000001, -0.00011321918282200001, 0.070144988596439, 0.00011150000000000001, 0.00011150000000000001
DataValue, 0.00011250000000000001, -0.00011321918282200001, 0.076342090964317, 0.00011250000000000001, 0.00011250000000000001
DataValue, 0.00011350000000000001, -0.00011321918282200001, 0.082592010498047, 0.00011350000000000001, 0.00011350000000000001
DataValue, 0.0001145, -0.00011321918282200001, 0.088757418096066007, 0.0001145, 0.0001145
DataValue, 0.0001155, -0.00011321918282200001, 0.095271416008472012, 0.0001155, 0.0001155
DataValue, 0.00011650000000000001, -0.00011321918282200001, 0.10170090943574901, 0.00011650000000000001, 0.00011650000000000001
DataValue, 0.00011750000000000001, -0.00011321918282200001, 0.10794730484485601, 0.00011750000000000001, 0.00011750000000000001
DataValue, 0.00011850000000000001, -0.00011321918282200001, 0.11400707811117201, 0.00011850000000000001, 0.00011850000000000001
DataValue, 0.0001195, -0.00011321918282200001, 0.12069713324308401, 0.0001195, 0.0001195
DataValue, 0.0001205, -0.00011321918282200001, 0.126929447054863, 0.0001205, 0.0001205
DataValue, 0.00012150000000000001, -0.00011321918282200001, 0.13346809148788402, 0.00012150000000000001, 0.00012150000000000001
DataValue, 0.0001225, -0.00011321918282200001, 0.13980251550674402, 0.0001225, 0.0001225
DataValue, 0.00012350000000000002, -0.00011321918282200001, 0.146020740270615, 0.00012350000000000002, 0.00012350000000000002
DataValue, 0.00012450000000000002, -0.00011321918282200001, 0.15206642448902102, 0.00012450000000000002, 0.00012450000000000002
DataValue, 0.00012550000000000002, -0.00011321918282200001, 0.15873183310031902, 0.00012550000000000002, 0.00012550000000000002
DataValue, 0.0001265, -0.00011321918282200001, 0.165369063615799, 0.0001265, 0.0001265
DataValue, 0.0001275, -0.00011321918282200001, 0.172633051872253, 0.0001275, 0.0001275
DataValue, 0.0001285, -0.00011321918282200001, 0.17898508906364402, 0.0001285, 0.0001285
DataValue, 0.0001295, -0.00011321918282200001, 0.185435697436333, 0.0001295, 0.0001295
DataValue, 0.0001305, -0.00011321918282200001, 0.191829979419708, 0.0001305, 0.0001305
DataValue, 0.0001315, -0.00011321918282200001, 0.198474258184433, 0.0001315, 0.0001315
DataValue, 0.0001325, -0.00011321918282200001, 0.20471009612083402, 0.0001325, 0.0001325
DataValue, 0.00013350000000000002, -0.00011321918282200001, 0.211153671145439, 0.00013350000000000002, 0.00013350000000000002
DataValue, 0.00013450000000000002, -0.00011321918282200001, 0.217766255140305, 0.00013450000000000002, 0.00013450000000000002
DataValue, 0.00013550000000000001, -0.00011321918282200001, 0.224340111017227, 0.00013550000000000001, 0.00013550000000000001
DataValue, 0.0001365, -0.00011321918282200001, 0.230818897485733, 0.0001365, 0.0001365
DataValue, 0.0001375, -0.00011321918282200001, 0.23734697699546803, 0.0001375, 0.0001375
DataValue, 0.0001385, -0.00011321918282200001, 0.24363562464714003, 0.0001385, 0.0001385
DataValue, 0.0001395, -0.00011321918282200001, 0.25006863474845903, 0.0001395, 0.0001395
DataValue, 0.0001405, -0.00011321918282200001, 0.256403058767319, 0.0001405, 0.0001405
DataValue, 0.0001415, -0.00011321918282200001, 0.26314240694046004, 0.0001415, 0.0001415
DataValue, 0.00014250000000000002, -0.00011321918282200001, 0.269674003124237, 0.00014250000000000002, 0.00014250000000000002
DataValue, 0.00014350000000000002, -0.00011321918282200001, 0.27605420351028404, 0.00014350000000000002, 0.00014350000000000002
DataValue, 0.00014450000000000002, -0.00011321918282200001, 0.28246256709098805, 0.00014450000000000002, 0.00014450000000000002
DataValue, 0.0001455, -0.00011321918282200001, 0.288804054260254, 0.0001455, 0.0001455
DataValue, 0.0001465, -0.00011321918282200001, 0.295469433069229, 0.0001465, 0.0001465
DataValue, 0.0001475, -0.00011321918282200001, 0.30191653966903703, 0.0001475, 0.0001475
DataValue, 0.0001485, -0.00011321918282200001, 0.30843758583068803, 0.0001485, 0.0001485
DataValue, 0.0001495, -0.00011321918282200001, 0.31453257799148604, 0.0001495, 0.0001495
DataValue, 0.0001505, -0.00011321918282200001, 0.321025431156158, 0.0001505, 0.0001505
DataValue, 0.0001515, -0.00011321918282200001, 0.32752183079719505, 0.0001515, 0.0001515
DataValue, 0.00015250000000000002, -0.00011321918282200001, 0.33423301577568004, 0.00015250000000000002, 0.00015250000000000002
DataValue, 0.00015350000000000002, -0.00011321918282200001, 0.340972363948822, 0.00015350000000000002, 0.00015350000000000002
DataValue, 0.00015450000000000002, -0.00011321918282200001, 0.347894787788391, 0.00015450000000000002, 0.00015450000000000002
DataValue, 0.0001555, -0.00011321918282200001, 0.35442641377449, 0.0001555, 0.0001555
DataValue, 0.0001565, -0.00011321918282200001, 0.36097913980484003, 0.0001565, 0.0001565
DataValue, 0.0001575, -0.00011321918282200001, 0.367405116558075, 0.0001575, 0.0001575
DataValue, 0.0001585, -0.00011321918282200001, 0.37419727444648704, 0.0001585, 0.0001585
DataValue, 0.0001595, -0.00011321918282200001, 0.381507039070129, 0.0001595, 0.0001595
DataValue, 0.0001605, -0.00011321918282200001, 0.388897776603699, 0.0001605, 0.0001605
DataValue, 0.00016150000000000002, -0.00011321918282200001, 0.396288514137268, 0.00016150000000000002, 0.00016150000000000002
DataValue, 0.00016250000000000002, -0.00011321918282200001, 0.40378138422966003, 0.00016250000000000002, 0.00016250000000000002
DataValue, 0.00016350000000000002, -0.00011321918282200001, 0.41149958968162503, 0.00016350000000000002, 0.00016350000000000002
DataValue, 0.00016450000000000001, -0.00011321918282200001, 0.41877764463424705, 0.00016450000000000001, 0.00016450000000000001
DataValue, 0.0001655, -0.00011321918282200001, 0.426316291093826, 0.0001655, 0.0001655
DataValue, 0.0001665, -0.00011321918282200001, 0.43380913138389604, 0.0001665, 0.0001665
DataValue, 0.0001675, -0.00011321918282200001, 0.441006243228912, 0.0001675, 0.0001675
DataValue, 0.0001685, -0.00011321918282200001, 0.44842514395713806, 0.0001685, 0.0001685
DataValue, 0.0001695, -0.00011321918282200001, 0.455977857112884, 0.0001695, 0.0001695
DataValue, 0.0001705, -0.00011321918282200001, 0.46335101127624506, 0.0001705, 0.0001705
DataValue, 0.00017150000000000002, -0.00011321918282200001, 0.470812171697617, 0.00017150000000000002, 0.00017150000000000002
DataValue, 0.00017250000000000002, -0.00011321918282200001, 0.478132486343384, 0.00017250000000000002, 0.00017250000000000002
DataValue, 0.00017350000000000002, -0.00011321918282200001, 0.48566761612892106, 0.00017350000000000002, 0.00017350000000000002
DataValue, 0.0001745, -0.00011321918282200001, 0.49307245016098006, 0.0001745, 0.0001745
DataValue, 0.0001755, -0.00011321918282200001, 0.500396311283112, 0.0001755, 0.0001755
DataValue, 0.0001765, -0.00011321918282200001, 0.50794899463653609, 0.0001765, 0.0001765
DataValue, 0.0001775, -0.00011321918282200001, 0.51517075300216708, 0.0001775, 0.0001775
DataValue, 0.0001785, -0.00011321918282200001, 0.522737562656403, 0.0001785, 0.0001785
DataValue, 0.0001795, -0.00011321918282200001, 0.530219852924347, 0.0001795, 0.0001795
DataValue, 0.00018050000000000002, -0.00011321918282200001, 0.537818312644958, 0.00018050000000000002, 0.00018050000000000002
DataValue, 0.00018150000000000002, -0.00011321918282200001, 0.54564917087554909, 0.00018150000000000002, 0.00018150000000000002
