
SetupTitle, FE PUND 2.5V - reverse
ApplicationTest, WGFMU Pattern Editor, Public
TestParameter, Name, ExecutionMode, Enable1, Channel1, OperationMode1, VForceRange1, InitMeasRange1, Enable2, Channel2, OperationMode2, VForceRange2, InitMeasRange2, RepeatCount, WaveformCh1, WaveformCh2, MeasurementEvent, Output_to_File_for_PatternValidation, Output_Enable, Output_Filename, DataDisplay_for_RunVector, DataDisplay_PatternValidation, DataDisplay_Mode, LogToFile, LogFile, WarningLevel, IForceRange1, IForceRange2, Result_Update_Interval_s
TestParameter, Value, Run Vector, Enable, WGFMU1:RS	RSWGFMU, Fast IV Imeas, Auto, 10uA (Imeas), Enable, WGFMU2:RS	RSWGFMU, PG Vmeas, Auto, 5V (Vmeas), 1, , Disable, C:\WGFMUPatternEditor_Pattern.csv, , Disable, x(time)_y(meas), Disable, C:\WGFMUPatternEditor_Log.log, 2, 10mA, 10mA, 10
MetaData, TestRecord.EntryPoint, true
MetaData, TestRecord.RecordTime, 04/22/2021 14:37:01
MetaData, TestRecord.TestTarget, FlashIntB_2_25um_D12
MetaData, TestRecord.IterationIndex, 2
MetaData, TestRecord.Preservation, true
MetaData, TestRecord.Flag, 
MetaData, TestRecord.Remarks, 
MetaData, TestRecord.LinkKey, 675b916d-c030-4c9e-9e34-d40204a4b4b9
MetaData, TestRecord.Parameters, 
Dimension1, 5000, 5000, 5000, 5000, 5000
Dimension2, 1, 1, 1, 1, 1
DataName, Time, MeasResult1_value, MeasResult2_value, MeasResult1_time, MeasResult2_time
DataValue, 5.0000000000000008E-07, 2.8884948000000004E-08, -0.0018540464807300001, 5.0000000000000008E-07, 5.0000000000000008E-07
DataValue, 1.5E-06, -4.867725E-09, -0.001794188050553, 1.5E-06, 1.5E-06
DataValue, 2.5E-06, -1.6060213E-08, -0.002037142636254, 2.5E-06, 2.5E-06
DataValue, 3.5000000000000004E-06, 1.1637163000000001E-08, -0.001906862598844, 3.5000000000000004E-06, 3.5000000000000004E-06
DataValue, 4.5E-06, 9.191216E-09, -0.002061790088192, 4.5E-06, 4.5E-06
DataValue, 5.5000000000000007E-06, -2.0097078000000003E-08, -0.0019385523628440001, 5.5000000000000007E-06, 5.5000000000000007E-06
DataValue, 6.5000000000000004E-06, 3.878815E-09, -0.0019209469901400001, 6.5000000000000004E-06, 6.5000000000000004E-06
DataValue, 7.5E-06, 6.1145080000000008E-09, -0.0019561578519640003, 7.5E-06, 7.5E-06
DataValue, 8.5E-06, -1.5450478E-08, -0.001653344836086, 8.5E-06, 8.5E-06
DataValue, 9.5E-06, 1.292698E-09, -0.0018153145210820002, 9.5E-06, 9.5E-06
DataValue, 1.0500000000000001E-05, 1.3627562E-08, -0.0019843264017250003, 1.0500000000000001E-05, 1.0500000000000001E-05
DataValue, 1.15E-05, 7.74073E-10, -0.0018188356189060002, 1.15E-05, 1.15E-05
DataValue, 1.25E-05, -6.9982930000000008E-09, -0.001829398912378, 1.25E-05, 1.25E-05
DataValue, 1.3500000000000001E-05, 2.6593450000000004E-09, -0.001924467971548, 1.3500000000000001E-05, 1.3500000000000001E-05
DataValue, 1.45E-05, -8.371948E-09, -0.001685034600087, 1.45E-05, 1.45E-05
DataValue, 1.55E-05, -2.9824540000000002E-09, -0.001762498402968, 1.55E-05, 1.55E-05
DataValue, 1.65E-05, 1.1076488000000001E-08, -0.001646302756853, 1.65E-05, 1.65E-05
DataValue, 1.7500000000000002E-05, -7.2573400000000007E-10, -0.0019491155399010002, 1.7500000000000002E-05, 1.7500000000000002E-05
DataValue, 1.8500000000000002E-05, -9.12886E-09, -0.0019420734606680002, 1.8500000000000002E-05, 1.8500000000000002E-05
DataValue, 1.95E-05, 1.2316983000000002E-08, -0.001906862598844, 1.95E-05, 1.95E-05
DataValue, 2.05E-05, 1.783289E-09, -0.001713203266263, 2.05E-05, 2.05E-05
DataValue, 2.15E-05, -3.9216118E-08, -0.0013927849940960002, 2.15E-05, 2.15E-05
DataValue, 2.25E-05, 2.4371509E-08, -0.0012730682501570002, 2.25E-05, 2.25E-05
DataValue, 2.3500000000000002E-05, 1.3662604E-08, -0.001628697384149, 2.3500000000000002E-05, 2.3500000000000002E-05
DataValue, 2.4500000000000003E-05, -9.955857E-09, -0.001382221700624, 2.4500000000000003E-05, 2.4500000000000003E-05
DataValue, 2.5500000000000003E-05, 4.4184650000000004E-09, -0.0016075707972050002, 2.5500000000000003E-05, 2.5500000000000003E-05
DataValue, 2.65E-05, 4.383423E-09, -0.001621655188501, 2.65E-05, 2.65E-05
DataValue, 2.75E-05, -5.561561E-09, -0.001628697384149, 2.75E-05, 2.75E-05
DataValue, 2.85E-05, -1.0046967E-08, -0.001501938444562, 2.85E-05, 2.85E-05
DataValue, 2.9500000000000002E-05, 8.006789E-09, -0.0018822150304910002, 2.9500000000000002E-05, 2.9500000000000002E-05
DataValue, 3.0500000000000003E-05, -1.0803879000000002E-08, -0.001649823854677, 3.0500000000000003E-05, 3.0500000000000003E-05
DataValue, 3.15E-05, 1.9164500000000003E-09, -0.0014772908762100002, 3.15E-05, 3.15E-05
DataValue, 3.2500000000000004E-05, 2.855581E-09, -0.0016744713066150002, 3.2500000000000004E-05, 3.2500000000000004E-05
DataValue, 3.35E-05, 1.2513219000000001E-08, -0.0017484140116720002, 3.35E-05, 3.35E-05
DataValue, 3.4500000000000005E-05, -9.724578E-09, -0.001449122210033, 3.4500000000000005E-05, 3.4500000000000005E-05
DataValue, 3.55E-05, 3.906848E-09, -0.0016603870317340001, 3.55E-05, 3.55E-05
DataValue, 3.65E-05, -5.757798E-09, -0.001713203266263, 3.65E-05, 3.65E-05
DataValue, 3.7500000000000003E-05, -1.1771045000000001E-08, -0.001456164405681, 3.7500000000000003E-05, 3.7500000000000003E-05
DataValue, 3.85E-05, 1.3017828000000001E-08, -0.001568838953972, 3.85E-05, 3.85E-05
DataValue, 3.9500000000000005E-05, 4.5446170000000007E-09, -0.001706161070615, 3.9500000000000005E-05, 3.9500000000000005E-05
DataValue, 4.05E-05, -7.587002000000001E-09, -0.0017343297367920002, 4.05E-05, 4.05E-05
DataValue, 4.1500000000000006E-05, 1.5730360000000002E-09, -0.0018646096577870001, 4.1500000000000006E-05, 4.1500000000000006E-05
DataValue, 4.25E-05, -2.7932260000000003E-09, -0.001857567462139, 4.25E-05, 4.25E-05
DataValue, 4.35E-05, 8.630541E-09, -0.0019385523628440001, 4.35E-05, 4.35E-05
DataValue, 4.4500000000000004E-05, -1.9403242000000003E-08, -0.0018610885599630001, 4.4500000000000004E-05, 4.4500000000000004E-05
DataValue, 4.55E-05, 3.5073670000000003E-09, -0.0019174258923160001, 4.55E-05, 4.55E-05
DataValue, 4.6500000000000005E-05, 5.1823850000000008E-09, -0.002012494951487, 4.6500000000000005E-05, 4.6500000000000005E-05
DataValue, 4.75E-05, -1.531706E-09, -0.001720245345496, 4.75E-05, 4.75E-05
DataValue, 4.85E-05, 6.205618E-09, -0.0018962994217870002, 4.85E-05, 4.85E-05
DataValue, 4.9500000000000004E-05, -9.4299600000000012E-10, -0.002065311186016, 4.9500000000000004E-05, 4.9500000000000004E-05
DataValue, 5.05E-05, 4.082059E-09, -0.0016920767957340002, 5.05E-05, 5.05E-05
DataValue, 5.1500000000000005E-05, -1.3747426E-08, -0.001628697384149, 5.1500000000000005E-05, 5.1500000000000005E-05
DataValue, 5.25E-05, 7.530215000000001E-09, -0.0018047513440250002, 5.25E-05, 5.25E-05
DataValue, 5.3500000000000006E-05, -1.3705110000000002E-09, -0.0017237664433200001, 5.3500000000000006E-05, 5.3500000000000006E-05
DataValue, 5.45E-05, -5.38635E-09, -0.0018399620894340002, 5.45E-05, 5.45E-05
DataValue, 5.55E-05, 1.3340216000000002E-08, -0.0018117934232580002, 5.55E-05, 5.55E-05
DataValue, 5.6500000000000005E-05, -1.9788706E-08, -0.0014737697783860002, 5.6500000000000005E-05, 5.6500000000000005E-05
DataValue, 5.75E-05, 1.5057285000000002E-08, -0.0017554562073200002, 5.75E-05, 5.75E-05
DataValue, 5.8500000000000006E-05, -3.353901E-09, -0.001720245345496, 5.8500000000000006E-05, 5.8500000000000006E-05
DataValue, 5.95E-05, -8.3789570000000013E-09, -0.0013857427984480001, 5.95E-05, 5.95E-05
DataValue, 6.0500000000000007E-05, 7.474147E-09, -0.001505459542386, 6.0500000000000007E-05, 6.0500000000000007E-05
DataValue, 6.15E-05, -1.2485906000000002E-08, -0.001766019384377, 6.15E-05, 6.15E-05
DataValue, 6.25E-05, 1.1679214E-08, -0.0016040498157960002, 6.25E-05, 6.25E-05
DataValue, 6.35E-05, -1.0039958E-08, -0.001491375267506, 6.35E-05, 6.35E-05
DataValue, 6.4500000000000009E-05, 1.1272724E-08, -0.001642781659029, 6.4500000000000009E-05, 6.4500000000000009E-05
DataValue, 6.55E-05, -9.675519E-09, -0.001646302756853, 6.55E-05, 6.55E-05
DataValue, 6.65E-05, -4.94456E-10, -0.001308279111981, 6.65E-05, 6.65E-05
DataValue, 6.75E-05, 8.9809630000000009E-09, -0.001290673622862, 6.75E-05, 6.75E-05
DataValue, 6.85E-05, -7.124445E-09, -0.0016709503252060002, 6.85E-05, 6.85E-05
DataValue, 6.9500000000000009E-05, -7.4258080000000006E-09, -0.0016674292273820002, 6.9500000000000009E-05, 6.9500000000000009E-05
DataValue, 7.05E-05, 7.95773E-09, -0.001424474758096, 7.05E-05, 7.05E-05
DataValue, 7.15E-05, 1.8253400000000002E-09, -0.0017237664433200001, 7.15E-05, 7.15E-05
DataValue, 7.25E-05, -1.8380009000000003E-08, -0.0016744713066150002, 7.25E-05, 7.25E-05
DataValue, 7.3500000000000011E-05, 2.4427576000000003E-08, -0.0018223567167300002, 7.3500000000000011E-05, 7.3500000000000011E-05
DataValue, 7.4500000000000008E-05, -7.1384620000000008E-09, -0.001720245345496, 7.4500000000000008E-05, 7.4500000000000008E-05
DataValue, 7.55E-05, -2.4666583E-08, -0.001628697384149, 7.55E-05, 7.55E-05
DataValue, 7.65E-05, 2.3635621000000002E-08, -0.001959678716958, 7.65E-05, 7.65E-05
DataValue, 7.75E-05, -6.7670140000000006E-09, -0.001927989069372, 7.75E-05, 7.75E-05
DataValue, 7.8500000000000011E-05, 6.717235E-09, -0.0018892572261390002, 7.8500000000000011E-05, 7.8500000000000011E-05
DataValue, 7.9500000000000008E-05, -1.4707583000000001E-08, -0.001702639972791, 7.9500000000000008E-05, 7.9500000000000008E-05
DataValue, 8.05E-05, 1.8575525E-08, -0.0018751729512590002, 8.05E-05, 8.05E-05
DataValue, 8.15E-05, -1.3200768E-08, -0.001924467971548, 8.15E-05, 8.15E-05
DataValue, 8.25E-05, -4.30705E-09, -0.0019913685973730003, 8.25E-05, 8.25E-05
DataValue, 8.350000000000001E-05, 1.1616138E-08, -0.001857567462139, 8.350000000000001E-05, 8.350000000000001E-05
DataValue, 8.4500000000000008E-05, -1.1357546E-08, -0.0018540464807300001, 8.4500000000000008E-05, 8.4500000000000008E-05
DataValue, 8.55E-05, 1.2485185000000002E-08, -0.0017167243640870001, 8.55E-05, 8.55E-05
DataValue, 8.65E-05, -7.692129E-09, -0.0019491155399010002, 8.65E-05, 8.65E-05
DataValue, 8.75E-05, 8.420287E-09, -0.001847004285082, 8.75E-05, 8.75E-05
DataValue, 8.850000000000001E-05, -2.1631926E-08, -0.001843483187258, 8.850000000000001E-05, 8.850000000000001E-05
DataValue, 8.9500000000000007E-05, 1.9731917E-08, -0.001847004285082, 8.9500000000000007E-05, 8.9500000000000007E-05
DataValue, 9.05E-05, 3.4793330000000004E-09, -0.0016744713066150002, 9.05E-05, 9.05E-05
DataValue, 9.15E-05, -3.5193271E-08, -0.001505459542386, 9.15E-05, 9.15E-05
DataValue, 9.2500000000000012E-05, 2.3516479E-08, -0.0018540464807300001, 9.2500000000000012E-05, 9.2500000000000012E-05
DataValue, 9.3500000000000009E-05, 3.0167760000000004E-09, -0.0019702420104300003, 9.3500000000000009E-05, 9.3500000000000009E-05
DataValue, 9.45E-05, -2.400779E-08, -0.0019420734606680002, 9.45E-05, 9.45E-05
DataValue, 9.55E-05, 1.9262352E-08, -0.0019420734606680002, 9.55E-05, 9.55E-05
DataValue, 9.65E-05, -3.4027E-10, -0.0020089738536630004, 9.65E-05, 9.65E-05
DataValue, 9.7500000000000012E-05, -6.6478710000000004E-09, -0.002016016049311, 9.7500000000000012E-05, 9.7500000000000012E-05
DataValue, 9.8500000000000009E-05, 1.7664426000000002E-08, -0.001850525382906, 9.8500000000000009E-05, 9.8500000000000009E-05
DataValue, 9.95E-05, -1.0754820000000002E-08, -0.0018681307556110002, 9.95E-05, 9.95E-05
DataValue, 0.0001005, -1.1466202900000001E-07, 0.00097338057821600007, 0.0001005, 0.0001005
DataValue, 0.0001015, -1.93317817E-07, 0.0072866766713560009, 0.0001015, 0.0001015
DataValue, 0.00010250000000000001, -1.6602693600000001E-07, 0.013469692319632002, 0.00010250000000000001, 0.00010250000000000001
DataValue, 0.00010350000000000001, -1.9877038000000003E-07, 0.019730173051357002, 0.00010350000000000001, 0.00010350000000000001
DataValue, 0.0001045, -1.9837791900000003E-07, 0.026152621954679003, 0.0001045, 0.0001045
DataValue, 0.0001055, -1.7777308900000002E-07, 0.032001134008169, 0.0001055, 0.0001055
DataValue, 0.0001065, -1.95364279E-07, 0.038233447819948, 0.0001065, 0.0001065
DataValue, 0.00010750000000000001, -2.0302451300000001E-07, 0.044522095471621004, 0.00010750000000000001, 0.00010750000000000001
DataValue, 0.00010850000000000001, -1.80975945E-07, 0.051050174981356007, 0.00010850000000000001, 0.00010850000000000001
DataValue, 0.0001095, -1.9665382900000002E-07, 0.057250797748566007, 0.0001095, 0.0001095
DataValue, 0.0001105, -2.0747486900000002E-07, 0.063138045370579, 0.0001105, 0.0001105
DataValue, 0.00011150000000000001, -1.77303519E-07, 0.069637954235077, 0.00011150000000000001, 0.00011150000000000001
DataValue, 0.00011250000000000001, -1.8799140400000002E-07, 0.075799845159054011, 0.00011250000000000001, 0.00011250000000000001
DataValue, 0.00011350000000000001, -2.2680417500000002E-07, 0.082134269177914013, 0.00011350000000000001, 0.00011350000000000001
DataValue, 0.0001145, -1.85061864E-07, 0.088179960846901009, 0.0001145, 0.0001145
DataValue, 0.0001155, -1.93717298E-07, 0.094324246048927, 0.0001155, 0.0001155
DataValue, 0.00011650000000000001, -1.94249935E-07, 0.10058120638132101, 0.00011650000000000001, 0.00011650000000000001
DataValue, 0.00011750000000000001, -2.04075775E-07, 0.10671140253543801, 0.00011750000000000001, 0.00011750000000000001
DataValue, 0.00011850000000000001, -1.9223151100000002E-07, 0.112873293459415, 0.00011850000000000001, 0.00011850000000000001
DataValue, 0.0001195, -2.0436313300000002E-07, 0.119077436625957, 0.0001195, 0.0001195
DataValue, 0.0001205, -2.11133283E-07, 0.12548227608203902, 0.0001205, 0.0001205
DataValue, 0.00012150000000000001, -1.8120722700000002E-07, 0.131570219993591, 0.00012150000000000001, 0.00012150000000000001
DataValue, 0.0001225, -2.1730772900000003E-07, 0.13774268329143502, 0.0001225, 0.0001225
DataValue, 0.00012350000000000002, -2.3735889000000003E-07, 0.144045412540436, 0.00012350000000000002, 0.00012350000000000002
DataValue, 0.00012450000000000002, -1.7221538E-07, 0.150168567895889, 0.00012450000000000002, 0.00012450000000000002
DataValue, 0.00012550000000000002, -2.1259805300000002E-07, 0.156640321016312, 0.00012550000000000002, 0.00012550000000000002
DataValue, 0.0001265, -2.0996287700000002E-07, 0.162555724382401, 0.0001265, 0.0001265
DataValue, 0.0001275, -2.0971758400000003E-07, 0.168897196650505, 0.0001275, 0.0001275
DataValue, 0.0001285, -2.0563865600000003E-07, 0.175108373165131, 0.0001285, 0.0001285
DataValue, 0.0001295, -2.24582493E-07, 0.18164701759815202, 0.0001295, 0.0001295
DataValue, 0.0001305, -2.07888377E-07, 0.18737934529781303, 0.0001305, 0.0001305
DataValue, 0.0001315, -1.98335869E-07, 0.19399896264076202, 0.0001315, 0.0001315
DataValue, 0.0001325, -2.4604236200000004E-07, 0.200770005583763, 0.0001325, 0.0001325
DataValue, 0.00013350000000000002, -2.1901077200000002E-07, 0.20722766220569602, 0.00013350000000000002, 0.00013350000000000002
DataValue, 0.00013450000000000002, -2.14231022E-07, 0.21361842751503002, 0.00013450000000000002, 0.00013450000000000002
DataValue, 0.00013550000000000001, -2.2006204900000002E-07, 0.21975919604301403, 0.00013550000000000001, 0.00013550000000000001
DataValue, 0.0001365, -2.20559642E-07, 0.22625206410884902, 0.0001365, 0.0001365
DataValue, 0.0001375, -2.3739393400000001E-07, 0.23199142515659302, 0.0001375, 0.0001375
DataValue, 0.0001385, -2.0277921900000002E-07, 0.238213166594505, 0.0001385, 0.0001385
DataValue, 0.0001395, -2.2871046200000002E-07, 0.24483279883861503, 0.0001395, 0.0001395
DataValue, 0.0001405, -1.97011261E-07, 0.251227080821991, 0.0001405, 0.0001405
DataValue, 0.0001415, -2.44780836E-07, 0.257244616746903, 0.0001415, 0.0001415
DataValue, 0.00014250000000000002, -2.31373676E-07, 0.263807892799377, 0.00014250000000000002, 0.00014250000000000002
DataValue, 0.00014350000000000002, -2.1266814100000002E-07, 0.269783169031143, 0.00014350000000000002, 0.00014350000000000002
DataValue, 0.00014450000000000002, -2.34352271E-07, 0.276293635368347, 0.00014450000000000002, 0.00014450000000000002
DataValue, 0.0001455, -2.23650375E-07, 0.282511860132217, 0.0001455, 0.0001455
DataValue, 0.0001465, -2.33490226E-07, 0.288511782884598, 0.0001465, 0.0001465
DataValue, 0.0001475, -2.2376951800000002E-07, 0.294789880514145, 0.0001475, 0.0001475
DataValue, 0.0001485, -2.45390567E-07, 0.300884872674942, 0.0001485, 0.0001485
DataValue, 0.0001495, -2.15534584E-07, 0.306574940681457, 0.0001495, 0.0001495
DataValue, 0.0001505, -2.51522948E-07, 0.313215672969818, 0.0001505, 0.0001505
DataValue, 0.0001515, -2.3331502100000002E-07, 0.31903955340385404, 0.0001515, 0.0001515
DataValue, 0.00015250000000000002, -2.1807865400000002E-07, 0.325212001800537, 0.00015250000000000002, 0.00015250000000000002
DataValue, 0.00015350000000000002, -2.43680518E-07, 0.331542909145355, 0.00015350000000000002, 0.00015350000000000002
DataValue, 0.00015450000000000002, -2.5762031400000003E-07, 0.33770480751991305, 0.00015450000000000002, 0.00015450000000000002
DataValue, 0.0001555, -2.3631463400000003E-07, 0.343975841999054, 0.0001555, 0.0001555
DataValue, 0.0001565, -2.1362127700000003E-07, 0.35004970431327803, 0.0001565, 0.0001565
DataValue, 0.0001575, -2.7890496300000005E-07, 0.35630667209625205, 0.0001575, 0.0001575
DataValue, 0.0001585, -2.4868452900000004E-07, 0.36282768845558205, 0.0001585, 0.0001585
DataValue, 0.0001595, -2.15604672E-07, 0.36867621541023204, 0.0001595, 0.0001595
DataValue, 0.0001605, -2.7914325100000004E-07, 0.37511977553367604, 0.0001605, 0.0001605
DataValue, 0.00016150000000000002, -2.54929063E-07, 0.3811936378479, 0.00016150000000000002, 0.00016150000000000002
DataValue, 0.00016250000000000002, -2.2628555000000003E-07, 0.38755977153778104, 0.00016250000000000002, 0.00016250000000000002
DataValue, 0.00016350000000000002, -2.45797054E-07, 0.39378502964973405, 0.00016350000000000002, 0.00016350000000000002
DataValue, 0.00016450000000000001, -2.76164656E-07, 0.40032014250755305, 0.00016450000000000001, 0.00016450000000000001
DataValue, 0.0001655, -2.6826612E-07, 0.406943321228027, 0.0001655, 0.0001655
DataValue, 0.0001665, -2.3983986400000004E-07, 0.41301012039184604, 0.0001665, 0.0001665
DataValue, 0.0001675, -2.78687679E-07, 0.41904878616333, 0.0001675, 0.0001675
DataValue, 0.0001685, -2.4222976E-07, 0.42548531293869, 0.0001685, 0.0001685
DataValue, 0.0001695, -2.66969579E-07, 0.43153101205825806, 0.0001695, 0.0001695
DataValue, 0.0001705, -2.6329013300000003E-07, 0.437925279140472, 0.0001705, 0.0001705
DataValue, 0.00017150000000000002, -2.68945939E-07, 0.44412237405777005, 0.00017150000000000002, 0.00017150000000000002
DataValue, 0.00017250000000000002, -2.5197150000000004E-07, 0.45040398836135903, 0.00017250000000000002, 0.00017250000000000002
DataValue, 0.00017350000000000002, -2.6884083600000003E-07, 0.456548273563385, 0.00017350000000000002, 0.00017350000000000002
DataValue, 0.0001745, -2.7947263E-07, 0.46303409337997403, 0.0001745, 0.0001745
DataValue, 0.0001755, -2.5368154900000004E-07, 0.46910092234611506, 0.0001755, 0.0001755
DataValue, 0.0001765, -2.70754128E-07, 0.475213527679443, 0.0001765, 0.0001765
DataValue, 0.0001775, -2.74580742E-07, 0.48142471909523005, 0.0001775, 0.0001775
DataValue, 0.0001785, -2.75632004E-07, 0.48755139112472506, 0.0001785, 0.0001785
DataValue, 0.0001795, -2.7371169200000003E-07, 0.49347737431526206, 0.0001795, 0.0001795
DataValue, 0.00018050000000000002, -2.7292674100000003E-07, 0.49962517619133, 0.00018050000000000002, 0.00018050000000000002
DataValue, 0.00018150000000000002, -2.6711674600000003E-07, 0.506135642528534, 0.00018150000000000002, 0.00018150000000000002
DataValue, 0.00018250000000000002, -2.63114913E-07, 0.512181341648102, 0.00018250000000000002, 0.00018250000000000002
DataValue, 0.00018350000000000002, -2.9870381E-07, 0.51859325170517, 0.00018350000000000002, 0.00018350000000000002
DataValue, 0.0001845, -2.88345319E-07, 0.52488893270492509, 0.0001845, 0.0001845
DataValue, 0.0001855, -2.5975086300000004E-07, 0.530821919441223, 0.0001855, 0.0001855
DataValue, 0.0001865, -2.9681854100000003E-07, 0.537314832210541, 0.0001865, 0.0001865
