
SetupTitle, Break of oxide
PrimitiveTest, I/V Sweep
TestParameter, Context.MainFrame, B1500A
TestParameter, Channel.UnitType, SMU, SMU
TestParameter, Channel.Unit, SMU2:HR/AS, SMU1:HR/AS
TestParameter, Channel.IName, I1, I2
TestParameter, Channel.VName, V1, V2
TestParameter, Channel.Mode, V, V
TestParameter, Channel.Func, VAR1, CONST
TestParameter, Channel.Index, 
TestParameter, Channel.Time, 
TestParameter, Measurement.Port.Unit, SMU2:HR/AS, SMU1:HR/AS
TestParameter, Measurement.Port.SeriesResistor, NONE, NONE
TestParameter, Measurement.Port.Filter, ON, ON
TestParameter, Measurement.Port.OutputVoltageComparison, 0, 0
TestParameter, Measurement.Primary.Locus, Single
TestParameter, Measurement.Primary.Scale, LINEAR
TestParameter, Measurement.Primary.Start, 0
TestParameter, Measurement.Primary.Stop, 10
TestParameter, Measurement.Primary.Step, 0.05
TestParameter, Measurement.Primary.Compliance, 0.1
TestParameter, Measurement.Primary.PowerCompliance, 0
TestParameter, Measurement.Aborting.Condition, CONTINUE AT ANY
TestParameter, Measurement.PostOutput.Value, START
TestParameter, Measurement.PostOutput.Retention, OFF
TestParameter, Measurement.Bias.Source, 0, 0
TestParameter, Measurement.Bias.Compliance, 0.1, 0.1
TestParameter, Measurement.Monitor.Unit, SMU2:HR/AS, SMU1:HR/AS
TestParameter, Measurement.Monitor.Adc, HR ADC, HR ADC
TestParameter, Measurement.Monitor.Measurement, Compliance Side, Compliance Side
TestParameter, Measurement.Monitor.RangingMode, LIMITED, LIMITED
TestParameter, Measurement.Monitor.RangeBoundary, 1nA, 1nA
TestParameter, Measurement.Monitor.RangeRating, BY FULL RANGE, BY FULL RANGE
TestParameter, Measurement.Monitor.RangeRatingCoeff, 50, 50
TestParameter, Measurement.Timing.Hold, 1
TestParameter, Measurement.Timing.Delay, 0
TestParameter, Measurement.Adc.HighSpeed.Mode, AUTO
TestParameter, Measurement.Adc.HighSpeed.Coeff, 1
TestParameter, Measurement.Adc.HighResolution.AutoZero, OFF
TestParameter, Measurement.Adc.HighResolution.Mode, AUTO
TestParameter, Measurement.Adc.HighResolution.Coeff, 6
TestParameter, Measurement.WaitTime.Source.Coeff, 1
TestParameter, Measurement.WaitTime.Source.Offset, 0
TestParameter, Measurement.WaitTime.Monitor.Coeff, 1
TestParameter, Measurement.WaitTime.Monitor.Offset, 0
TestParameter, Function.Analysis.Name, absI
TestParameter, Function.Analysis.Unit, A
TestParameter, Function.Analysis.Definition, abs(I1)
TestParameter, Output.Graph.Enabled, true
TestParameter, Output.Graph.AutoScaling, false
TestParameter, Output.Graph.XAxis.Data, V1
TestParameter, Output.Graph.XAxis.Scale, Linear
TestParameter, Output.Graph.XAxis.Left, 0
TestParameter, Output.Graph.XAxis.Right, 3
TestParameter, Output.Graph.XAxis.RunTimeAutoScale, true
TestParameter, Output.Graph.YAxis.Data, I1, absI
TestParameter, Output.Graph.YAxis.Scale, Linear, Log
TestParameter, Output.Graph.YAxis.Bottom, 0.001, 0
TestParameter, Output.Graph.YAxis.Top, 0.01, 1
TestParameter, Output.Graph.YAxis.Group, , 
TestParameter, Output.Graph.YAxis.RunTimeAutoScale, true, true
TestParameter, AutoAnalysis.Interpolation, false
TestParameter, AutoAnalysis.Var2StepCount, 1
TestParameter, AutoAnalysis.Var2StepScript, 
TestParameter, AutoAnalysis.Line1.Enabled, false
TestParameter, AutoAnalysis.Line1.Type, 1
TestParameter, AutoAnalysis.Line1.Fix, True
TestParameter, AutoAnalysis.Line1.YAxis, 0
TestParameter, AutoAnalysis.Line1.Point1.Type, 0
TestParameter, AutoAnalysis.Line1.Point1.XY.X, 
TestParameter, AutoAnalysis.Line1.Point1.XY.Y, 
TestParameter, AutoAnalysis.Line1.Point1.Data.Var, 
TestParameter, AutoAnalysis.Line1.Point1.Data.Condition, 
TestParameter, AutoAnalysis.Line1.Point1.Data.Start, false
TestParameter, AutoAnalysis.Line1.Point1.Data.StartVar, 
TestParameter, AutoAnalysis.Line1.Point1.Data.StartCondition, 
TestParameter, AutoAnalysis.Line1.Point2.Type, 0
TestParameter, AutoAnalysis.Line1.Point2.XY.X, 
TestParameter, AutoAnalysis.Line1.Point2.XY.Y, 
TestParameter, AutoAnalysis.Line1.Point2.Data.Var, 
TestParameter, AutoAnalysis.Line1.Point2.Data.Condition, 
TestParameter, AutoAnalysis.Line1.Point2.Data.Start, false
TestParameter, AutoAnalysis.Line1.Point2.Data.StartVar, 
TestParameter, AutoAnalysis.Line1.Point2.Data.StartCondition, 
TestParameter, AutoAnalysis.Line1.GradientExpr, 0
TestParameter, AutoAnalysis.Line2.Enabled, false
TestParameter, AutoAnalysis.Line2.Type, 1
TestParameter, AutoAnalysis.Line2.Fix, True
TestParameter, AutoAnalysis.Line2.YAxis, 0
TestParameter, AutoAnalysis.Line2.Point1.Type, 0
TestParameter, AutoAnalysis.Line2.Point1.XY.X, 
TestParameter, AutoAnalysis.Line2.Point1.XY.Y, 
TestParameter, AutoAnalysis.Line2.Point1.Data.Var, 
TestParameter, AutoAnalysis.Line2.Point1.Data.Condition, 
TestParameter, AutoAnalysis.Line2.Point1.Data.Start, false
TestParameter, AutoAnalysis.Line2.Point1.Data.StartVar, 
TestParameter, AutoAnalysis.Line2.Point1.Data.StartCondition, 
TestParameter, AutoAnalysis.Line2.Point2.Type, 0
TestParameter, AutoAnalysis.Line2.Point2.XY.X, 
TestParameter, AutoAnalysis.Line2.Point2.XY.Y, 
TestParameter, AutoAnalysis.Line2.Point2.Data.Var, 
TestParameter, AutoAnalysis.Line2.Point2.Data.Condition, 
TestParameter, AutoAnalysis.Line2.Point2.Data.Start, false
TestParameter, AutoAnalysis.Line2.Point2.Data.StartVar, 
TestParameter, AutoAnalysis.Line2.Point2.Data.StartCondition, 
TestParameter, AutoAnalysis.Line2.GradientExpr, 0
TestParameter, AutoAnalysis.Marker.Enabled, false
TestParameter, AutoAnalysis.Marker.Data.Var, 
TestParameter, AutoAnalysis.Marker.Data.Condition, 
TestParameter, AutoAnalysis.Marker.Data.Start, false
TestParameter, AutoAnalysis.Marker.Data.StartVar, 
TestParameter, AutoAnalysis.Marker.Data.StartCondition, 
MetaData, TestRecord.EntryPoint, true
MetaData, TestRecord.RecordTime, 06/10/2021 12:11:21
MetaData, TestRecord.TestTarget, FlashNumA_1_25um_E12
MetaData, TestRecord.IterationIndex, 9
MetaData, TestRecord.Preservation, true
MetaData, TestRecord.Flag, 
MetaData, TestRecord.Remarks, 
MetaData, TestRecord.LinkKey, 723c670a-45f4-4992-9b65-62d44a389dc5
MetaData, TestRecord.Parameters, 
Dimension1, 201, 201, 201
Dimension2, 1, 1, 1
DataName, V1, I1, absI
DataValue, 0, 7.2000000000000006E-13, 7.2000000000000006E-13
DataValue, 0.05, 2.6975E-10, 2.6975E-10
DataValue, 0.1, 1.0489E-09, 1.0489E-09
DataValue, 0.15, 3.0993E-09, 3.0993E-09
DataValue, 0.2, 6.5435E-09, 6.5435E-09
DataValue, 0.25, 1.3508499999999998E-08, 1.3508499999999998E-08
DataValue, 0.3, 2.3319199999999996E-08, 2.3319199999999996E-08
DataValue, 0.35000000000000003, 4.0160299999999993E-08, 4.0160299999999993E-08
DataValue, 0.4, 6.69773E-08, 6.69773E-08
DataValue, 0.45, 1.1938E-07, 1.1938E-07
DataValue, 0.5, 1.8504E-07, 1.8504E-07
DataValue, 0.55, 2.7936E-07, 2.7936E-07
DataValue, 0.6, 4.1992E-07, 4.1992E-07
DataValue, 0.65, 6.2486E-07, 6.2486E-07
DataValue, 0.70000000000000007, 9.1484E-07, 9.1484E-07
DataValue, 0.75, 1.2339000000000002E-06, 1.2339000000000002E-06
DataValue, 0.8, 1.9186E-06, 1.9186E-06
DataValue, 0.85, 2.8625E-06, 2.8625E-06
DataValue, 0.9, 3.7955000000000003E-06, 3.7955000000000003E-06
DataValue, 0.95000000000000007, 5.5966000000000008E-06, 5.5966000000000008E-06
DataValue, 1, 7.276300000000001E-06, 7.276300000000001E-06
DataValue, 1.05, 9.3788E-06, 9.3788E-06
DataValue, 1.1, 7.0701E-06, 7.0701E-06
DataValue, 1.1500000000000001, 8.916E-06, 8.916E-06
DataValue, 1.2, 1.166E-05, 1.166E-05
DataValue, 1.25, 1.4038E-05, 1.4038E-05
DataValue, 1.3, 1.6102E-05, 1.6102E-05
DataValue, 1.35, 1.6954E-05, 1.6954E-05
DataValue, 1.4000000000000001, 0.00084422, 0.00084422
DataValue, 1.45, 0.00113808, 0.00113808
DataValue, 1.5, 0.0013934, 0.0013934
DataValue, 1.55, 0.0016614, 0.0016614
DataValue, 1.6, 0.0018438, 0.0018438
DataValue, 1.6500000000000001, 0.0019808, 0.0019808
DataValue, 1.7, 0.0020654000000000002, 0.0020654000000000002
DataValue, 1.75, 0.0022078, 0.0022078
DataValue, 1.8, 0.0023818, 0.0023818
DataValue, 1.85, 0.0026004, 0.0026004
DataValue, 1.9000000000000001, 0.0028428, 0.0028428
DataValue, 1.95, 0.003758, 0.003758
DataValue, 2, 0.0042626, 0.0042626
DataValue, 2.05, 0.0044608, 0.0044608
DataValue, 2.1, 0.0047404000000000005, 0.0047404000000000005
DataValue, 2.15, 0.0048854, 0.0048854
DataValue, 2.2, 0.0047682, 0.0047682
DataValue, 2.25, 0.0042602000000000004, 0.0042602000000000004
DataValue, 2.3000000000000003, 0.0042858, 0.0042858
DataValue, 2.35, 0.01575, 0.01575
DataValue, 2.4, 0.01711, 0.01711
DataValue, 2.45, 0.019292, 0.019292
DataValue, 2.5, 0.03088, 0.03088
DataValue, 2.5500000000000003, 0.033510000000000005, 0.033510000000000005
DataValue, 2.6, 0.038002, 0.038002
DataValue, 2.65, 0.050798, 0.050798
DataValue, 2.7, 0.049990000000000007, 0.049990000000000007
DataValue, 2.75, 0.052672000000000004, 0.052672000000000004
DataValue, 2.8000000000000003, 0.057964, 0.057964
DataValue, 2.85, 0.062012000000000005, 0.062012000000000005
DataValue, 2.9, 0.077456000000000011, 0.077456000000000011
DataValue, 2.95, 0.077438, 0.077438
DataValue, 3, 0.08859800000000001, 0.08859800000000001
DataValue, 3.0500000000000003, 0.03756, 0.03756
DataValue, 3.1, 0.070588000000000012, 0.070588000000000012
DataValue, 3.15, 0.049016000000000004, 0.049016000000000004
DataValue, 3.2, 0.058922, 0.058922
DataValue, 3.25, 0.059890000000000006, 0.059890000000000006
DataValue, 3.3000000000000003, 0.061360000000000005, 0.061360000000000005
DataValue, 3.35, 0.06357800000000001, 0.06357800000000001
DataValue, 3.4, 0.065742000000000009, 0.065742000000000009
DataValue, 3.45, 0.085724000000000009, 0.085724000000000009
DataValue, 3.5, 0.086056000000000007, 0.086056000000000007
DataValue, 3.5500000000000003, 0.08722, 0.08722
DataValue, 3.6, 0.087652000000000008, 0.087652000000000008
DataValue, 3.65, 0.098068, 0.098068
DataValue, 3.7, 0.096666, 0.096666
DataValue, 3.75, 0.1, 0.1
DataValue, 3.8000000000000003, 0.10000200000000001, 0.10000200000000001
DataValue, 3.85, 0.10000200000000001, 0.10000200000000001
DataValue, 3.9, 0.10000400000000001, 0.10000400000000001
DataValue, 3.95, 0.10000200000000001, 0.10000200000000001
DataValue, 4, 0.099984, 0.099984
DataValue, 4.05, 0.10000200000000001, 0.10000200000000001
DataValue, 4.1, 0.10000200000000001, 0.10000200000000001
DataValue, 4.15, 0.10000200000000001, 0.10000200000000001
DataValue, 4.2, 0.10000400000000001, 0.10000400000000001
DataValue, 4.25, 0.10000400000000001, 0.10000400000000001
DataValue, 4.3, 0.10000400000000001, 0.10000400000000001
DataValue, 4.3500000000000005, 0.10000400000000001, 0.10000400000000001
DataValue, 4.4, 0.10000400000000001, 0.10000400000000001
DataValue, 4.45, 0.10000400000000001, 0.10000400000000001
DataValue, 4.5, 0.10000400000000001, 0.10000400000000001
DataValue, 4.55, 0.10000200000000001, 0.10000200000000001
DataValue, 4.6000000000000005, 0.10000200000000001, 0.10000200000000001
DataValue, 4.65, 0.10000400000000001, 0.10000400000000001
DataValue, 4.7, 0.10000400000000001, 0.10000400000000001
DataValue, 4.75, 0.10000200000000001, 0.10000200000000001
DataValue, 4.8, 0.10000600000000001, 0.10000600000000001
DataValue, 4.8500000000000005, 0.10000400000000001, 0.10000400000000001
DataValue, 4.9, 0.1, 0.1
DataValue, 4.95, 0.10000200000000001, 0.10000200000000001
DataValue, 5, 0.10000400000000001, 0.10000400000000001
DataValue, 5.05, 0.10000600000000001, 0.10000600000000001
DataValue, 5.1000000000000005, 0.10000400000000001, 0.10000400000000001
DataValue, 5.15, 0.10000800000000001, 0.10000800000000001
DataValue, 5.2, 0.10000400000000001, 0.10000400000000001
DataValue, 5.25, 0.10000400000000001, 0.10000400000000001
DataValue, 5.3, 0.10000400000000001, 0.10000400000000001
DataValue, 5.3500000000000005, 0.10000400000000001, 0.10000400000000001
DataValue, 5.4, 0.10000400000000001, 0.10000400000000001
DataValue, 5.45, 0.10000200000000001, 0.10000200000000001
DataValue, 5.5, 0.10000400000000001, 0.10000400000000001
DataValue, 5.55, 0.10000600000000001, 0.10000600000000001
DataValue, 5.6000000000000005, 0.10000400000000001, 0.10000400000000001
DataValue, 5.65, 0.10000400000000001, 0.10000400000000001
DataValue, 5.7, 0.10000400000000001, 0.10000400000000001
DataValue, 5.75, 0.10000400000000001, 0.10000400000000001
DataValue, 5.8, 0.10000400000000001, 0.10000400000000001
DataValue, 5.8500000000000005, 0.10001000000000002, 0.10001000000000002
DataValue, 5.9, 0.10000600000000001, 0.10000600000000001
DataValue, 5.95, 0.10000400000000001, 0.10000400000000001
DataValue, 6, 0.10000200000000001, 0.10000200000000001
DataValue, 6.05, 0.10000400000000001, 0.10000400000000001
DataValue, 6.1000000000000005, 0.10000200000000001, 0.10000200000000001
DataValue, 6.15, 0.10000600000000001, 0.10000600000000001
DataValue, 6.2, 0.10000600000000001, 0.10000600000000001
DataValue, 6.25, 0.10000600000000001, 0.10000600000000001
DataValue, 6.3, 0.10000800000000001, 0.10000800000000001
DataValue, 6.3500000000000005, 0.10000400000000001, 0.10000400000000001
DataValue, 6.4, 0.10000200000000001, 0.10000200000000001
DataValue, 6.45, 0.10000200000000001, 0.10000200000000001
DataValue, 6.5, 0.10000600000000001, 0.10000600000000001
DataValue, 6.55, 0.10000400000000001, 0.10000400000000001
DataValue, 6.6000000000000005, 0.10001000000000002, 0.10001000000000002
DataValue, 6.65, 0.10000200000000001, 0.10000200000000001
DataValue, 6.7, 0.10000400000000001, 0.10000400000000001
DataValue, 6.75, 0.10000800000000001, 0.10000800000000001
DataValue, 6.8, 0.10000800000000001, 0.10000800000000001
DataValue, 6.8500000000000005, 0.10000400000000001, 0.10000400000000001
DataValue, 6.9, 0.10001000000000002, 0.10001000000000002
DataValue, 6.95, 0.10000200000000001, 0.10000200000000001
DataValue, 7, 0.10000400000000001, 0.10000400000000001
DataValue, 7.05, 0.10000400000000001, 0.10000400000000001
DataValue, 7.1000000000000005, 0.10000400000000001, 0.10000400000000001
DataValue, 7.15, 0.10000800000000001, 0.10000800000000001
DataValue, 7.2, 0.10001000000000002, 0.10001000000000002
DataValue, 7.25, 0.100012, 0.100012
DataValue, 7.3, 0.10000800000000001, 0.10000800000000001
DataValue, 7.3500000000000005, 0.10000400000000001, 0.10000400000000001
DataValue, 7.4, 0.10000200000000001, 0.10000200000000001
DataValue, 7.45, 0.10000800000000001, 0.10000800000000001
DataValue, 7.5, 0.10000800000000001, 0.10000800000000001
DataValue, 7.55, 0.10000800000000001, 0.10000800000000001
DataValue, 7.6000000000000005, 0.10000200000000001, 0.10000200000000001
DataValue, 7.65, 0.100014, 0.100014
DataValue, 7.7, 0.10000400000000001, 0.10000400000000001
DataValue, 7.75, 0.099998, 0.099998
DataValue, 7.8, 0.100012, 0.100012
DataValue, 7.8500000000000005, 0.099994000000000013, 0.099994000000000013
DataValue, 7.9, 0.10001000000000002, 0.10001000000000002
DataValue, 7.95, 0.10000600000000001, 0.10000600000000001
DataValue, 8, 0.099998, 0.099998
DataValue, 8.05, 0.10000600000000001, 0.10000600000000001
DataValue, 8.1, 0.10000400000000001, 0.10000400000000001
DataValue, 8.15, 0.099994000000000013, 0.099994000000000013
DataValue, 8.2, 0.10000600000000001, 0.10000600000000001
DataValue, 8.25, 0.10001000000000002, 0.10001000000000002
DataValue, 8.3, 0.10000400000000001, 0.10000400000000001
DataValue, 8.35, 0.10000800000000001, 0.10000800000000001
DataValue, 8.4, 0.099986, 0.099986
DataValue, 8.45, 0.099998, 0.099998
DataValue, 8.5, 0.10000800000000001, 0.10000800000000001
DataValue, 8.55, 0.100012, 0.100012
DataValue, 8.6, 0.10000600000000001, 0.10000600000000001
DataValue, 8.65, 0.099998, 0.099998
DataValue, 8.7000000000000011, 0.1, 0.1
DataValue, 8.75, 0.10001000000000002, 0.10001000000000002
DataValue, 8.8, 0.10001000000000002, 0.10001000000000002
DataValue, 8.85, 0.10000400000000001, 0.10000400000000001
DataValue, 8.9, 0.1, 0.1
DataValue, 8.9500000000000011, 0.10000400000000001, 0.10000400000000001
DataValue, 9, 0.099998, 0.099998
DataValue, 9.05, 0.10000200000000001, 0.10000200000000001
DataValue, 9.1, 0.10000600000000001, 0.10000600000000001
DataValue, 9.15, 0.10000800000000001, 0.10000800000000001
DataValue, 9.2000000000000011, 0.10000400000000001, 0.10000400000000001
DataValue, 9.25, 0.10000800000000001, 0.10000800000000001
DataValue, 9.3, 0.100012, 0.100012
DataValue, 9.35, 0.10001000000000002, 0.10001000000000002
DataValue, 9.4, 0.10000200000000001, 0.10000200000000001
DataValue, 9.4500000000000011, 0.099996000000000015, 0.099996000000000015
DataValue, 9.5, 0.1, 0.1
DataValue, 9.55, 0.10000400000000001, 0.10000400000000001
DataValue, 9.6, 0.10000200000000001, 0.10000200000000001
DataValue, 9.65, 0.10000400000000001, 0.10000400000000001
DataValue, 9.7000000000000011, 0.10000200000000001, 0.10000200000000001
DataValue, 9.75, 0.099996000000000015, 0.099996000000000015
DataValue, 9.8, 0.10000800000000001, 0.10000800000000001
DataValue, 9.85, 0.10000800000000001, 0.10000800000000001
DataValue, 9.9, 0.099994000000000013, 0.099994000000000013
DataValue, 9.9500000000000011, 0.10000800000000001, 0.10000800000000001
DataValue, 10, 0.10000400000000001, 0.10000400000000001