
SetupTitle, Break of oxide
PrimitiveTest, I/V Sweep
TestParameter, Context.MainFrame, B1500A
TestParameter, Channel.UnitType, SMU, SMU
TestParameter, Channel.Unit, SMU2:HR/AS, SMU1:HR/AS
TestParameter, Channel.IName, I1, I2
TestParameter, Channel.VName, V1, V2
TestParameter, Channel.Mode, V, V
TestParameter, Channel.Func, VAR1, CONST
TestParameter, Channel.Index, 
TestParameter, Channel.Time, 
TestParameter, Measurement.Port.Unit, SMU2:HR/AS, SMU1:HR/AS
TestParameter, Measurement.Port.SeriesResistor, NONE, NONE
TestParameter, Measurement.Port.Filter, ON, ON
TestParameter, Measurement.Port.OutputVoltageComparison, 0, 0
TestParameter, Measurement.Primary.Locus, Single
TestParameter, Measurement.Primary.Scale, LINEAR
TestParameter, Measurement.Primary.Start, 0
TestParameter, Measurement.Primary.Stop, 10
TestParameter, Measurement.Primary.Step, 0.05
TestParameter, Measurement.Primary.Compliance, 0.1
TestParameter, Measurement.Primary.PowerCompliance, 0
TestParameter, Measurement.Aborting.Condition, CONTINUE AT ANY
TestParameter, Measurement.PostOutput.Value, START
TestParameter, Measurement.PostOutput.Retention, OFF
TestParameter, Measurement.Bias.Source, 0, 0
TestParameter, Measurement.Bias.Compliance, 0.1, 0.1
TestParameter, Measurement.Monitor.Unit, SMU2:HR/AS, SMU1:HR/AS
TestParameter, Measurement.Monitor.Adc, HR ADC, HR ADC
TestParameter, Measurement.Monitor.Measurement, Compliance Side, Compliance Side
TestParameter, Measurement.Monitor.RangingMode, LIMITED, LIMITED
TestParameter, Measurement.Monitor.RangeBoundary, 1nA, 1nA
TestParameter, Measurement.Monitor.RangeRating, BY FULL RANGE, BY FULL RANGE
TestParameter, Measurement.Monitor.RangeRatingCoeff, 50, 50
TestParameter, Measurement.Timing.Hold, 1
TestParameter, Measurement.Timing.Delay, 0
TestParameter, Measurement.Adc.HighSpeed.Mode, AUTO
TestParameter, Measurement.Adc.HighSpeed.Coeff, 1
TestParameter, Measurement.Adc.HighResolution.AutoZero, OFF
TestParameter, Measurement.Adc.HighResolution.Mode, AUTO
TestParameter, Measurement.Adc.HighResolution.Coeff, 6
TestParameter, Measurement.WaitTime.Source.Coeff, 1
TestParameter, Measurement.WaitTime.Source.Offset, 0
TestParameter, Measurement.WaitTime.Monitor.Coeff, 1
TestParameter, Measurement.WaitTime.Monitor.Offset, 0
TestParameter, Function.Analysis.Name, absI
TestParameter, Function.Analysis.Unit, A
TestParameter, Function.Analysis.Definition, abs(I1)
TestParameter, Output.Graph.Enabled, true
TestParameter, Output.Graph.AutoScaling, false
TestParameter, Output.Graph.XAxis.Data, V1
TestParameter, Output.Graph.XAxis.Scale, Linear
TestParameter, Output.Graph.XAxis.Left, 0
TestParameter, Output.Graph.XAxis.Right, 3
TestParameter, Output.Graph.XAxis.RunTimeAutoScale, true
TestParameter, Output.Graph.YAxis.Data, I1, absI
TestParameter, Output.Graph.YAxis.Scale, Linear, Log
TestParameter, Output.Graph.YAxis.Bottom, 0.001, 0
TestParameter, Output.Graph.YAxis.Top, 0.01, 1
TestParameter, Output.Graph.YAxis.Group, , 
TestParameter, Output.Graph.YAxis.RunTimeAutoScale, true, true
TestParameter, AutoAnalysis.Interpolation, false
TestParameter, AutoAnalysis.Var2StepCount, 1
TestParameter, AutoAnalysis.Var2StepScript, 
TestParameter, AutoAnalysis.Line1.Enabled, false
TestParameter, AutoAnalysis.Line1.Type, 1
TestParameter, AutoAnalysis.Line1.Fix, True
TestParameter, AutoAnalysis.Line1.YAxis, 0
TestParameter, AutoAnalysis.Line1.Point1.Type, 0
TestParameter, AutoAnalysis.Line1.Point1.XY.X, 
TestParameter, AutoAnalysis.Line1.Point1.XY.Y, 
TestParameter, AutoAnalysis.Line1.Point1.Data.Var, 
TestParameter, AutoAnalysis.Line1.Point1.Data.Condition, 
TestParameter, AutoAnalysis.Line1.Point1.Data.Start, false
TestParameter, AutoAnalysis.Line1.Point1.Data.StartVar, 
TestParameter, AutoAnalysis.Line1.Point1.Data.StartCondition, 
TestParameter, AutoAnalysis.Line1.Point2.Type, 0
TestParameter, AutoAnalysis.Line1.Point2.XY.X, 
TestParameter, AutoAnalysis.Line1.Point2.XY.Y, 
TestParameter, AutoAnalysis.Line1.Point2.Data.Var, 
TestParameter, AutoAnalysis.Line1.Point2.Data.Condition, 
TestParameter, AutoAnalysis.Line1.Point2.Data.Start, false
TestParameter, AutoAnalysis.Line1.Point2.Data.StartVar, 
TestParameter, AutoAnalysis.Line1.Point2.Data.StartCondition, 
TestParameter, AutoAnalysis.Line1.GradientExpr, 0
TestParameter, AutoAnalysis.Line2.Enabled, false
TestParameter, AutoAnalysis.Line2.Type, 1
TestParameter, AutoAnalysis.Line2.Fix, True
TestParameter, AutoAnalysis.Line2.YAxis, 0
TestParameter, AutoAnalysis.Line2.Point1.Type, 0
TestParameter, AutoAnalysis.Line2.Point1.XY.X, 
TestParameter, AutoAnalysis.Line2.Point1.XY.Y, 
TestParameter, AutoAnalysis.Line2.Point1.Data.Var, 
TestParameter, AutoAnalysis.Line2.Point1.Data.Condition, 
TestParameter, AutoAnalysis.Line2.Point1.Data.Start, false
TestParameter, AutoAnalysis.Line2.Point1.Data.StartVar, 
TestParameter, AutoAnalysis.Line2.Point1.Data.StartCondition, 
TestParameter, AutoAnalysis.Line2.Point2.Type, 0
TestParameter, AutoAnalysis.Line2.Point2.XY.X, 
TestParameter, AutoAnalysis.Line2.Point2.XY.Y, 
TestParameter, AutoAnalysis.Line2.Point2.Data.Var, 
TestParameter, AutoAnalysis.Line2.Point2.Data.Condition, 
TestParameter, AutoAnalysis.Line2.Point2.Data.Start, false
TestParameter, AutoAnalysis.Line2.Point2.Data.StartVar, 
TestParameter, AutoAnalysis.Line2.Point2.Data.StartCondition, 
TestParameter, AutoAnalysis.Line2.GradientExpr, 0
TestParameter, AutoAnalysis.Marker.Enabled, false
TestParameter, AutoAnalysis.Marker.Data.Var, 
TestParameter, AutoAnalysis.Marker.Data.Condition, 
TestParameter, AutoAnalysis.Marker.Data.Start, false
TestParameter, AutoAnalysis.Marker.Data.StartVar, 
TestParameter, AutoAnalysis.Marker.Data.StartCondition, 
MetaData, TestRecord.EntryPoint, true
MetaData, TestRecord.RecordTime, 06/16/2021 14:16:18
MetaData, TestRecord.TestTarget, FlashNumA_3_25um_E9
MetaData, TestRecord.IterationIndex, 6
MetaData, TestRecord.Preservation, true
MetaData, TestRecord.Flag, 
MetaData, TestRecord.Remarks, 
MetaData, TestRecord.LinkKey, bf5207f2-b14f-43ee-a435-76cf26e612c2
MetaData, TestRecord.Parameters, 
Dimension1, 201, 201, 201
Dimension2, 1, 1, 1
DataName, V1, I1, absI
DataValue, 0, -1.4838E-10, 1.4838E-10
DataValue, 0.05, 9.038E-10, 9.038E-10
DataValue, 0.1, 1.4884E-09, 1.4884E-09
DataValue, 0.15, 2.6535E-09, 2.6535E-09
DataValue, 0.2, 3.6552E-09, 3.6552E-09
DataValue, 0.25, 5.3118E-09, 5.3118E-09
DataValue, 0.3, 6.2951E-09, 6.2951E-09
DataValue, 0.35000000000000003, 7.9173E-09, 7.9173E-09
DataValue, 0.4, 1.1317199999999999E-08, 1.1317199999999999E-08
DataValue, 0.45, 1.4210599999999999E-08, 1.4210599999999999E-08
DataValue, 0.5, 1.78436E-08, 1.78436E-08
DataValue, 0.55, 2.1017199999999996E-08, 2.1017199999999996E-08
DataValue, 0.6, 2.4729699999999997E-08, 2.4729699999999997E-08
DataValue, 0.65, 2.94722E-08, 2.94722E-08
DataValue, 0.70000000000000007, 3.50496E-08, 3.50496E-08
DataValue, 0.75, 4.20204E-08, 4.20204E-08
DataValue, 0.8, 5.1456499999999995E-08, 5.1456499999999995E-08
DataValue, 0.85, 6.44086E-08, 6.44086E-08
DataValue, 0.9, 9.5900499999999992E-08, 9.5900499999999992E-08
DataValue, 0.95000000000000007, 1.292E-07, 1.292E-07
DataValue, 1, 1.4398E-07, 1.4398E-07
DataValue, 1.05, 1.6724E-07, 1.6724E-07
DataValue, 1.1, 2.0072E-07, 2.0072E-07
DataValue, 1.1500000000000001, 2.357E-07, 2.357E-07
DataValue, 1.2, 2.784E-07, 2.784E-07
DataValue, 1.25, 3.2238E-07, 3.2238E-07
DataValue, 1.3, 3.913E-07, 3.913E-07
DataValue, 1.35, 4.5486E-07, 4.5486E-07
DataValue, 1.4000000000000001, 5.282E-07, 5.282E-07
DataValue, 1.45, 6.2756E-07, 6.2756E-07
DataValue, 1.5, 7.5308E-07, 7.5308E-07
DataValue, 1.55, 9.0762E-07, 9.0762E-07
DataValue, 1.6, 8.8642E-07, 8.8642E-07
DataValue, 1.6500000000000001, 2.724E-06, 2.724E-06
DataValue, 1.7, 2.6141E-06, 2.6141E-06
DataValue, 1.75, 3.5567E-06, 3.5567E-06
DataValue, 1.8, 5.5234E-06, 5.5234E-06
DataValue, 1.85, 8.1607000000000013E-06, 8.1607000000000013E-06
DataValue, 1.9000000000000001, 1.1304E-05, 1.1304E-05
DataValue, 1.95, 1.5282E-05, 1.5282E-05
DataValue, 2, 1.624E-05, 1.624E-05
DataValue, 2.05, 2.01E-05, 2.01E-05
DataValue, 2.1, 2.3596000000000002E-05, 2.3596000000000002E-05
DataValue, 2.15, 3.1868E-05, 3.1868E-05
DataValue, 2.2, 3.5184E-05, 3.5184E-05
DataValue, 2.25, 4.3024E-05, 4.3024E-05
DataValue, 2.3000000000000003, 4.9808E-05, 4.9808E-05
DataValue, 2.35, 5.3196000000000004E-05, 5.3196000000000004E-05
DataValue, 2.4, 6.2428E-05, 6.2428E-05
DataValue, 2.45, 5.7138E-05, 5.7138E-05
DataValue, 2.5, 5.724E-05, 5.724E-05
DataValue, 2.5500000000000003, 6.5274E-05, 6.5274E-05
DataValue, 2.6, 7.4412E-05, 7.4412E-05
DataValue, 2.65, 7.3892E-05, 7.3892E-05
DataValue, 2.7, 0.044042000000000005, 0.044042000000000005
DataValue, 2.75, 0.043156000000000007, 0.043156000000000007
DataValue, 2.8000000000000003, 0.066550000000000012, 0.066550000000000012
DataValue, 2.85, 0.06706200000000001, 0.06706200000000001
DataValue, 2.9, 0.067764, 0.067764
DataValue, 2.95, 0.0709, 0.0709
DataValue, 3, 0.072534, 0.072534
DataValue, 3.0500000000000003, 0.093206000000000011, 0.093206000000000011
DataValue, 3.1, 0.092364, 0.092364
DataValue, 3.15, 0.094394, 0.094394
DataValue, 3.2, 0.0999, 0.0999
DataValue, 3.25, 0.1, 0.1
DataValue, 3.3000000000000003, 0.1, 0.1
DataValue, 3.35, 0.10000200000000001, 0.10000200000000001
DataValue, 3.4, 0.10000200000000001, 0.10000200000000001
DataValue, 3.45, 0.10000600000000001, 0.10000600000000001
DataValue, 3.5, 0.099996000000000015, 0.099996000000000015
DataValue, 3.5500000000000003, 0.10000400000000001, 0.10000400000000001
DataValue, 3.6, 0.10000400000000001, 0.10000400000000001
DataValue, 3.65, 0.10000400000000001, 0.10000400000000001
DataValue, 3.7, 0.10000800000000001, 0.10000800000000001
DataValue, 3.75, 0.099998, 0.099998
DataValue, 3.8000000000000003, 0.10000600000000001, 0.10000600000000001
DataValue, 3.85, 0.10000600000000001, 0.10000600000000001
DataValue, 3.9, 0.10000400000000001, 0.10000400000000001
DataValue, 3.95, 0.10000400000000001, 0.10000400000000001
DataValue, 4, 0.10000600000000001, 0.10000600000000001
DataValue, 4.05, 0.10000400000000001, 0.10000400000000001
DataValue, 4.1, 0.10000600000000001, 0.10000600000000001
DataValue, 4.15, 0.10000400000000001, 0.10000400000000001
DataValue, 4.2, 0.10000600000000001, 0.10000600000000001
DataValue, 4.25, 0.10000600000000001, 0.10000600000000001
DataValue, 4.3, 0.10000400000000001, 0.10000400000000001
DataValue, 4.3500000000000005, 0.10000400000000001, 0.10000400000000001
DataValue, 4.4, 0.10000400000000001, 0.10000400000000001
DataValue, 4.45, 0.10000400000000001, 0.10000400000000001
DataValue, 4.5, 0.10000400000000001, 0.10000400000000001
DataValue, 4.55, 0.10000200000000001, 0.10000200000000001
DataValue, 4.6000000000000005, 0.10000400000000001, 0.10000400000000001
DataValue, 4.65, 0.10000800000000001, 0.10000800000000001
DataValue, 4.7, 0.10000600000000001, 0.10000600000000001
DataValue, 4.75, 0.10000600000000001, 0.10000600000000001
DataValue, 4.8, 0.10000600000000001, 0.10000600000000001
DataValue, 4.8500000000000005, 0.10000400000000001, 0.10000400000000001
DataValue, 4.9, 0.10000400000000001, 0.10000400000000001
DataValue, 4.95, 0.10000400000000001, 0.10000400000000001
DataValue, 5, 0.10000600000000001, 0.10000600000000001
DataValue, 5.05, 0.10000400000000001, 0.10000400000000001
DataValue, 5.1000000000000005, 0.10000400000000001, 0.10000400000000001
DataValue, 5.15, 0.10000600000000001, 0.10000600000000001
DataValue, 5.2, 0.10000600000000001, 0.10000600000000001
DataValue, 5.25, 0.10000200000000001, 0.10000200000000001
DataValue, 5.3, 0.10000400000000001, 0.10000400000000001
DataValue, 5.3500000000000005, 0.10001000000000002, 0.10001000000000002
DataValue, 5.4, 0.10000400000000001, 0.10000400000000001
DataValue, 5.45, 0.10000400000000001, 0.10000400000000001
DataValue, 5.5, 0.10000400000000001, 0.10000400000000001
DataValue, 5.55, 0.10000600000000001, 0.10000600000000001
DataValue, 5.6000000000000005, 0.10001600000000001, 0.10001600000000001
DataValue, 5.65, 0.10000400000000001, 0.10000400000000001
DataValue, 5.7, 0.099994000000000013, 0.099994000000000013
DataValue, 5.75, 0.10000400000000001, 0.10000400000000001
DataValue, 5.8, 0.10000600000000001, 0.10000600000000001
DataValue, 5.8500000000000005, 0.10000400000000001, 0.10000400000000001
DataValue, 5.9, 0.10000600000000001, 0.10000600000000001
DataValue, 5.95, 0.10000400000000001, 0.10000400000000001
DataValue, 6, 0.10000400000000001, 0.10000400000000001
DataValue, 6.05, 0.10000600000000001, 0.10000600000000001
DataValue, 6.1000000000000005, 0.10000400000000001, 0.10000400000000001
DataValue, 6.15, 0.10000800000000001, 0.10000800000000001
DataValue, 6.2, 0.10001000000000002, 0.10001000000000002
DataValue, 6.25, 0.10000600000000001, 0.10000600000000001
DataValue, 6.3, 0.10000400000000001, 0.10000400000000001
DataValue, 6.3500000000000005, 0.10000400000000001, 0.10000400000000001
DataValue, 6.4, 0.10000400000000001, 0.10000400000000001
DataValue, 6.45, 0.10000400000000001, 0.10000400000000001
DataValue, 6.5, 0.10000400000000001, 0.10000400000000001
DataValue, 6.55, 0.10000600000000001, 0.10000600000000001
DataValue, 6.6000000000000005, 0.10000400000000001, 0.10000400000000001
DataValue, 6.65, 0.10000400000000001, 0.10000400000000001
DataValue, 6.7, 0.10000200000000001, 0.10000200000000001
DataValue, 6.75, 0.10000200000000001, 0.10000200000000001
DataValue, 6.8, 0.10000400000000001, 0.10000400000000001
DataValue, 6.8500000000000005, 0.10000400000000001, 0.10000400000000001
DataValue, 6.9, 0.10000600000000001, 0.10000600000000001
DataValue, 6.95, 0.10000600000000001, 0.10000600000000001
DataValue, 7, 0.10000200000000001, 0.10000200000000001
DataValue, 7.05, 0.10000400000000001, 0.10000400000000001
DataValue, 7.1000000000000005, 0.10000600000000001, 0.10000600000000001
DataValue, 7.15, 0.10000400000000001, 0.10000400000000001
DataValue, 7.2, 0.10000600000000001, 0.10000600000000001
DataValue, 7.25, 0.10000800000000001, 0.10000800000000001
DataValue, 7.3, 0.10000600000000001, 0.10000600000000001
DataValue, 7.3500000000000005, 0.10000400000000001, 0.10000400000000001
DataValue, 7.4, 0.10000400000000001, 0.10000400000000001
DataValue, 7.45, 0.10000800000000001, 0.10000800000000001
DataValue, 7.5, 0.1, 0.1
DataValue, 7.55, 0.10000600000000001, 0.10000600000000001
DataValue, 7.6000000000000005, 0.10000200000000001, 0.10000200000000001
DataValue, 7.65, 0.10000600000000001, 0.10000600000000001
DataValue, 7.7, 0.10000600000000001, 0.10000600000000001
DataValue, 7.75, 0.10000400000000001, 0.10000400000000001
DataValue, 7.8, 0.10000200000000001, 0.10000200000000001
DataValue, 7.8500000000000005, 0.10000400000000001, 0.10000400000000001
DataValue, 7.9, 0.10000400000000001, 0.10000400000000001
DataValue, 7.95, 0.10000400000000001, 0.10000400000000001
DataValue, 8, 0.10000600000000001, 0.10000600000000001
DataValue, 8.05, 0.10000400000000001, 0.10000400000000001
DataValue, 8.1, 0.10000400000000001, 0.10000400000000001
DataValue, 8.15, 0.10000600000000001, 0.10000600000000001
DataValue, 8.2, 0.10000200000000001, 0.10000200000000001
DataValue, 8.25, 0.10000200000000001, 0.10000200000000001
DataValue, 8.3, 0.10000400000000001, 0.10000400000000001
DataValue, 8.35, 0.10000400000000001, 0.10000400000000001
DataValue, 8.4, 0.10000200000000001, 0.10000200000000001
DataValue, 8.45, 0.10000400000000001, 0.10000400000000001
DataValue, 8.5, 0.10000400000000001, 0.10000400000000001
DataValue, 8.55, 0.10000400000000001, 0.10000400000000001
DataValue, 8.6, 0.099998, 0.099998
DataValue, 8.65, 0.1, 0.1
DataValue, 8.7000000000000011, 0.10000600000000001, 0.10000600000000001
DataValue, 8.75, 0.10000400000000001, 0.10000400000000001
DataValue, 8.8, 0.10000600000000001, 0.10000600000000001
DataValue, 8.85, 0.099994000000000013, 0.099994000000000013
DataValue, 8.9, 0.10000600000000001, 0.10000600000000001
DataValue, 8.9500000000000011, 0.10000600000000001, 0.10000600000000001
DataValue, 9, 0.10000600000000001, 0.10000600000000001
DataValue, 9.05, 0.10000600000000001, 0.10000600000000001
DataValue, 9.1, 0.10000400000000001, 0.10000400000000001
DataValue, 9.15, 0.10000400000000001, 0.10000400000000001
DataValue, 9.2000000000000011, 0.10000400000000001, 0.10000400000000001
DataValue, 9.25, 0.099994000000000013, 0.099994000000000013
DataValue, 9.3, 0.10000800000000001, 0.10000800000000001
DataValue, 9.35, 0.10000600000000001, 0.10000600000000001
DataValue, 9.4, 0.10000200000000001, 0.10000200000000001
DataValue, 9.4500000000000011, 0.10000400000000001, 0.10000400000000001
DataValue, 9.5, 0.10000400000000001, 0.10000400000000001
DataValue, 9.55, 0.10000200000000001, 0.10000200000000001
DataValue, 9.6, 0.10000400000000001, 0.10000400000000001
DataValue, 9.65, 0.10000400000000001, 0.10000400000000001
DataValue, 9.7000000000000011, 0.10000400000000001, 0.10000400000000001
DataValue, 9.75, 0.10000400000000001, 0.10000400000000001
DataValue, 9.8, 0.10000600000000001, 0.10000600000000001
DataValue, 9.85, 0.10000400000000001, 0.10000400000000001
DataValue, 9.9, 0.10000400000000001, 0.10000400000000001
DataValue, 9.9500000000000011, 0.10000400000000001, 0.10000400000000001
DataValue, 10, 0.10000600000000001, 0.10000600000000001