
SetupTitle, Endurance Measure 2V 1kHz After 1 Cycle
ApplicationTest, WGFMU Pattern Editor, Public
TestParameter, Name, ExecutionMode, Enable1, Channel1, OperationMode1, VForceRange1, InitMeasRange1, Enable2, Channel2, OperationMode2, VForceRange2, InitMeasRange2, RepeatCount, WaveformCh1, WaveformCh2, MeasurementEvent, Output_to_File_for_PatternValidation, Output_Enable, Output_Filename, DataDisplay_for_RunVector, DataDisplay_PatternValidation, DataDisplay_Mode, LogToFile, LogFile, WarningLevel, IForceRange1, IForceRange2, Result_Update_Interval_s
TestParameter, Value, Run Vector, Enable, WGFMU1:RS	RSWGFMU, Fast IV Imeas, Auto, 10uA (Imeas), Enable, WGFMU2:RS	RSWGFMU, PG Vmeas, Auto, 5V (Vmeas), 1, , Disable, C:\WGFMUPatternEditor_Pattern.csv, , Disable, x(time)_y(meas), Disable, C:\WGFMUPatternEditor_Log.log, 2, 10mA, 10mA, 10
MetaData, TestRecord.EntryPoint, true
MetaData, TestRecord.RecordTime, 06/16/2021 11:39:58
MetaData, TestRecord.TestTarget, FlashNumA_2_25um_E12
MetaData, TestRecord.IterationIndex, 3
MetaData, TestRecord.Preservation, true
MetaData, TestRecord.Flag, 
MetaData, TestRecord.Remarks, 
MetaData, TestRecord.LinkKey, 308ec6be-d10f-4016-9626-180f3d3f169a
MetaData, TestRecord.Parameters, 
Dimension1, 500, 500, 500, 500, 500
Dimension2, 1, 1, 1, 1, 1
DataName, Time, MeasResult1_value, MeasResult2_value, MeasResult1_time, MeasResult2_time
DataValue, 5E-06, -1.21013656E-07, 0.034447431564331006, 5E-06, 5E-06
DataValue, 1.5E-05, -1.2619551600000002E-07, 0.074331641197205, 1.5E-05, 1.5E-05
DataValue, 2.5E-05, -1.33489522E-07, 0.114182755351067, 2.5E-05, 2.5E-05
DataValue, 3.5000000000000004E-05, -1.4087676400000002E-07, 0.15398281812667802, 3.5000000000000004E-05, 3.5000000000000004E-05
DataValue, 4.5E-05, -1.4527910300000002E-07, 0.19392123818397503, 4.5E-05, 4.5E-05
DataValue, 5.5E-05, -1.5084300700000002E-07, 0.23457677662372603, 5.5E-05, 5.5E-05
DataValue, 6.5000000000000008E-05, -1.5479881200000002E-07, 0.274876058101654, 6.5000000000000008E-05, 6.5000000000000008E-05
DataValue, 7.5000000000000007E-05, -1.62256143E-07, 0.314244508743286, 7.5000000000000007E-05, 7.5000000000000007E-05
DataValue, 8.5E-05, -1.66386485E-07, 0.35402485728263905, 8.5E-05, 8.5E-05
DataValue, 9.5E-05, -1.7525215400000002E-07, 0.39420691132545504, 9.5E-05, 9.5E-05
DataValue, 0.000105, -1.68729258E-07, 0.43439739942550704, 0.000105, 0.000105
DataValue, 0.000115, -1.7559635500000002E-07, 0.474378764629364, 0.000115, 0.000115
DataValue, 0.000125, -1.7806530600000003E-07, 0.51396405696868908, 0.000125, 0.000125
DataValue, 0.000135, -1.82110824E-07, 0.553510308265686, 0.000135, 0.000135
DataValue, 0.000145, -1.85751176E-07, 0.593572676181793, 0.000145, 0.000145
DataValue, 0.000155, -1.92160499E-07, 0.634123623371124, 0.000155, 0.000155
DataValue, 0.000165, -1.9218363400000002E-07, 0.67408424615860008, 0.000165, 0.000165
DataValue, 0.000175, -1.90416387E-07, 0.713730812072754, 0.000175, 0.000175
DataValue, 0.00018500000000000002, -1.9469185000000002E-07, 0.753739655017853, 0.00018500000000000002, 0.00018500000000000002
DataValue, 0.00019500000000000002, -1.9092252000000003E-07, 0.79380375146865811, 0.00019500000000000002, 0.00019500000000000002
DataValue, 0.00020500000000000002, -2.06096573E-07, 0.83407098054885909, 0.00020500000000000002, 0.00020500000000000002
DataValue, 0.00021500000000000002, -2.02126756E-07, 0.873730957508087, 0.00021500000000000002, 0.00021500000000000002
DataValue, 0.00022500000000000002, -2.00394553E-07, 0.91358381509780906, 0.00022500000000000002, 0.00022500000000000002
DataValue, 0.00023500000000000002, -2.0842462300000002E-07, 0.95341205596923806, 0.00023500000000000002, 0.00023500000000000002
DataValue, 0.000245, -2.03068907E-07, 0.99347543716430708, 0.000245, 0.000245
DataValue, 0.000255, -2.1286831500000003E-07, 1.033882737159729, 0.000255, 0.000255
DataValue, 0.000265, -2.0988271400000002E-07, 1.0740863084793091, 0.000265, 0.000265
DataValue, 0.000275, -2.1454022200000003E-07, 1.1136515140533452, 0.000275, 0.000275
DataValue, 0.00028500000000000004, -2.1235447900000001E-07, 1.1534653902053831, 0.00028500000000000004, 0.00028500000000000004
DataValue, 0.000295, -2.2295233700000003E-07, 1.1937998533248901, 0.000295, 0.000295
DataValue, 0.00030500000000000004, -2.2308202600000003E-07, 1.2338435649871831, 0.00030500000000000004, 0.00030500000000000004
DataValue, 0.000315, -2.2289485500000002E-07, 1.27423083782196, 0.000315, 0.000315
DataValue, 0.00032500000000000004, -2.2465087600000002E-07, 1.31445300579071, 0.00032500000000000004, 0.00032500000000000004
DataValue, 0.000335, -2.29525E-07, 1.3538960218429572, 0.000335, 0.000335
DataValue, 0.00034500000000000004, -2.3797566900000003E-07, 1.3934957981109621, 0.00034500000000000004, 0.00034500000000000004
DataValue, 0.000355, -2.4479297200000004E-07, 1.4336869716644292, 0.000355, 0.000355
DataValue, 0.00036500000000000004, -2.4877402900000003E-07, 1.474200963973999, 0.00036500000000000004, 0.00036500000000000004
DataValue, 0.000375, -2.49081751E-07, 1.5142383575439451, 0.000375, 0.000375
DataValue, 0.00038500000000000003, -2.61205003E-07, 1.5540010929107671, 0.00038500000000000003, 0.00038500000000000003
DataValue, 0.000395, -2.70386124E-07, 1.5937331914901731, 0.000395, 0.000395
DataValue, 0.00040500000000000003, -2.7810003200000005E-07, 1.6337734460830691, 0.00040500000000000003, 0.00040500000000000003
DataValue, 0.000415, -2.89030879E-07, 1.6742775440216062, 0.000415, 0.000415
DataValue, 0.00042500000000000003, -3.02135561E-07, 1.7142342329025271, 0.00042500000000000003, 0.00042500000000000003
DataValue, 0.000435, -3.1467729400000004E-07, 1.7539037466049192, 0.000435, 0.000435
DataValue, 0.00044500000000000003, -3.3641842400000004E-07, 1.7937340736389162, 0.00044500000000000003, 0.00044500000000000003
DataValue, 0.00045500000000000006, -3.4905619400000004E-07, 1.834024906158447, 0.00045500000000000006, 0.00045500000000000006
DataValue, 0.000465, -3.76511935E-07, 1.8744029998779301, 0.000465, 0.000465
DataValue, 0.00047500000000000005, -4.1168578900000003E-07, 1.9144977331161501, 0.00047500000000000005, 0.00047500000000000005
DataValue, 0.000485, -4.43097321E-07, 1.9538820981979372, 0.000485, 0.000485
DataValue, 0.000495, -5.00441274E-07, 1.9936803579330442, 0.000495, 0.000495
DataValue, 0.000505, -1.1001763100000001E-07, 1.9936547279357912, 0.000505, 0.000505
DataValue, 0.000515, 1.5646711E-08, 1.9542013406753542, 0.000515, 0.000515
DataValue, 0.00052500000000000008, 5.7042016000000007E-08, 1.9145874977111821, 0.00052500000000000008, 0.00052500000000000008
DataValue, 0.000535, 7.9931368E-08, 1.8746275901794431, 0.000535, 0.000535
DataValue, 0.000545, 8.8534158000000008E-08, 1.8341861963272101, 0.000545, 0.000545
DataValue, 0.000555, 1.00885941E-07, 1.7939291000366211, 0.000555, 0.000555
DataValue, 0.00056500000000000007, 1.01369636E-07, 1.7542723417282102, 0.00056500000000000007, 0.00056500000000000007
DataValue, 0.000575, 1.0627109500000001E-07, 1.7147866487503052, 0.000575, 0.000575
DataValue, 0.000585, 1.0860826200000001E-07, 1.674851059913635, 0.000585, 0.000585
DataValue, 0.000595, 1.1759870900000001E-07, 1.6343415975570681, 0.000595, 0.000595
DataValue, 0.00060500000000000007, 1.0893493400000001E-07, 1.5941690206527712, 0.00060500000000000007, 0.00060500000000000007
DataValue, 0.000615, 1.1039232800000001E-07, 1.5544513463974001, 0.000615, 0.000615
DataValue, 0.000625, 1.13689879E-07, 1.5148547887802122, 0.000625, 0.000625
DataValue, 0.000635, 1.1595624E-07, 1.4747593402862551, 0.000635, 0.000635
DataValue, 0.00064500000000000007, 1.1832004500000001E-07, 1.4345407485961912, 0.00064500000000000007, 0.00064500000000000007
DataValue, 0.00065500000000000009, 1.14585767E-07, 1.394680500030518, 0.00065500000000000009, 0.00065500000000000009
DataValue, 0.000665, 1.1824223400000001E-07, 1.3547008037567141, 0.000665, 0.000665
DataValue, 0.000675, 1.1357210600000001E-07, 1.314985990524292, 0.000675, 0.000675
DataValue, 0.00068500000000000006, 1.1595554400000001E-07, 1.2750359773635862, 0.00068500000000000006, 0.00068500000000000006
DataValue, 0.00069500000000000009, 1.1485986600000001E-07, 1.2346391677856452, 0.00069500000000000009, 0.00069500000000000009
DataValue, 0.000705, 1.2026534100000002E-07, 1.1943191289901731, 0.000705, 0.000705
DataValue, 0.000715, 1.1952508300000002E-07, 1.1543105840682981, 0.000715, 0.000715
DataValue, 0.00072500000000000006, 1.14792563E-07, 1.1145693063735962, 0.00072500000000000006, 0.00072500000000000006
DataValue, 0.00073500000000000008, 1.1537930800000001E-07, 1.0748780965805052, 0.00073500000000000008, 0.00073500000000000008
DataValue, 0.000745, 1.1530780600000001E-07, 1.0347139835357671, 0.000745, 0.000745
DataValue, 0.000755, 1.17720681E-07, 0.99443161487579312, 0.000755, 0.000755
DataValue, 0.00076500000000000005, 1.15162699E-07, 0.9542073011398311, 0.00076500000000000005, 0.00076500000000000005
DataValue, 0.00077500000000000008, 1.1696429400000001E-07, 0.914663910865784, 0.00077500000000000008, 0.00077500000000000008
DataValue, 0.000785, 1.1346275400000001E-07, 0.87492227554321311, 0.000785, 0.000785
DataValue, 0.000795, 1.1764426900000001E-07, 0.83486485481262207, 0.000795, 0.000795
DataValue, 0.000805, 1.14165161E-07, 0.794435679912567, 0.000805, 0.000805
DataValue, 0.00081500000000000008, 1.1245330000000001E-07, 0.75428146123886108, 0.00081500000000000008, 0.00081500000000000008
DataValue, 0.0008250000000000001, 1.11419311E-07, 0.714258193969727, 0.0008250000000000001, 0.0008250000000000001
DataValue, 0.000835, 1.13405271E-07, 0.674706995487213, 0.000835, 0.000835
DataValue, 0.000845, 1.1430817200000001E-07, 0.634918212890625, 0.000845, 0.000845
DataValue, 0.00085500000000000007, 1.1530149600000001E-07, 0.59450560808181807, 0.00085500000000000007, 0.00085500000000000007
DataValue, 0.0008650000000000001, 1.0995911000000001E-07, 0.554497838020325, 0.0008650000000000001, 0.0008650000000000001
DataValue, 0.000875, 1.0897278500000001E-07, 0.514547407627106, 0.000875, 0.000875
DataValue, 0.000885, 1.0935694000000001E-07, 0.47484135627746604, 0.000885, 0.000885
DataValue, 0.00089500000000000007, 1.07052024E-07, 0.43521308898925803, 0.00089500000000000007, 0.00089500000000000007
DataValue, 0.0009050000000000001, 1.16583642E-07, 0.39488354325294506, 0.0009050000000000001, 0.0009050000000000001
DataValue, 0.000915, 1.06608987E-07, 0.354985952377319, 0.000915, 0.000915
DataValue, 0.000925, 1.0867415800000002E-07, 0.315237641334534, 0.000925, 0.000925
DataValue, 0.00093500000000000007, 1.0757006700000001E-07, 0.27512037754058805, 0.00093500000000000007, 0.00093500000000000007
DataValue, 0.00094500000000000009, 1.0889076700000001E-07, 0.235185459256172, 0.00094500000000000009, 0.00094500000000000009
DataValue, 0.000955, 1.0899311300000002E-07, 0.19455949962139102, 0.000955, 0.000955
DataValue, 0.000965, 1.0639237000000001E-07, 0.154736548662186, 0.000965, 0.000965
DataValue, 0.00097500000000000006, 1.1077788300000001E-07, 0.11509912461042401, 0.00097500000000000006, 0.00097500000000000006
DataValue, 0.000985, 1.07652788E-07, 0.075465224683285009, 0.000985, 0.000985
DataValue, 0.000995, 1.1310804400000001E-07, 0.035240236669779004, 0.000995, 0.000995
DataValue, 0.001005, 1.0534086000000001E-07, -0.0053269378840920005, 0.001005, 0.001005
DataValue, 0.001015, 1.10904772E-07, -0.045449480414391, 0.001015, 0.001015
DataValue, 0.001025, 1.08244436E-07, -0.085122458636761, 0.001025, 0.001025
DataValue, 0.0010350000000000001, 1.1456123200000001E-07, -0.12461202591657601, 0.0010350000000000001, 0.0010350000000000001
DataValue, 0.0010450000000000001, 1.1234885000000001E-07, -0.16465148329734802, 0.0010450000000000001, 0.0010450000000000001
DataValue, 0.0010550000000000002, 1.09813996E-07, -0.20471839606761902, 0.0010550000000000002, 0.0010550000000000002
DataValue, 0.001065, 1.1890258400000002E-07, -0.24478144943714103, 0.001065, 0.001065
DataValue, 0.001075, 1.1345363800000002E-07, -0.284765988588333, 0.001075, 0.001075
DataValue, 0.001085, 1.1538211500000001E-07, -0.32470017671585105, 0.001085, 0.001085
DataValue, 0.001095, 1.12474325E-07, -0.36458438634872403, 0.001095, 0.001095
DataValue, 0.001105, 1.2277004700000002E-07, -0.40468862652778603, 0.001105, 0.001105
DataValue, 0.001115, 1.24778438E-07, -0.44483757019043, 0.001115, 0.001115
DataValue, 0.0011250000000000001, 1.2524742500000002E-07, -0.48480698466301003, 0.0011250000000000001, 0.0011250000000000001
DataValue, 0.0011350000000000002, 1.20507195E-07, -0.524677097797394, 0.0011350000000000002, 0.0011350000000000002
DataValue, 0.001145, 1.23605659E-07, -0.564349353313446, 0.001145, 0.001145
DataValue, 0.001155, 1.32984454E-07, -0.60484260320663408, 0.001155, 0.001155
DataValue, 0.001165, 1.30987985E-07, -0.64497888088226307, 0.001165, 0.001165
DataValue, 0.001175, 1.33079098E-07, -0.68469023704528809, 0.001175, 0.001175
DataValue, 0.001185, 1.3352564600000001E-07, -0.72451567649841309, 0.001185, 0.001185
DataValue, 0.001195, 1.4158864300000001E-07, -0.76457130908966109, 0.001195, 0.001195
DataValue, 0.0012050000000000001, 1.3823572E-07, -0.80492407083511308, 0.0012050000000000001, 0.0012050000000000001
DataValue, 0.0012150000000000002, 1.39162452E-07, -0.8452705144882201, 0.0012150000000000002, 0.0012150000000000002
DataValue, 0.0012250000000000002, 1.39634238E-07, -0.88504981994628906, 0.0012250000000000002, 0.0012250000000000002
DataValue, 0.001235, 1.42153667E-07, -0.92476081848144509, 0.001235, 0.001235
DataValue, 0.001245, 1.44952793E-07, -0.96447044610977206, 0.001245, 0.001245
DataValue, 0.001255, 1.50263645E-07, -1.0047552585601811, 0.001255, 0.001255
DataValue, 0.001265, 1.42734095E-07, -1.0450572967529301, 0.001265, 0.001265
DataValue, 0.001275, 1.42605813E-07, -1.0853492021560671, 0.001275, 0.001275
DataValue, 0.0012850000000000001, 1.4292757600000002E-07, -1.12506091594696, 0.0012850000000000001, 0.0012850000000000001
DataValue, 0.0012950000000000001, 1.41213604E-07, -1.1647909879684451, 0.0012950000000000001, 0.0012950000000000001
DataValue, 0.0013050000000000002, 1.5183039200000002E-07, -1.2049243450164802, 0.0013050000000000002, 0.0013050000000000002
DataValue, 0.001315, 1.4105587800000002E-07, -1.2452901601791382, 0.001315, 0.001315
DataValue, 0.001325, 1.46958385E-07, -1.2850487232208252, 0.001325, 0.001325
DataValue, 0.001335, 1.48094017E-07, -1.3249216079711912, 0.001335, 0.001335
DataValue, 0.001345, 1.488511E-07, -1.3645999431610112, 0.001345, 0.001345
DataValue, 0.001355, 1.5282933E-07, -1.4045935869216921, 0.001355, 0.001355
DataValue, 0.0013650000000000001, 1.5161659000000002E-07, -1.445167541503906, 0.0013650000000000001, 0.0013650000000000001
DataValue, 0.0013750000000000001, 1.67293962E-07, -1.485345244407654, 0.0013750000000000001, 0.0013750000000000001
DataValue, 0.0013850000000000002, 1.70789889E-07, -1.52508270740509, 0.0013850000000000002, 0.0013850000000000002
DataValue, 0.0013950000000000002, 1.8002710100000002E-07, -1.5650161504745481, 0.0013950000000000002, 0.0013950000000000002
DataValue, 0.001405, 1.9524881600000002E-07, -1.6049236059188841, 0.001405, 0.001405
DataValue, 0.001415, 2.19348109E-07, -1.6451127529144292, 0.001415, 0.001415
DataValue, 0.001425, 2.51594543E-07, -1.6850349903106692, 0.001425, 0.001425
DataValue, 0.001435, 2.91343866E-07, -1.7250515222549441, 0.001435, 0.001435
DataValue, 0.001445, 3.33862204E-07, -1.7645949125289921, 0.001445, 0.001445
DataValue, 0.0014550000000000001, 3.76603424E-07, -1.8045485019683842, 0.0014550000000000001, 0.0014550000000000001
DataValue, 0.0014650000000000002, 4.5072326300000003E-07, -1.8453350067138672, 0.0014650000000000002, 0.0014650000000000002
DataValue, 0.0014750000000000002, 4.8504188E-07, -1.8852044343948362, 0.0014750000000000002, 0.0014750000000000002
DataValue, 0.001485, 5.2882342100000007E-07, -1.9250861406326292, 0.001485, 0.001485
DataValue, 0.001495, 5.52630411E-07, -1.9649171829223631, 0.001495, 0.001495
DataValue, 0.001505, 6.5147084000000008E-08, -1.9652235507965092, 0.001505, 0.001505
DataValue, 0.001515, -1.0637868500000001E-07, -1.9253336191177373, 0.001515, 0.001515
DataValue, 0.001525, -1.59248813E-07, -1.8854554891586302, 0.001525, 0.001525
DataValue, 0.0015350000000000001, -1.76905132E-07, -1.8456374406814582, 0.0015350000000000001, 0.0015350000000000001
DataValue, 0.0015450000000000002, -1.8810936800000002E-07, -1.8053303956985471, 0.0015450000000000002, 0.0015450000000000002
DataValue, 0.0015550000000000002, -1.8148132600000003E-07, -1.7654346227645872, 0.0015550000000000002, 0.0015550000000000002
DataValue, 0.0015650000000000002, -1.8557591400000003E-07, -1.7256447076797492, 0.0015650000000000002, 0.0015650000000000002
DataValue, 0.001575, -1.94022377E-07, -1.6856123208999632, 0.001575, 0.001575
DataValue, 0.001585, -1.92583215E-07, -1.645698547363281, 0.001585, 0.001585
DataValue, 0.001595, -1.9369640800000001E-07, -1.6056681871414191, 0.001595, 0.001595
DataValue, 0.001605, -1.9356882300000002E-07, -1.5657140016555791, 0.001605, 0.001605
DataValue, 0.0016150000000000001, -1.8773853600000002E-07, -1.5256079435348511, 0.0016150000000000001, 0.0016150000000000001
DataValue, 0.0016250000000000001, -1.9909558100000001E-07, -1.4856452941894531, 0.0016250000000000001, 0.0016250000000000001
DataValue, 0.0016350000000000002, -1.9272201300000002E-07, -1.4461338520050051, 0.0016350000000000002, 0.0016350000000000002
DataValue, 0.0016450000000000002, -1.9430068200000003E-07, -1.4058001041412351, 0.0016450000000000002, 0.0016450000000000002
DataValue, 0.001655, -1.8837295100000002E-07, -1.3653184175491331, 0.001655, 0.001655
DataValue, 0.001665, -1.95000283E-07, -1.3253433704376221, 0.001665, 0.001665
DataValue, 0.001675, -1.9564802800000003E-07, -1.2858450412750242, 0.001675, 0.001675
DataValue, 0.001685, -1.8819839900000002E-07, -1.2455366849899292, 0.001685, 0.001685
DataValue, 0.0016950000000000001, -1.95267376E-07, -1.2053718566894531, 0.0016950000000000001, 0.0016950000000000001
DataValue, 0.0017050000000000001, -1.85857019E-07, -1.1653130054473881, 0.0017050000000000001, 0.0017050000000000001
DataValue, 0.0017150000000000002, -1.9436657800000001E-07, -1.1255978345870972, 0.0017150000000000002, 0.0017150000000000002
DataValue, 0.0017250000000000002, -1.8944619700000001E-07, -1.0859220027923582, 0.0017250000000000002, 0.0017250000000000002
DataValue, 0.0017350000000000002, -1.8970486300000002E-07, -1.0459357500076292, 0.0017350000000000002, 0.0017350000000000002
DataValue, 0.001745, -1.87981783E-07, -1.0055311918258671, 0.001745, 0.001745
DataValue, 0.001755, -1.86548917E-07, -0.96525406837463412, 0.001755, 0.001755
DataValue, 0.001765, -1.90336479E-07, -0.92517906427383412, 0.001765, 0.001765
DataValue, 0.001775, -1.8136495300000002E-07, -0.88562649488449108, 0.001775, 0.001775
DataValue, 0.0017850000000000001, -1.8649564000000002E-07, -0.84550744295120206, 0.0017850000000000001, 0.0017850000000000001
DataValue, 0.0017950000000000002, -1.8708378500000002E-07, -0.80515468120574907, 0.0017950000000000002, 0.0017950000000000002
DataValue, 0.0018050000000000002, -1.8395168400000002E-07, -0.76515781879425, 0.0018050000000000002, 0.0018050000000000002
DataValue, 0.0018150000000000002, -1.8549039300000003E-07, -0.725437641143799, 0.0018150000000000002, 0.0018150000000000002
DataValue, 0.001825, -1.8010314300000002E-07, -0.68565028905868508, 0.001825, 0.001825
DataValue, 0.001835, -1.8030783600000002E-07, -0.645628750324249, 0.001835, 0.001835
DataValue, 0.001845, -1.8621383900000003E-07, -0.605617463588715, 0.001845, 0.001845
DataValue, 0.001855, -1.81892119E-07, -0.56514573097229, 0.001855, 0.001855
DataValue, 0.0018650000000000001, -1.8070110700000002E-07, -0.5254132151603701, 0.0018650000000000001, 0.0018650000000000001
DataValue, 0.0018750000000000002, -1.81859875E-07, -0.485642373561859, 0.0018750000000000002, 0.0018750000000000002
