
SetupTitle, FE PUND 2.5V - reverse
ApplicationTest, WGFMU Pattern Editor, Public
TestParameter, Name, ExecutionMode, Enable1, Channel1, OperationMode1, VForceRange1, InitMeasRange1, Enable2, Channel2, OperationMode2, VForceRange2, InitMeasRange2, RepeatCount, WaveformCh1, WaveformCh2, MeasurementEvent, Output_to_File_for_PatternValidation, Output_Enable, Output_Filename, DataDisplay_for_RunVector, DataDisplay_PatternValidation, DataDisplay_Mode, LogToFile, LogFile, WarningLevel, IForceRange1, IForceRange2, Result_Update_Interval_s
TestParameter, Value, Run Vector, Enable, WGFMU1:RS	RSWGFMU, Fast IV Imeas, Auto, 1uA (Imeas), Enable, WGFMU2:RS	RSWGFMU, PG Vmeas, Auto, 5V (Vmeas), 1, , Disable, C:\WGFMUPatternEditor_Pattern.csv, , Disable, x(time)_y(meas), Disable, C:\WGFMUPatternEditor_Log.log, 2, 10mA, 10mA, 10
MetaData, TestRecord.EntryPoint, true
MetaData, TestRecord.RecordTime, 06/16/2021 09:42:48
MetaData, TestRecord.TestTarget, FlashNumA_1_25um_D1
MetaData, TestRecord.IterationIndex, 4
MetaData, TestRecord.Preservation, true
MetaData, TestRecord.Flag, 
MetaData, TestRecord.Remarks, 
MetaData, TestRecord.LinkKey, e65e7e13-650c-4da6-9e34-163f8895b1e1
MetaData, TestRecord.Parameters, 
Dimension1, 5000, 5000, 5000, 5000, 5000
Dimension2, 1, 1, 1, 1, 1
DataName, Time, MeasResult1_value, MeasResult2_value, MeasResult1_time, MeasResult2_time
DataValue, 5.0000000000000008E-07, 1.8242661E-08, 0.0152926761657, 5.0000000000000008E-07, 5.0000000000000008E-07
DataValue, 1.5E-06, -1.11849538E-07, 0.014863180927932, 1.5E-06, 1.5E-06
DataValue, 2.5E-06, -6.0247466E-08, 0.014813894405961002, 2.5E-06, 2.5E-06
DataValue, 3.5000000000000004E-06, 6.2950555E-08, 0.014831497333944002, 3.5000000000000004E-06, 3.5000000000000004E-06
DataValue, 4.5E-06, -8.258603E-09, 0.014901906251907002, 4.5E-06, 4.5E-06
DataValue, 5.5000000000000007E-06, -8.1441733E-08, 0.014813894405961002, 5.5000000000000007E-06, 5.5000000000000007E-06
DataValue, 6.5000000000000004E-06, -8.3693699E-08, 0.014884304255247002, 6.5000000000000004E-06, 6.5000000000000004E-06
DataValue, 7.5E-06, -1.02821332E-07, 0.014835017733276001, 7.5E-06, 7.5E-06
DataValue, 8.5E-06, -1.2269447300000002E-07, 0.014725883491337001, 8.5E-06, 8.5E-06
DataValue, 9.5E-06, 1.2086134400000002E-07, 0.014581545256078, 9.5E-06, 9.5E-06
DataValue, 1.0500000000000001E-05, 1.21149156E-07, 0.014655474573374001, 1.0500000000000001E-05, 1.0500000000000001E-05
DataValue, 1.15E-05, -2.5945766E-08, 0.014623790979385001, 1.15E-05, 1.15E-05
DataValue, 1.25E-05, 4.70008E-08, 0.014648433774710002, 1.25E-05, 1.25E-05
DataValue, 1.3500000000000001E-05, 1.0991041000000001E-07, 0.014754047617316001, 1.3500000000000001E-05, 1.3500000000000001E-05
DataValue, 1.45E-05, -6.9216E-08, 0.014578024856746, 1.45E-05, 1.45E-05
DataValue, 1.55E-05, -8.8307190000000012E-09, 0.014813894405961002, 1.55E-05, 1.55E-05
DataValue, 1.65E-05, 5.3481507000000007E-08, 0.014799812808633002, 1.65E-05, 1.65E-05
DataValue, 1.7500000000000002E-05, -4.0620019000000005E-08, 0.01484205853194, 1.7500000000000002E-05, 1.7500000000000002E-05
DataValue, 1.8500000000000002E-05, -4.1225190000000005E-09, 0.014810374006629, 1.8500000000000002E-05, 1.8500000000000002E-05
DataValue, 1.95E-05, 5.0678487000000005E-08, 0.014961753971875002, 1.95E-05, 1.95E-05
DataValue, 2.05E-05, -1.9997163000000003E-08, 0.015088490210474, 2.05E-05, 2.05E-05
DataValue, 2.15E-05, -5.3951378000000006E-08, 0.015141296200454001, 2.15E-05, 2.15E-05
DataValue, 2.25E-05, 7.5494988000000011E-08, 0.015155377797782001, 2.25E-05, 2.25E-05
DataValue, 2.3500000000000002E-05, 6.3463006E-08, 0.015190582722425001, 2.3500000000000002E-05, 2.3500000000000002E-05
DataValue, 2.4500000000000003E-05, 6.6744775000000011E-08, 0.015130735002458002, 2.4500000000000003E-05, 2.4500000000000003E-05
DataValue, 2.5500000000000003E-05, 1.1246211800000001E-07, 0.015246910043061002, 2.5500000000000003E-05, 2.5500000000000003E-05
DataValue, 2.65E-05, -1.30073715E-07, 0.014856140129268001, 2.65E-05, 2.65E-05
DataValue, 2.75E-05, -4.4763123000000005E-08, 0.014894865453243, 2.75E-05, 2.75E-05
DataValue, 2.85E-05, -2.6775512E-08, 0.015113133005798002, 2.85E-05, 2.85E-05
DataValue, 2.9500000000000002E-05, -1.0346575200000001E-07, 0.014915987849236001, 2.9500000000000002E-05, 2.9500000000000002E-05
DataValue, 3.0500000000000003E-05, 2.9178151000000003E-08, 0.014852619729936002, 3.0500000000000003E-05, 3.0500000000000003E-05
DataValue, 3.15E-05, 2.9246880000000004E-09, 0.015204664319754, 3.15E-05, 3.15E-05
DataValue, 3.2500000000000004E-05, 1.89527213E-07, 0.015363085083663, 3.2500000000000004E-05, 3.2500000000000004E-05
DataValue, 3.35E-05, 5.9483462000000006E-08, 0.015278593637049, 3.35E-05, 3.35E-05
DataValue, 3.4500000000000005E-05, 4.099808E-09, 0.014982876367867002, 3.4500000000000005E-05, 3.4500000000000005E-05
DataValue, 3.55E-05, -9.3756626E-08, 0.015007519163191001, 3.55E-05, 3.55E-05
DataValue, 3.65E-05, -3.8466336E-08, 0.014915987849236001, 3.65E-05, 3.65E-05
DataValue, 3.7500000000000003E-05, 1.8385865E-08, 0.015070887282491001, 3.7500000000000003E-05, 3.7500000000000003E-05
DataValue, 3.85E-05, 2.8894551E-08, 0.015056805685163, 3.85E-05, 3.85E-05
DataValue, 3.9500000000000005E-05, 2.0420913E-08, 0.015137775801122001, 3.9500000000000005E-05, 3.9500000000000005E-05
DataValue, 4.05E-05, -1.7588934E-07, 0.014926549047232, 4.05E-05, 4.05E-05
DataValue, 4.1500000000000006E-05, -2.7282343000000003E-08, 0.014975835569203, 4.1500000000000006E-05, 4.1500000000000006E-05
DataValue, 4.25E-05, 1.3628040600000002E-07, 0.014870221726596002, 4.25E-05, 4.25E-05
DataValue, 4.35E-05, -9.503704500000001E-08, 0.015049764886498002, 4.35E-05, 4.35E-05
DataValue, 4.4500000000000004E-05, 7.901748000000001E-09, 0.014919508248568001, 4.4500000000000004E-05, 4.4500000000000004E-05
DataValue, 4.55E-05, 6.1623105E-08, 0.01476108841598, 4.55E-05, 4.55E-05
DataValue, 4.6500000000000005E-05, 2.4419409000000003E-08, 0.015014559961855, 4.6500000000000005E-05, 4.6500000000000005E-05
DataValue, 4.75E-05, -1.10776206E-07, 0.014951191842556002, 4.75E-05, 4.75E-05
DataValue, 4.85E-05, -4.9674195000000005E-08, 0.014944151043892, 4.85E-05, 4.85E-05
DataValue, 4.9500000000000004E-05, -1.46528905E-07, 0.014792772009969, 4.9500000000000004E-05, 4.9500000000000004E-05
DataValue, 5.05E-05, -1.51023698E-07, 0.014764608815312, 5.05E-05, 5.05E-05
DataValue, 5.1500000000000005E-05, 3.8900616E-08, 0.014687159098685001, 5.1500000000000005E-05, 5.1500000000000005E-05
DataValue, 5.25E-05, 3.0813773000000004E-08, 0.014880782924592, 5.25E-05, 5.25E-05
DataValue, 5.3500000000000006E-05, 7.9691380000000011E-09, 0.014866701327264002, 5.3500000000000006E-05, 5.3500000000000006E-05
DataValue, 5.45E-05, 4.9163607000000006E-08, 0.014782210811973002, 5.45E-05, 5.45E-05
DataValue, 5.55E-05, 1.00352914E-07, 0.014870221726596002, 5.55E-05, 5.55E-05
DataValue, 5.6500000000000005E-05, -3.3743394E-08, 0.014930069446564002, 5.6500000000000005E-05, 5.6500000000000005E-05
DataValue, 5.75E-05, 7.0536181000000012E-08, 0.014789251610637, 5.75E-05, 5.75E-05
DataValue, 5.8500000000000006E-05, -5.9707638E-08, 0.014637872576714001, 5.8500000000000006E-05, 5.8500000000000006E-05
DataValue, 5.95E-05, -1.5053231600000002E-07, 0.014880782924592, 5.95E-05, 5.95E-05
DataValue, 6.0500000000000007E-05, 1.0833797100000001E-07, 0.014813894405961002, 6.0500000000000007E-05, 6.0500000000000007E-05
DataValue, 6.15E-05, -8.1287360000000014E-09, 0.014789251610637, 6.15E-05, 6.15E-05
DataValue, 6.25E-05, -3.2742367000000004E-08, 0.014754047617316001, 6.25E-05, 6.25E-05
DataValue, 6.35E-05, 1.19912968E-07, 0.014708281494677001, 6.35E-05, 6.35E-05
DataValue, 6.4500000000000009E-05, 2.1996163000000003E-08, 0.014743485487998002, 6.4500000000000009E-05, 6.4500000000000009E-05
DataValue, 6.55E-05, 5.0974723000000006E-08, 0.014764608815312, 6.55E-05, 6.55E-05
DataValue, 6.65E-05, 1.0197027900000001E-07, 0.014870221726596002, 6.65E-05, 6.65E-05
DataValue, 6.75E-05, 5.4071172000000003E-08, 0.014669556170702001, 6.75E-05, 6.75E-05
DataValue, 6.85E-05, -1.4739865200000002E-07, 0.014493534341455, 6.85E-05, 6.85E-05
DataValue, 6.9500000000000009E-05, 7.2149341E-08, 0.014792772009969, 6.9500000000000009E-05, 6.9500000000000009E-05
DataValue, 7.05E-05, 3.3291069E-08, 0.014732924290001, 7.05E-05, 7.05E-05
DataValue, 7.15E-05, -3.9956646000000005E-08, 0.014574504457414001, 7.15E-05, 7.15E-05
DataValue, 7.25E-05, -3.1713320000000003E-09, 0.014497054740787002, 7.25E-05, 7.25E-05
DataValue, 7.3500000000000011E-05, 1.0618358500000001E-07, 0.014852619729936002, 7.3500000000000011E-05, 7.3500000000000011E-05
DataValue, 7.4500000000000008E-05, -1.8318721E-08, 0.014539299532771001, 7.4500000000000008E-05, 7.4500000000000008E-05
DataValue, 7.55E-05, 5.7069339000000005E-08, 0.014683638699353001, 7.55E-05, 7.55E-05
DataValue, 7.65E-05, 1.6519999200000002E-07, 0.014835017733276001, 7.65E-05, 7.65E-05
DataValue, 7.75E-05, -5.7120133000000004E-08, 0.014634352177382001, 7.75E-05, 7.75E-05
DataValue, 7.8500000000000011E-05, -1.9924571900000002E-07, 0.014532258734107002, 7.8500000000000011E-05, 7.8500000000000011E-05
DataValue, 7.9500000000000008E-05, 4.4657579000000003E-08, 0.014704761095345001, 7.9500000000000008E-05, 7.9500000000000008E-05
DataValue, 8.05E-05, -4.0907832000000004E-08, 0.014472411014140001, 8.05E-05, 8.05E-05
DataValue, 8.15E-05, -1.3644842100000002E-07, 0.014764608815312, 8.15E-05, 8.15E-05
DataValue, 8.25E-05, 7.4987454E-08, 0.014585065655410002, 8.25E-05, 8.25E-05
DataValue, 8.350000000000001E-05, 3.1609822E-08, 0.014926549047232, 8.350000000000001E-05, 8.350000000000001E-05
DataValue, 8.4500000000000008E-05, -5.1082374000000007E-08, 0.014338633976877001, 8.4500000000000008E-05, 8.4500000000000008E-05
DataValue, 8.55E-05, -4.23125E-08, 0.014482973143458, 8.55E-05, 8.55E-05
DataValue, 8.65E-05, 2.8455108000000004E-08, 0.014630831778049, 8.65E-05, 8.65E-05
DataValue, 8.75E-05, -8.4663839000000008E-08, 0.014666035771370002, 8.75E-05, 8.75E-05
DataValue, 8.850000000000001E-05, -1.5307980000000001E-09, 0.01482445653528, 8.850000000000001E-05, 8.850000000000001E-05
DataValue, 8.9500000000000007E-05, 9.6830362E-08, 0.014754047617316001, 8.9500000000000007E-05, 8.9500000000000007E-05
DataValue, 9.05E-05, -2.9681019000000002E-08, 0.014898385852575002, 9.05E-05, 9.05E-05
DataValue, 9.15E-05, 5.7663160000000008E-09, 0.014782210811973002, 9.15E-05, 9.15E-05
DataValue, 9.2500000000000012E-05, -8.9017540000000009E-08, 0.014704761095345001, 9.2500000000000012E-05, 9.2500000000000012E-05
DataValue, 9.3500000000000009E-05, -2.3749957700000003E-07, 0.014870221726596002, 9.3500000000000009E-05, 9.3500000000000009E-05
DataValue, 9.45E-05, 1.52085548E-07, 0.014655474573374001, 9.45E-05, 9.45E-05
DataValue, 9.55E-05, -1.2477521E-08, 0.014581545256078, 9.55E-05, 9.55E-05
DataValue, 9.65E-05, -7.4865561000000012E-08, 0.014880782924592, 9.65E-05, 9.65E-05
DataValue, 9.7500000000000012E-05, 1.1126734E-07, 0.01484205853194, 9.7500000000000012E-05, 9.7500000000000012E-05
DataValue, 9.8500000000000009E-05, 1.04946686E-07, 0.014810374006629, 9.8500000000000009E-05, 9.8500000000000009E-05
DataValue, 9.95E-05, -8.0559346000000011E-08, 0.014472411014140001, 9.95E-05, 9.95E-05
DataValue, 0.0001005, -4.0789899E-08, 0.017528159543872, 0.0001005, 0.0001005
DataValue, 0.0001015, -3.2443321E-08, 0.023762872442603, 0.0001015, 0.0001015
DataValue, 0.00010250000000000001, -1.60376217E-07, 0.030092637985945, 0.00010250000000000001, 0.00010250000000000001
DataValue, 0.00010350000000000001, -1.0011518700000001E-07, 0.036235816776752, 0.00010350000000000001, 0.00010350000000000001
DataValue, 0.0001045, -8.4189999000000011E-08, 0.042621910572052, 0.0001045, 0.0001045
DataValue, 0.0001055, -7.9262783000000007E-08, 0.04891999065876, 0.0001055, 0.0001055
DataValue, 0.0001065, -2.55716031E-07, 0.054975159466267007, 0.0001065, 0.0001065
DataValue, 0.00010750000000000001, -1.2895195300000002E-07, 0.061287324875593005, 0.00010750000000000001, 0.00010750000000000001
DataValue, 0.00010850000000000001, 9.2614890000000014E-09, 0.067465707659721, 0.00010850000000000001, 0.00010850000000000001
DataValue, 0.0001095, -8.8560547E-08, 0.073872923851013, 0.0001095, 0.0001095
DataValue, 0.0001105, -1.6248498000000002E-07, 0.08011116087436701, 0.0001105, 0.0001105
DataValue, 0.00011150000000000001, -1.57159036E-07, 0.086286023259163, 0.00011150000000000001, 0.00011150000000000001
DataValue, 0.00011250000000000001, -8.7830486E-08, 0.092594660818577007, 0.00011250000000000001, 0.00011250000000000001
DataValue, 0.00011350000000000001, -2.3199533E-07, 0.098470292985439009, 0.00011350000000000001, 0.00011350000000000001
DataValue, 0.0001145, -2.1208779800000002E-07, 0.1049619987607, 0.0001145, 0.0001145
DataValue, 0.0001155, -1.2888104100000002E-07, 0.11120375245809601, 0.0001155, 0.0001155
DataValue, 0.00011650000000000001, -1.35689575E-07, 0.11727300286293, 0.00011650000000000001, 0.00011650000000000001
DataValue, 0.00011750000000000001, -6.6481775E-08, 0.12331057339906701, 0.00011750000000000001, 0.00011750000000000001
DataValue, 0.00011850000000000001, -1.84080079E-07, 0.129422068595886, 0.00011850000000000001, 0.00011850000000000001
DataValue, 0.0001195, -9.70539E-09, 0.13604402542114302, 0.0001195, 0.0001195
DataValue, 0.0001205, -2.21158118E-07, 0.14199709892272902, 0.0001205, 0.0001205
DataValue, 0.00012150000000000001, -1.0614522200000001E-07, 0.148238852620125, 0.00012150000000000001, 0.00012150000000000001
DataValue, 0.0001225, -4.1027871000000004E-08, 0.15473760664463002, 0.0001225, 0.0001225
DataValue, 0.00012350000000000002, -1.36439994E-07, 0.160842061042786, 0.00012350000000000002, 0.00012350000000000002
DataValue, 0.00012450000000000002, -1.3795276700000002E-07, 0.16695003211498302, 0.00012450000000000002, 0.00012450000000000002
DataValue, 0.00012550000000000002, -3.4110524900000004E-07, 0.17295239865779902, 0.00012550000000000002, 0.00012550000000000002
DataValue, 0.0001265, -1.8825687700000002E-07, 0.17939834296703303, 0.0001265, 0.0001265
DataValue, 0.0001275, -1.78675506E-07, 0.18562953174114202, 0.0001275, 0.0001275
DataValue, 0.0001285, -3.06476437E-07, 0.19149459898471802, 0.0001285, 0.0001285
DataValue, 0.0001295, -7.9856662E-08, 0.19823274016380302, 0.0001295, 0.0001295
DataValue, 0.0001305, -7.9677655E-08, 0.20458714663982403, 0.0001305, 0.0001305
DataValue, 0.0001315, -2.3797271400000003E-07, 0.210751444101334, 0.0001315, 0.0001315
DataValue, 0.0001325, -1.69705572E-07, 0.21751423180103302, 0.0001325, 0.0001325
DataValue, 0.00013350000000000002, -2.1138791300000002E-07, 0.22402353584766402, 0.00013350000000000002, 0.00013350000000000002
DataValue, 0.00013450000000000002, -3.2460022200000005E-07, 0.230219528079033, 0.00013450000000000002, 0.00013450000000000002
DataValue, 0.00013550000000000001, -2.8981696700000005E-07, 0.23657041788101202, 0.00013550000000000001, 0.00013550000000000001
DataValue, 0.0001365, -9.5213942000000009E-08, 0.24291425943374603, 0.0001365, 0.0001365
DataValue, 0.0001375, -1.91808908E-07, 0.249036312103271, 0.0001375, 0.0001375
DataValue, 0.0001385, -1.7899491000000001E-07, 0.255126684904098, 0.0001385, 0.0001385
DataValue, 0.0001395, -7.2264008000000007E-08, 0.261333227157593, 0.0001395, 0.0001395
DataValue, 0.0001405, -1.04562247E-07, 0.26770877838134804, 0.0001405, 0.0001405
DataValue, 0.0001415, -2.65671559E-07, 0.273957550525665, 0.0001415, 0.0001415
DataValue, 0.00014250000000000002, -1.4124506700000002E-07, 0.280290842056274, 0.00014250000000000002, 0.00014250000000000002
DataValue, 0.00014350000000000002, -9.7295320000000008E-08, 0.286543160676956, 0.00014350000000000002, 0.00014350000000000002
DataValue, 0.00014450000000000002, -2.29960278E-07, 0.292689859867096, 0.00014450000000000002, 0.00014450000000000002
DataValue, 0.0001455, -1.35156782E-07, 0.29867461323738104, 0.0001455, 0.0001455
DataValue, 0.0001465, -4.974726E-09, 0.305102974176407, 0.0001465, 0.0001465
DataValue, 0.0001475, -2.6296260100000003E-07, 0.310964494943619, 0.0001475, 0.0001475
DataValue, 0.0001485, -2.4098915200000004E-07, 0.317252039909363, 0.0001485, 0.0001485
DataValue, 0.0001495, -7.5662314000000007E-08, 0.323462098836899, 0.0001495, 0.0001495
DataValue, 0.0001505, -6.7826775000000007E-08, 0.329714417457581, 0.0001505, 0.0001505
DataValue, 0.0001515, -1.09947159E-07, 0.33590334653854403, 0.0001515, 0.0001515
DataValue, 0.00015250000000000002, -4.8845155000000005E-08, 0.34202894568443304, 0.00015250000000000002, 0.00015250000000000002
DataValue, 0.00015350000000000002, -1.53384462E-07, 0.34798201918602, 0.00015350000000000002, 0.00015350000000000002
DataValue, 0.00015450000000000002, -2.79446567E-07, 0.354466676712036, 0.00015450000000000002, 0.00015450000000000002
DataValue, 0.0001555, -1.4510668200000002E-07, 0.360736608505249, 0.0001555, 0.0001555
DataValue, 0.0001565, -2.04265604E-07, 0.36733040213584905, 0.0001565, 0.0001565
DataValue, 0.0001575, -1.9555820100000002E-07, 0.373473584651947, 0.0001575, 0.0001575
DataValue, 0.0001585, -7.8735589E-08, 0.37955692410469105, 0.0001585, 0.0001585
DataValue, 0.0001595, -2.0892535700000002E-07, 0.385798662900925, 0.0001595, 0.0001595
DataValue, 0.0001605, -1.86515251E-07, 0.39192777872085605, 0.0001605, 0.0001605
DataValue, 0.00016150000000000002, -9.2533071E-08, 0.398292720317841, 0.00016150000000000002, 0.00016150000000000002
DataValue, 0.00016250000000000002, -2.3717386500000002E-07, 0.404668271541595, 0.00016250000000000002, 0.00016250000000000002
DataValue, 0.00016350000000000002, -2.7127620700000004E-07, 0.410656541585922, 0.00016350000000000002, 0.00016350000000000002
DataValue, 0.00016450000000000001, -9.3381765E-08, 0.41740876436233504, 0.00016450000000000001, 0.00016450000000000001
DataValue, 0.0001655, -1.82191741E-07, 0.42367866635322604, 0.0001655, 0.0001655
DataValue, 0.0001665, -2.3473236900000003E-07, 0.429892271757126, 0.0001665, 0.0001665
DataValue, 0.0001675, -1.1819967200000001E-07, 0.43615514039993303, 0.0001675, 0.0001675
DataValue, 0.0001685, -3.47665292E-07, 0.44225960969924905, 0.0001685, 0.0001685
DataValue, 0.0001695, -1.5257016600000002E-07, 0.44865274429321306, 0.0001695, 0.0001695
DataValue, 0.0001705, -2.04260687E-07, 0.454809993505478, 0.0001705, 0.0001705
DataValue, 0.00017150000000000002, -2.0004878800000002E-07, 0.460858136415482, 0.00017150000000000002, 0.00017150000000000002
DataValue, 0.00017250000000000002, -1.1107384500000001E-07, 0.467226624488831, 0.00017250000000000002, 0.00017250000000000002
DataValue, 0.00017350000000000002, -2.40533552E-07, 0.473352193832397, 0.00017350000000000002, 0.00017350000000000002
DataValue, 0.0001745, -1.96924958E-07, 0.479583382606506, 0.0001745, 0.0001745
DataValue, 0.0001755, -1.2262847800000002E-07, 0.48573714494705206, 0.0001755, 0.0001755
DataValue, 0.0001765, -2.66916174E-07, 0.49158459901809703, 0.0001765, 0.0001765
DataValue, 0.0001775, -3.7177770200000004E-07, 0.497988283634186, 0.0001775, 0.0001775
DataValue, 0.0001785, -2.35368361E-07, 0.50431454181671109, 0.0001785, 0.0001785
DataValue, 0.0001795, -1.3653827600000002E-07, 0.510334491729736, 0.0001795, 0.0001795
DataValue, 0.00018050000000000002, -2.56839911E-07, 0.516389667987823, 0.00018050000000000002, 0.00018050000000000002
DataValue, 0.00018150000000000002, -1.59943099E-07, 0.522465944290161, 0.00018150000000000002, 0.00018150000000000002
DataValue, 0.00018250000000000002, -1.5926147500000002E-07, 0.52883446216583208, 0.00018250000000000002, 0.00018250000000000002
DataValue, 0.00018350000000000002, -1.57758521E-07, 0.535192370414734, 0.00018350000000000002, 0.00018350000000000002
DataValue, 0.0001845, -1.6310693200000002E-07, 0.54147988557815507, 0.0001845, 0.0001845
DataValue, 0.0001855, -1.78362427E-07, 0.54778856039047208, 0.0001855, 0.0001855
DataValue, 0.0001865, -2.26208883E-07, 0.554142951965332, 0.0001865, 0.0001865
