
SetupTitle, FE PUND 3V - reverse
ApplicationTest, WGFMU Pattern Editor, Public
TestParameter, Name, ExecutionMode, Enable1, Channel1, OperationMode1, VForceRange1, InitMeasRange1, Enable2, Channel2, OperationMode2, VForceRange2, InitMeasRange2, RepeatCount, WaveformCh1, WaveformCh2, MeasurementEvent, Output_to_File_for_PatternValidation, Output_Enable, Output_Filename, DataDisplay_for_RunVector, DataDisplay_PatternValidation, DataDisplay_Mode, LogToFile, LogFile, WarningLevel, IForceRange1, IForceRange2, Result_Update_Interval_s
TestParameter, Value, Run Vector, Enable, WGFMU1:RS	RSWGFMU, Fast IV Imeas, Auto, 10uA (Imeas), Enable, WGFMU2:RS	RSWGFMU, PG Vmeas, Auto, 5V (Vmeas), 1, , Disable, C:\WGFMUPatternEditor_Pattern.csv, , Disable, x(time)_y(meas), Disable, C:\WGFMUPatternEditor_Log.log, 2, 10mA, 10mA, 10
MetaData, TestRecord.EntryPoint, true
MetaData, TestRecord.RecordTime, 06/10/2021 12:15:53
MetaData, TestRecord.TestTarget, FlashNumA_2_25um_E1
MetaData, TestRecord.IterationIndex, 1
MetaData, TestRecord.Preservation, true
MetaData, TestRecord.Flag, 
MetaData, TestRecord.Remarks, 
MetaData, TestRecord.LinkKey, 5f087e60-3752-4831-bc95-7288e775bd4a
MetaData, TestRecord.Parameters, 
Dimension1, 5000, 5000, 5000, 5000, 5000
Dimension2, 1, 1, 1, 1, 1
DataName, Time, MeasResult1_value, MeasResult2_value, MeasResult1_time, MeasResult2_time
DataValue, 5.0000000000000008E-07, -1.2514098E-08, -0.00060348433908100009, 5.0000000000000008E-07, 5.0000000000000008E-07
DataValue, 1.5E-06, -6.9903420000000007E-09, -0.000723190896679, 1.5E-06, 1.5E-06
DataValue, 2.5E-06, 3.4052288000000005E-08, -0.001015415647998, 2.5E-06, 2.5E-06
DataValue, 3.5000000000000004E-06, -3.1279180000000003E-09, -0.000888667535037, 3.5000000000000004E-06, 3.5000000000000004E-06
DataValue, 4.5E-06, -1.6341472000000002E-08, -0.0010083740344270001, 4.5E-06, 4.5E-06
DataValue, 5.5000000000000007E-06, 3.0280994E-08, -0.000941479229368, 5.5000000000000007E-06, 5.5000000000000007E-06
DataValue, 6.5000000000000004E-06, -9.3596690000000011E-09, -0.000783044146374, 6.5000000000000004E-06, 6.5000000000000004E-06
DataValue, 7.5E-06, -1.7133585E-08, -0.000772481784225, 7.5E-06, 7.5E-06
DataValue, 8.5E-06, 4.0753697E-08, -0.00077600259101000008, 8.5E-06, 8.5E-06
DataValue, 9.5E-06, -2.0281004000000003E-08, -0.000568276562262, 9.5E-06, 9.5E-06
DataValue, 1.0500000000000001E-05, -1.0355066E-08, -0.00077600259101000008, 1.0500000000000001E-05, 1.0500000000000001E-05
DataValue, 1.15E-05, 1.2300746E-08, -0.000522506423295, 1.15E-05, 1.15E-05
DataValue, 1.25E-05, 5.767573E-09, -0.0006140467012300001, 1.25E-05, 1.25E-05
DataValue, 1.3500000000000001E-05, -1.074034E-09, -0.00031830117222900005, 1.3500000000000001E-05, 1.3500000000000001E-05
DataValue, 1.45E-05, -1.7406968E-08, -0.00035702972672900003, 1.45E-05, 1.45E-05
DataValue, 1.55E-05, 2.7953726000000002E-08, -0.000180990740773, 1.55E-05, 1.55E-05
DataValue, 1.65E-05, -1.5647498E-08, -0.000131699809572, 1.65E-05, 1.65E-05
DataValue, 1.7500000000000002E-05, 8.9921E-09, -0.000325342727592, 1.7500000000000002E-05, 1.7500000000000002E-05
DataValue, 1.8500000000000002E-05, -1.4476853E-08, -0.00037815442192400004, 1.8500000000000002E-05, 1.8500000000000002E-05
DataValue, 1.95E-05, 1.8371271E-08, -7.888811524E-05, 1.95E-05, 1.95E-05
DataValue, 2.05E-05, -1.7119300000000001E-09, 0.00010419245518300001, 2.05E-05, 2.05E-05
DataValue, 2.15E-05, -2.1970376E-08, -0.000251406338066, 2.15E-05, 2.15E-05
DataValue, 2.25E-05, 2.2345851000000003E-08, -0.000413362227846, 2.25E-05, 2.25E-05
DataValue, 2.3500000000000002E-05, -1.5254946000000003E-08, -0.00042040378321, 2.3500000000000002E-05, 2.3500000000000002E-05
DataValue, 2.4500000000000003E-05, 8.58553E-09, -0.00033942583832000003, 2.4500000000000003E-05, 2.4500000000000003E-05
DataValue, 2.5500000000000003E-05, 7.968663E-09, -0.00022676087974100002, 2.5500000000000003E-05, 2.5500000000000003E-05
DataValue, 2.65E-05, 8.96E-11, -0.00015282449021500002, 2.65E-05, 2.65E-05
DataValue, 2.75E-05, -3.16971E-10, -0.000254927115748, 2.75E-05, 2.75E-05
DataValue, 2.85E-05, -3.464391E-09, -0.00049786095041800009, 2.85E-05, 2.85E-05
DataValue, 2.9500000000000002E-05, 1.1557703000000001E-08, -0.00042040378321, 2.9500000000000002E-05, 2.9500000000000002E-05
DataValue, 3.0500000000000003E-05, -3.4756329000000006E-08, -0.000941479229368, 3.0500000000000003E-05, 3.0500000000000003E-05
DataValue, 3.15E-05, 2.0747606000000002E-08, -0.000818251923192, 3.15E-05, 3.15E-05
DataValue, 3.2500000000000004E-05, -2.2586970000000004E-09, -0.000941479229368, 3.2500000000000004E-05, 3.2500000000000004E-05
DataValue, 3.35E-05, -2.13252E-09, -0.0010752688394860001, 3.35E-05, 3.35E-05
DataValue, 3.4500000000000005E-05, 2.6019009000000002E-08, -0.000945000036154, 3.4500000000000005E-05, 3.4500000000000005E-05
DataValue, 3.55E-05, 3.3001080000000003E-09, -0.000772481784225, 3.55E-05, 3.55E-05
DataValue, 3.65E-05, -6.8221060000000005E-09, -0.00065981684019800007, 3.65E-05, 3.65E-05
DataValue, 3.7500000000000003E-05, 1.038005E-08, -0.000596442783717, 3.7500000000000003E-05, 3.7500000000000003E-05
DataValue, 3.85E-05, 1.0912798000000002E-08, -0.00049434014363200008, 3.85E-05, 3.85E-05
DataValue, 3.9500000000000005E-05, -1.0740608E-08, -0.000518985616509, 3.9500000000000005E-05, 3.9500000000000005E-05
DataValue, 4.05E-05, 5.3469820000000007E-09, -0.000438007671619, 4.05E-05, 4.05E-05
DataValue, 4.1500000000000006E-05, -1.6979100000000002E-09, -0.00045209081145, 4.1500000000000006E-05, 4.1500000000000006E-05
DataValue, 4.25E-05, -9.387708E-09, -0.000585880421568, 4.25E-05, 4.25E-05
DataValue, 4.35E-05, 1.1529663000000001E-08, -0.00044504925608600005, 4.35E-05, 4.35E-05
DataValue, 4.4500000000000004E-05, 3.1949600000000003E-09, -0.00046617392217700003, 4.4500000000000004E-05, 4.4500000000000004E-05
DataValue, 4.55E-05, 3.124862E-09, -0.00026548944879300004, 4.55E-05, 4.55E-05
DataValue, 4.6500000000000005E-05, -1.463808E-08, -0.00030421803239700005, 4.6500000000000005E-05, 4.6500000000000005E-05
DataValue, 4.75E-05, 2.1841142000000002E-08, -2.6076409995000002E-05, 4.75E-05, 4.75E-05
DataValue, 4.85E-05, -1.4603031000000002E-08, -1.9034850993E-05, 4.85E-05, 4.85E-05
DataValue, 4.9500000000000004E-05, -7.7962100000000005E-10, -0.00011409591388700001, 4.9500000000000004E-05, 4.9500000000000004E-05
DataValue, 5.05E-05, 1.887598E-08, 4.4339190936000006E-05, 5.05E-05, 5.05E-05
DataValue, 5.1500000000000005E-05, -2.402426E-08, 3.3776850614E-05, 5.1500000000000005E-05, 5.1500000000000005E-05
DataValue, 5.25E-05, 1.148086E-09, 7.9546989582E-05, 5.25E-05, 5.25E-05
DataValue, 5.3500000000000006E-05, 5.389041E-09, 7.2505434218E-05, 5.3500000000000006E-05, 5.3500000000000006E-05
DataValue, 5.45E-05, 2.6484600000000004E-10, -0.000156345267897, 5.45E-05, 5.45E-05
DataValue, 5.55E-05, -9.2825600000000015E-09, -0.00019155307381900003, 5.55E-05, 5.55E-05
DataValue, 5.6500000000000005E-05, 8.9220020000000011E-09, 0.00016756649711200002, 5.6500000000000005E-05, 5.6500000000000005E-05
DataValue, 5.75E-05, 1.4712132E-08, -0.000276051810943, 5.75E-05, 5.75E-05
DataValue, 5.8500000000000006E-05, -2.3421414E-08, -3.3117968997000005E-05, 5.8500000000000006E-05, 5.8500000000000006E-05
DataValue, 5.95E-05, 1.6906213E-08, -0.00029013492167000003, 5.95E-05, 5.95E-05
DataValue, 6.0500000000000007E-05, 9.7281340000000009E-09, -0.00026548944879300004, 6.0500000000000007E-05, 6.0500000000000007E-05
DataValue, 6.15E-05, -2.5706623000000002E-08, -0.00014226215716900002, 6.15E-05, 6.15E-05
DataValue, 6.25E-05, 1.1592753E-08, -0.00034646739368300003, 6.25E-05, 6.25E-05
DataValue, 6.35E-05, -6.1491600000000007E-09, -0.00057179731084000009, 6.35E-05, 6.35E-05
DataValue, 6.4500000000000009E-05, -6.7520070000000004E-09, -0.000364071311196, 6.4500000000000009E-05, 6.4500000000000009E-05
DataValue, 6.55E-05, 2.690252E-09, -0.0006809415062890001, 6.55E-05, 6.55E-05
DataValue, 6.65E-05, 1.0323971000000001E-08, -0.00076544022886100007, 6.65E-05, 6.65E-05
DataValue, 6.75E-05, -1.9780400000000001E-10, -0.00091331300791400009, 6.75E-05, 6.75E-05
DataValue, 6.85E-05, 1.8252104E-08, -0.0008851467864590001, 6.85E-05, 6.85E-05
DataValue, 6.9500000000000009E-05, -3.48542E-09, -0.00096964550903100007, 6.9500000000000009E-05, 6.9500000000000009E-05
DataValue, 7.05E-05, 8.900972E-09, -0.000666858395562, 7.05E-05, 7.05E-05
DataValue, 7.15E-05, 5.0876180000000005E-09, -0.00067037914414000009, 7.15E-05, 7.15E-05
DataValue, 7.25E-05, -2.9737020000000004E-09, -0.000716149341315, 7.25E-05, 7.25E-05
DataValue, 7.3500000000000011E-05, -1.6236324E-08, -0.00051546486793100006, 7.3500000000000011E-05, 7.3500000000000011E-05
DataValue, 7.4500000000000008E-05, 1.2553101E-08, -0.00033942583832000003, 7.4500000000000008E-05, 7.4500000000000008E-05
DataValue, 7.55E-05, 6.5176260000000008E-09, -0.00041688300552800004, 7.55E-05, 7.55E-05
DataValue, 7.65E-05, 3.0757930000000003E-09, -0.00045209081145, 7.65E-05, 7.65E-05
DataValue, 7.75E-05, -4.908418E-09, -0.00020211542141600002, 7.75E-05, 7.75E-05
DataValue, 7.8500000000000011E-05, 1.8252104E-08, 0.00011475479550400001, 7.8500000000000011E-05, 7.8500000000000011E-05
DataValue, 7.9500000000000008E-05, 7.996703E-09, 0.00013587946887100001, 7.9500000000000008E-05, 7.9500000000000008E-05
DataValue, 8.05E-05, -2.1045077000000002E-08, 6.1943093897000011E-05, 8.05E-05, 8.05E-05
DataValue, 8.15E-05, -6.0229830000000008E-09, -0.000251406338066, 8.15E-05, 8.15E-05
DataValue, 8.25E-05, 1.6015964E-08, -5.4242649639000004E-05, 8.25E-05, 8.25E-05
DataValue, 8.350000000000001E-05, -1.2990768E-08, -0.00023732321278700002, 8.350000000000001E-05, 8.350000000000001E-05
DataValue, 8.4500000000000008E-05, -6.801076E-09, -0.00030773881007900003, 8.4500000000000008E-05, 8.4500000000000008E-05
DataValue, 8.55E-05, 1.7130528E-08, -6.4804989961E-05, 8.55E-05, 8.55E-05
DataValue, 8.65E-05, -9.198442000000001E-09, 4.7859972256000004E-05, 8.65E-05, 8.65E-05
DataValue, 8.75E-05, -1.6537747E-08, -0.00011057513620500002, 8.75E-05, 8.75E-05
DataValue, 8.850000000000001E-05, 1.9696131000000002E-08, -0.00018803229613700002, 8.850000000000001E-05, 8.850000000000001E-05
DataValue, 8.9500000000000007E-05, -4.8523390000000007E-09, -4.3680309318E-05, 8.9500000000000007E-05, 8.9500000000000007E-05
DataValue, 9.05E-05, 2.4519170000000002E-09, -1.5514069673000002E-05, 9.05E-05, 9.05E-05
DataValue, 9.15E-05, 1.0842699000000002E-08, 0.000315439247061, 9.15E-05, 9.15E-05
DataValue, 9.2500000000000012E-05, 4.036142E-09, 0.000223898983677, 9.2500000000000012E-05, 9.2500000000000012E-05
DataValue, 9.3500000000000009E-05, -1.3698761E-08, 7.9546989582E-05, 9.3500000000000009E-05, 9.3500000000000009E-05
DataValue, 9.45E-05, -1.0621441000000001E-08, -1.1993290173000002E-05, 9.45E-05, 9.45E-05
DataValue, 9.55E-05, 1.3765804000000001E-08, -0.00018803229613700002, 9.55E-05, 9.55E-05
DataValue, 9.65E-05, 5.1296770000000007E-09, -0.00043448689393700004, 9.65E-05, 9.65E-05
DataValue, 9.7500000000000012E-05, -1.9685167E-08, -0.00042040378321, 9.7500000000000012E-05, 9.7500000000000012E-05
DataValue, 9.8500000000000009E-05, 3.4662147E-08, -0.000638692174107, 9.8500000000000009E-05, 9.8500000000000009E-05
DataValue, 9.95E-05, -7.1375480000000006E-09, -0.000438007671619, 9.95E-05, 9.95E-05
DataValue, 0.0001005, -1.0682452300000001E-07, 0.0027905476745220003, 0.0001005, 0.0001005
DataValue, 0.0001015, -1.8296543700000002E-07, 0.010363745503128002, 0.0001015, 0.0001015
DataValue, 0.00010250000000000001, -2.0841116600000002E-07, 0.018116503953934, 0.00010250000000000001, 0.00010250000000000001
DataValue, 0.00010350000000000001, -2.06588609E-07, 0.025802366435528003, 0.00010350000000000001, 0.00010350000000000001
DataValue, 0.0001045, -1.8554506200000003E-07, 0.033079817891121, 0.0001045, 0.0001045
DataValue, 0.0001055, -2.06939106E-07, 0.040649496018887, 0.0001055, 0.0001055
DataValue, 0.0001065, -2.069321E-07, 0.048127632588148006, 0.0001065, 0.0001065
DataValue, 0.00010750000000000001, -1.8213828000000002E-07, 0.055672664195299, 0.00010750000000000001, 0.00010750000000000001
DataValue, 0.00010850000000000001, -2.33905965E-07, 0.063048698008060011, 0.00010850000000000001, 0.00010850000000000001
DataValue, 0.0001095, -2.19052112E-07, 0.07039304822683301, 0.0001095, 0.0001095
DataValue, 0.0001105, -1.7748374100000002E-07, 0.078078910708427013, 0.0001105, 0.0001105
DataValue, 0.00011150000000000001, -2.1436253000000001E-07, 0.085398614406586013, 0.00011150000000000001, 0.00011150000000000001
DataValue, 0.00011250000000000001, -2.19346518E-07, 0.092890828847885007, 0.00011250000000000001, 0.00011250000000000001
DataValue, 0.00011350000000000001, -2.0883877000000002E-07, 0.10064006596803701, 0.00011350000000000001, 0.00011350000000000001
DataValue, 0.0001145, -1.93683491E-07, 0.10800906270742401, 0.0001145, 0.0001145
DataValue, 0.0001155, -2.6041018900000004E-07, 0.11547311395406701, 0.0001155, 0.0001155
DataValue, 0.00011650000000000001, -2.14278415E-07, 0.123169541358948, 0.00011650000000000001, 0.00011650000000000001
DataValue, 0.00011750000000000001, -2.0813779100000002E-07, 0.13058783113956402, 0.00011750000000000001, 0.00011750000000000001
DataValue, 0.00011850000000000001, -2.56274376E-07, 0.137889921665192, 0.00011850000000000001, 0.00011850000000000001
DataValue, 0.0001195, -2.1992833900000002E-07, 0.14521314203739202, 0.0001195, 0.0001195
DataValue, 0.0001205, -2.0578949000000002E-07, 0.152779296040535, 0.0001205, 0.0001205
DataValue, 0.00012150000000000001, -2.5723471700000005E-07, 0.16022574901580802, 0.00012150000000000001, 0.00012150000000000001
DataValue, 0.0001225, -2.3295263000000002E-07, 0.16757714748382602, 0.0001225, 0.0001225
DataValue, 0.00012350000000000002, -2.2415527200000002E-07, 0.175086960196495, 0.00012350000000000002, 0.00012350000000000002
DataValue, 0.00012450000000000002, -2.3241987900000002E-07, 0.18267424404621102, 0.00012450000000000002, 0.00012450000000000002
DataValue, 0.00012550000000000002, -2.51080081E-07, 0.19009605050087003, 0.00012550000000000002, 0.00012550000000000002
DataValue, 0.0001265, -2.23860866E-07, 0.19783119857311202, 0.0001265, 0.0001265
DataValue, 0.0001275, -2.76722091E-07, 0.205840975046158, 0.0001275, 0.0001275
DataValue, 0.0001285, -2.42009349E-07, 0.21320292353630102, 0.0001285, 0.0001285
DataValue, 0.0001295, -2.3670990900000002E-07, 0.220790207386017, 0.0001295, 0.0001295
DataValue, 0.0001305, -2.59779313E-07, 0.22819441556930503, 0.0001305, 0.0001305
DataValue, 0.0001315, -2.7301388200000003E-07, 0.23565495014190702, 0.0001315, 0.0001315
DataValue, 0.0001325, -2.1071740300000003E-07, 0.242957040667534, 0.0001325, 0.0001325
DataValue, 0.00013350000000000002, -2.7815210000000003E-07, 0.25049149990081804, 0.00013350000000000002, 0.00013350000000000002
DataValue, 0.00013450000000000002, -2.4099992400000004E-07, 0.25787809491157504, 0.00013450000000000002, 0.00013450000000000002
DataValue, 0.00013550000000000001, -2.1791652200000002E-07, 0.265391439199448, 0.00013550000000000001, 0.00013550000000000001
DataValue, 0.0001365, -2.81965441E-07, 0.272823810577393, 0.0001365, 0.0001365
DataValue, 0.0001375, -2.74492947E-07, 0.28021395206451405, 0.0001375, 0.0001375
DataValue, 0.0001385, -2.4472214500000004E-07, 0.28775897622108504, 0.0001385, 0.0001385
DataValue, 0.0001395, -2.65990025E-07, 0.29508569836616505, 0.0001395, 0.0001395
DataValue, 0.0001405, -2.6042420100000004E-07, 0.3026342689991, 0.0001405, 0.0001405
DataValue, 0.0001415, -2.62723432E-07, 0.309996217489243, 0.0001415, 0.0001415
DataValue, 0.00014250000000000002, -2.44813293E-07, 0.317263096570969, 0.00014250000000000002, 0.00014250000000000002
DataValue, 0.00014350000000000002, -2.99833545E-07, 0.324596881866455, 0.00014350000000000002, 0.00014350000000000002
DataValue, 0.00014450000000000002, -2.7149974400000004E-07, 0.33236724138259904, 0.00014450000000000002, 0.00014450000000000002
DataValue, 0.0001455, -2.35230829E-07, 0.33991932868957503, 0.0001455, 0.0001455
DataValue, 0.0001465, -2.8955011500000004E-07, 0.34740802645683305, 0.0001465, 0.0001465
DataValue, 0.0001475, -2.81713085E-07, 0.35530513525009205, 0.0001475, 0.0001475
DataValue, 0.0001485, -2.79175538E-07, 0.36261427402496305, 0.0001485, 0.0001485
DataValue, 0.0001495, -2.52587199E-07, 0.370102971792221, 0.0001495, 0.0001495
DataValue, 0.0001505, -3.12633517E-07, 0.377366334199905, 0.0001505, 0.0001505
DataValue, 0.0001515, -2.8395624000000003E-07, 0.384883195161819, 0.0001515, 0.0001515
DataValue, 0.00015250000000000002, -2.55461231E-07, 0.392537385225296, 0.00015250000000000002, 0.00015250000000000002
DataValue, 0.00015350000000000002, -3.0230100400000004E-07, 0.40018802881240806, 0.00015350000000000002, 0.00015350000000000002
DataValue, 0.00015450000000000002, -2.78789997E-07, 0.40768027305603005, 0.00015450000000000002, 0.00015450000000000002
DataValue, 0.0001555, -2.74072363E-07, 0.415397822856903, 0.0001555, 0.0001555
DataValue, 0.0001565, -2.8454508100000004E-07, 0.422745674848556, 0.0001565, 0.0001565
DataValue, 0.0001575, -2.77507183E-07, 0.430086493492126, 0.0001575, 0.0001575
DataValue, 0.0001585, -3.1303307E-07, 0.43775829672813404, 0.0001585, 0.0001585
DataValue, 0.0001595, -2.72796569E-07, 0.44502165913581804, 0.0001595, 0.0001595
DataValue, 0.0001605, -2.87762589E-07, 0.45268288254737804, 0.0001605, 0.0001605
DataValue, 0.00016150000000000002, -2.7799788400000003E-07, 0.46010115742683405, 0.00016150000000000002, 0.00016150000000000002
DataValue, 0.00016250000000000002, -2.91169385E-07, 0.467406779527664, 0.00016250000000000002, 0.00016250000000000002
DataValue, 0.00016350000000000002, -3.3653006400000003E-07, 0.47469830513000505, 0.00016350000000000002, 0.00016350000000000002
DataValue, 0.00016450000000000001, -2.5359662500000003E-07, 0.48187717795372004, 0.00016450000000000001, 0.00016450000000000001
DataValue, 0.0001655, -2.8927672700000005E-07, 0.48968628048896806, 0.0001655, 0.0001655
DataValue, 0.0001665, -2.89606191E-07, 0.49684402346611006, 0.0001665, 0.0001665
DataValue, 0.0001675, -2.9349664E-07, 0.504269361495972, 0.0001675, 0.0001675
DataValue, 0.0001685, -2.72845654E-07, 0.51164186000824008, 0.0001685, 0.0001685
DataValue, 0.0001695, -3.32310151E-07, 0.51944041252136208, 0.0001695, 0.0001695
DataValue, 0.0001705, -2.80325139E-07, 0.52704524993896507, 0.0001705, 0.0001705
DataValue, 0.00017150000000000002, -2.59253568E-07, 0.53440016508102406, 0.00017150000000000002, 0.00017150000000000002
DataValue, 0.00017250000000000002, -3.3889938300000004E-07, 0.541917026042938, 0.00017250000000000002, 0.00017250000000000002
DataValue, 0.00017350000000000002, -3.0758641900000005E-07, 0.54930716753006, 0.00017350000000000002, 0.00017350000000000002
DataValue, 0.0001745, -2.8232997800000004E-07, 0.557042300701141, 0.0001745, 0.0001745
DataValue, 0.0001755, -3.0174723500000004E-07, 0.564379632472992, 0.0001755, 0.0001755
DataValue, 0.0001765, -3.13586867E-07, 0.57212531566619906, 0.0001765, 0.0001765
DataValue, 0.0001775, -2.89746367E-07, 0.57968795299530007, 0.0001775, 0.0001775
DataValue, 0.0001785, -3.0951412100000004E-07, 0.587137937545776, 0.0001785, 0.0001785
DataValue, 0.0001795, -3.28594922E-07, 0.59446114301681507, 0.0001795, 0.0001795
DataValue, 0.00018050000000000002, -2.67938759E-07, 0.60197097063064609, 0.00018050000000000002, 0.00018050000000000002
DataValue, 0.00018150000000000002, -3.60034079E-07, 0.61004763841629006, 0.00018150000000000002, 0.00018150000000000002
DataValue, 0.00018250000000000002, -3.1673428700000004E-07, 0.617497622966766, 0.00018250000000000002, 0.00018250000000000002
DataValue, 0.00018350000000000002, -2.8621340700000004E-07, 0.624799728393555, 0.00018350000000000002, 0.00018350000000000002
DataValue, 0.0001845, -3.1368497800000005E-07, 0.63245040178298906, 0.0001845, 0.0001845
DataValue, 0.0001855, -3.24536217E-07, 0.63969969749450706, 0.0001855, 0.0001855
