
SetupTitle, FE PUND 3V - reverse
ApplicationTest, WGFMU Pattern Editor, Public
TestParameter, Name, ExecutionMode, Enable1, Channel1, OperationMode1, VForceRange1, InitMeasRange1, Enable2, Channel2, OperationMode2, VForceRange2, InitMeasRange2, RepeatCount, WaveformCh1, WaveformCh2, MeasurementEvent, Output_to_File_for_PatternValidation, Output_Enable, Output_Filename, DataDisplay_for_RunVector, DataDisplay_PatternValidation, DataDisplay_Mode, LogToFile, LogFile, WarningLevel, IForceRange1, IForceRange2, Result_Update_Interval_s
TestParameter, Value, Run Vector, Enable, WGFMU1:RS	RSWGFMU, Fast IV Imeas, Auto, 100uA (Imeas), Enable, WGFMU2:RS	RSWGFMU, PG Vmeas, Auto, 5V (Vmeas), 1, , Disable, C:\WGFMUPatternEditor_Pattern.csv, , Disable, x(time)_y(meas), Disable, C:\WGFMUPatternEditor_Log.log, 2, 10mA, 10mA, 10
MetaData, TestRecord.EntryPoint, true
MetaData, TestRecord.RecordTime, 11/19/2021 12:29:28
MetaData, TestRecord.TestTarget, FlashNumC_3_25um_D4
MetaData, TestRecord.IterationIndex, 2
MetaData, TestRecord.Preservation, true
MetaData, TestRecord.Flag, 
MetaData, TestRecord.Remarks, 
MetaData, TestRecord.LinkKey, 58e58da5-4c0f-415d-878e-219404dd5e9d
MetaData, TestRecord.Parameters, 
Dimension1, 5000, 5000, 5000, 5000, 5000
Dimension2, 1, 1, 1, 1, 1
DataName, Time, MeasResult1_value, MeasResult2_value, MeasResult1_time, MeasResult2_time
DataValue, 5.0000000000000008E-07, -5.18812726E-07, 0.025258664041758003, 5.0000000000000008E-07, 5.0000000000000008E-07
DataValue, 1.5E-06, -5.3482421E-07, 0.025188222527504002, 1.5E-06, 1.5E-06
DataValue, 2.5E-06, -5.5762836800000006E-07, 0.025184700265527, 2.5E-06, 2.5E-06
DataValue, 3.5000000000000004E-06, -5.3503214300000009E-07, 0.025156524032354, 3.5000000000000004E-06, 3.5000000000000004E-06
DataValue, 4.5E-06, -5.67886843E-07, 0.025262186303735, 4.5E-06, 4.5E-06
DataValue, 5.5000000000000007E-06, -4.97186875E-07, 0.024938156828284003, 5.5000000000000007E-06, 5.5000000000000007E-06
DataValue, 6.5000000000000004E-06, -5.58945374E-07, 0.025255141779780003, 6.5000000000000004E-06, 6.5000000000000004E-06
DataValue, 7.5E-06, -4.4430049700000003E-07, 0.025110738351941, 7.5E-06, 7.5E-06
DataValue, 8.5E-06, -5.36349091E-07, 0.025216398760676002, 8.5E-06, 8.5E-06
DataValue, 9.5E-06, -6.04553748E-07, 0.025617914274335, 9.5E-06, 9.5E-06
DataValue, 1.0500000000000001E-05, -6.0046426100000007E-07, 0.025103693827987, 1.0500000000000001E-05, 1.0500000000000001E-05
DataValue, 1.15E-05, -5.0120706900000009E-07, 0.025089604780078004, 1.15E-05, 1.15E-05
DataValue, 1.25E-05, -6.1023746400000006E-07, 0.025258664041758003, 1.25E-05, 1.25E-05
DataValue, 1.3500000000000001E-05, -5.12574502E-07, 0.025293884798884003, 1.3500000000000001E-05, 1.3500000000000001E-05
DataValue, 1.45E-05, -5.15762906E-07, 0.025209356099367003, 1.45E-05, 1.45E-05
DataValue, 1.55E-05, -5.1077233800000008E-07, 0.02528684027493, 1.55E-05, 1.55E-05
DataValue, 1.65E-05, -5.4820174000000006E-07, 0.025251619517803, 1.65E-05, 1.65E-05
DataValue, 1.7500000000000002E-05, -5.7627374900000006E-07, 0.025068473070860003, 1.7500000000000002E-05, 1.7500000000000002E-05
DataValue, 1.8500000000000002E-05, -5.03771673E-07, 0.025121303275228, 1.8500000000000002E-05, 1.8500000000000002E-05
DataValue, 1.95E-05, -5.5762836800000006E-07, 0.025135392323136004, 1.95E-05, 1.95E-05
DataValue, 2.05E-05, -4.70986265E-07, 0.025145957246423004, 2.05E-05, 2.05E-05
DataValue, 2.15E-05, -6.151587400000001E-07, 0.024804318323731003, 2.15E-05, 2.15E-05
DataValue, 2.25E-05, -4.84363795E-07, 0.025022685527802003, 2.25E-05, 2.25E-05
DataValue, 2.3500000000000002E-05, -4.90116861E-07, 0.024990987032652002, 2.3500000000000002E-05, 2.3500000000000002E-05
DataValue, 2.4500000000000003E-05, -5.6282692600000009E-07, 0.024920545518398, 2.4500000000000003E-05, 2.4500000000000003E-05
DataValue, 2.5500000000000003E-05, -5.1416873200000006E-07, 0.024797273799777003, 2.5500000000000003E-05, 2.5500000000000003E-05
DataValue, 2.65E-05, -5.4438947900000009E-07, 0.024917023256421002, 2.65E-05, 2.65E-05
DataValue, 2.75E-05, -5.37873973E-07, 0.024990987032652002, 2.75E-05, 2.75E-05
DataValue, 2.85E-05, -5.34893502E-07, 0.025167090818286, 2.85E-05, 2.85E-05
DataValue, 2.9500000000000002E-05, -5.4743929900000009E-07, 0.024945201352239002, 2.9500000000000002E-05, 2.9500000000000002E-05
DataValue, 3.0500000000000003E-05, -5.40785152E-07, 0.024853626266122003, 3.0500000000000003E-05, 3.0500000000000003E-05
DataValue, 3.15E-05, -5.18882018E-07, 0.024976899847388, 3.15E-05, 3.15E-05
DataValue, 3.2500000000000004E-05, -5.23941935E-07, 0.024980422109365002, 3.2500000000000004E-05, 3.2500000000000004E-05
DataValue, 3.35E-05, -5.08831533E-07, 0.024681046605110002, 3.35E-05, 3.35E-05
DataValue, 3.4500000000000005E-05, -5.6400523400000006E-07, 0.024998031556606, 3.4500000000000005E-05, 3.4500000000000005E-05
DataValue, 3.55E-05, -5.2650654000000007E-07, 0.024917023256421002, 3.55E-05, 3.55E-05
DataValue, 3.65E-05, -5.49449396E-07, 0.024846583604813, 3.65E-05, 3.65E-05
DataValue, 3.7500000000000003E-05, -5.2941771900000008E-07, 0.024800796061754, 3.7500000000000003E-05, 3.7500000000000003E-05
DataValue, 3.85E-05, -5.80987091E-07, 0.024723310023546, 3.85E-05, 3.85E-05
DataValue, 3.9500000000000005E-05, -5.18466152E-07, 0.024755008518696, 3.9500000000000005E-05, 3.9500000000000005E-05
DataValue, 4.05E-05, -5.39606845E-07, 0.024733876809478, 4.05E-05, 4.05E-05
DataValue, 4.1500000000000006E-05, -5.06682852E-07, 0.024674002081156002, 4.1500000000000006E-05, 4.1500000000000006E-05
DataValue, 4.25E-05, -6.243774920000001E-07, 0.024740921333432003, 4.25E-05, 4.25E-05
DataValue, 4.35E-05, -5.19228593E-07, 0.024987464770675, 4.35E-05, 4.35E-05
DataValue, 4.4500000000000004E-05, -5.3579458400000007E-07, 0.025135392323136004, 4.4500000000000004E-05, 4.4500000000000004E-05
DataValue, 4.55E-05, -5.1451525000000006E-07, 0.025047339498997002, 4.55E-05, 4.55E-05
DataValue, 4.6500000000000005E-05, -4.8970099400000006E-07, 0.025012120604515003, 4.6500000000000005E-05, 4.6500000000000005E-05
DataValue, 4.75E-05, -5.43349756E-07, 0.024582428857684004, 4.75E-05, 4.75E-05
DataValue, 4.85E-05, -5.5728185100000007E-07, 0.024941679090261, 4.85E-05, 4.85E-05
DataValue, 4.9500000000000004E-05, -5.0217744300000006E-07, 0.024881802499294003, 4.9500000000000004E-05, 4.9500000000000004E-05
DataValue, 5.05E-05, -5.7551130800000008E-07, 0.024980422109365002, 5.05E-05, 5.05E-05
DataValue, 5.1500000000000005E-05, -4.8963164500000006E-07, 0.024987464770675, 5.1500000000000005E-05, 5.1500000000000005E-05
DataValue, 5.25E-05, -5.59638465E-07, 0.024779664352536, 5.25E-05, 5.25E-05
DataValue, 5.3500000000000006E-05, -5.31219882E-07, 0.025012120604515003, 5.3500000000000006E-05, 5.3500000000000006E-05
DataValue, 5.45E-05, -6.1148512E-07, 0.025195267051458, 5.45E-05, 5.45E-05
DataValue, 5.55E-05, -4.5733148100000006E-07, 0.025071995332837, 5.55E-05, 5.55E-05
DataValue, 5.6500000000000005E-05, -5.872946640000001E-07, 0.024881802499294003, 5.6500000000000005E-05, 5.6500000000000005E-05
DataValue, 5.75E-05, -5.6525289E-07, 0.024853626266122003, 5.75E-05, 5.75E-05
DataValue, 5.8500000000000006E-05, -5.18743434E-07, 0.025001553818583003, 5.8500000000000006E-05, 5.8500000000000006E-05
DataValue, 5.95E-05, -5.2879391900000009E-07, 0.024906458333135, 5.95E-05, 5.95E-05
DataValue, 6.0500000000000007E-05, -5.3614115800000005E-07, 0.024966333061457003, 6.0500000000000007E-05, 6.0500000000000007E-05
DataValue, 6.15E-05, -5.59291948E-07, 0.024790229275823, 6.15E-05, 6.15E-05
DataValue, 6.25E-05, -5.4764723200000008E-07, 0.024839539080858, 6.25E-05, 6.25E-05
DataValue, 6.35E-05, -5.4487469500000007E-07, 0.025050861760974003, 6.35E-05, 6.35E-05
DataValue, 6.4500000000000009E-05, -5.7890770200000007E-07, 0.024850104004145, 6.4500000000000009E-05, 6.4500000000000009E-05
DataValue, 6.55E-05, -5.1728784500000007E-07, 0.024779664352536, 6.55E-05, 6.55E-05
DataValue, 6.65E-05, -5.73293278E-07, 0.024793751537800002, 6.65E-05, 6.65E-05
DataValue, 6.75E-05, -5.44181546E-07, 0.024888847023249002, 6.75E-05, 6.75E-05
DataValue, 6.85E-05, -5.0515791400000006E-07, 0.024836016818881004, 6.85E-05, 6.85E-05
DataValue, 6.9500000000000009E-05, -5.40854501E-07, 0.024959288537502, 6.9500000000000009E-05, 6.9500000000000009E-05
DataValue, 7.05E-05, -5.41062434E-07, 0.024790229275823, 7.05E-05, 7.05E-05
DataValue, 7.15E-05, -5.4140900800000008E-07, 0.024726832285523002, 7.15E-05, 7.15E-05
DataValue, 7.25E-05, -5.22347705E-07, 0.024681046605110002, 7.25E-05, 7.25E-05
DataValue, 7.3500000000000011E-05, -5.93117022E-07, 0.024726832285523002, 7.3500000000000011E-05, 7.3500000000000011E-05
DataValue, 7.4500000000000008E-05, -4.21288348E-07, 0.025079039856791004, 7.4500000000000008E-05, 7.4500000000000008E-05
DataValue, 7.55E-05, -5.1451525000000006E-07, 0.024705700576305, 7.55E-05, 7.55E-05
DataValue, 7.65E-05, -6.35398351E-07, 0.024941679090261, 7.65E-05, 7.65E-05
DataValue, 7.75E-05, -5.03286458E-07, 0.024906458333135, 7.75E-05, 7.75E-05
DataValue, 7.8500000000000011E-05, -5.33923128E-07, 0.024983942508698002, 7.8500000000000011E-05, 7.8500000000000011E-05
DataValue, 7.9500000000000008E-05, -5.3856712200000008E-07, 0.024846583604813, 7.9500000000000008E-05, 7.9500000000000008E-05
DataValue, 8.05E-05, -5.2692240600000005E-07, 0.024807840585709003, 8.05E-05, 8.05E-05
DataValue, 8.15E-05, -5.57905651E-07, 0.024938156828284003, 8.15E-05, 8.15E-05
DataValue, 8.25E-05, -5.3517078400000008E-07, 0.024976899847388, 8.25E-05, 8.25E-05
DataValue, 8.350000000000001E-05, -5.7114454E-07, 0.024540163576603, 8.350000000000001E-05, 8.350000000000001E-05
DataValue, 8.4500000000000008E-05, -5.5409339000000008E-07, 0.024994509294629003, 8.4500000000000008E-05, 8.4500000000000008E-05
DataValue, 8.55E-05, -5.0134565300000009E-07, 0.024832494556904002, 8.55E-05, 8.55E-05
DataValue, 8.65E-05, -5.93324955E-07, 0.024843061342835003, 8.65E-05, 8.65E-05
DataValue, 8.75E-05, -4.4527089900000005E-07, 0.024702178314328003, 8.75E-05, 8.75E-05
DataValue, 8.850000000000001E-05, -6.1294071000000007E-07, 0.025079039856791004, 8.850000000000001E-05, 8.850000000000001E-05
DataValue, 8.9500000000000007E-05, -5.33645846E-07, 0.025114258751273003, 8.9500000000000007E-05, 8.9500000000000007E-05
DataValue, 9.05E-05, -5.55341046E-07, 0.025047339498997002, 9.05E-05, 9.05E-05
DataValue, 9.15E-05, -5.52984375E-07, 0.025107216089964003, 9.15E-05, 9.15E-05
DataValue, 9.2500000000000012E-05, -5.2311014500000008E-07, 0.025184700265527, 9.2500000000000012E-05, 9.2500000000000012E-05
DataValue, 9.3500000000000009E-05, -5.56450061E-07, 0.025057906284928003, 9.3500000000000009E-05, 9.3500000000000009E-05
DataValue, 9.45E-05, -5.28031421E-07, 0.025012120604515003, 9.45E-05, 9.45E-05
DataValue, 9.55E-05, -5.2609067300000008E-07, 0.025131870061159002, 9.55E-05, 9.55E-05
DataValue, 9.65E-05, -5.54994472E-07, 0.025297407060862, 9.65E-05, 9.65E-05
DataValue, 9.7500000000000012E-05, -5.5672728600000009E-07, 0.02493111230433, 9.7500000000000012E-05, 9.7500000000000012E-05
DataValue, 9.8500000000000009E-05, -5.6053954700000007E-07, 0.024814885109663003, 9.8500000000000009E-05, 9.8500000000000009E-05
DataValue, 9.95E-05, -5.52221934E-07, 0.025216398760676002, 9.95E-05, 9.95E-05
DataValue, 0.0001005, -7.00553244E-07, 0.028558837249875003, 0.0001005, 0.0001005
DataValue, 0.0001015, -7.06791468E-07, 0.035599444061518, 0.0001015, 0.0001015
DataValue, 0.00010250000000000001, -7.31051273E-07, 0.043333895504475, 0.00010250000000000001, 0.00010250000000000001
DataValue, 0.00010350000000000001, -7.28902535E-07, 0.050737272948027004, 0.00010350000000000001, 0.00010350000000000001
DataValue, 0.0001045, -7.539247800000001E-07, 0.058359015733004005, 0.0001045, 0.0001045
DataValue, 0.0001055, -7.510136020000001E-07, 0.066107556223869, 0.0001055, 0.0001055
DataValue, 0.0001065, -7.6404455700000007E-07, 0.073271431028843009, 0.0001065, 0.0001065
DataValue, 0.00010750000000000001, -6.6853027600000007E-07, 0.081034064292908, 0.00010750000000000001, 0.00010750000000000001
DataValue, 0.00010850000000000001, -7.6730231100000007E-07, 0.08831416815519301, 0.00010850000000000001, 0.00010850000000000001
DataValue, 0.0001095, -7.6147995300000005E-07, 0.09564357995986901, 0.0001095, 0.0001095
DataValue, 0.0001105, -7.106730210000001E-07, 0.10315261781215701, 0.0001105, 0.0001105
DataValue, 0.00011150000000000001, -7.74164391E-07, 0.11065461486578002, 0.00011150000000000001, 0.00011150000000000001
DataValue, 0.00011250000000000001, -7.3063535000000006E-07, 0.118276357650757, 0.00011250000000000001, 0.00011250000000000001
DataValue, 0.00011350000000000001, -6.8128400700000005E-07, 0.12559521198272702, 0.00011350000000000001, 0.00011350000000000001
DataValue, 0.0001145, -8.0348405600000009E-07, 0.132963359355927, 0.0001145, 0.0001145
DataValue, 0.0001155, -7.46230967E-07, 0.14044423401355702, 0.0001155, 0.0001155
DataValue, 0.00011650000000000001, -7.2599135600000011E-07, 0.147868737578392, 0.00011650000000000001, 0.00011650000000000001
DataValue, 0.00011750000000000001, -7.2169388E-07, 0.15542356669902802, 0.00011750000000000001, 0.00011750000000000001
DataValue, 0.00011850000000000001, -7.50459094E-07, 0.16267196834087402, 0.00011850000000000001, 0.00011850000000000001
DataValue, 0.0001195, -6.7809560300000005E-07, 0.17038176953792603, 0.0001195, 0.0001195
DataValue, 0.0001205, -8.1200966E-07, 0.177633687853813, 0.0001205, 0.0001205
DataValue, 0.00012150000000000001, -7.6404455700000007E-07, 0.18493141233921, 0.00012150000000000001, 0.00012150000000000001
DataValue, 0.0001225, -7.71946304E-07, 0.192341834306717, 0.0001225, 0.0001225
DataValue, 0.00012350000000000002, -7.67995459E-07, 0.19997061789035803, 0.00012350000000000002, 0.00012350000000000002
DataValue, 0.00012450000000000002, -7.2668450500000008E-07, 0.207976266741753, 0.00012450000000000002, 0.00012450000000000002
DataValue, 0.00012550000000000002, -7.1497049700000006E-07, 0.21514366567134902, 0.00012550000000000002, 0.00012550000000000002
DataValue, 0.0001265, -8.1658436100000007E-07, 0.22257170081138603, 0.0001265, 0.0001265
DataValue, 0.0001275, -7.50251161E-07, 0.23078516125679002, 0.0001275, 0.0001275
DataValue, 0.0001285, -7.973151240000001E-07, 0.23844917118549303, 0.0001285, 0.0001285
DataValue, 0.0001295, -7.3590320000000009E-07, 0.24595116078853602, 0.0001295, 0.0001295
DataValue, 0.0001305, -7.7991740000000006E-07, 0.253428488969803, 0.0001305, 0.0001305
DataValue, 0.0001315, -7.69035125E-07, 0.26121577620506303, 0.0001315, 0.0001315
DataValue, 0.0001325, -7.9551296E-07, 0.268700152635574, 0.0001325, 0.0001325
DataValue, 0.00013350000000000002, -7.5316234E-07, 0.27634656429290805, 0.00013350000000000002, 0.00013350000000000002
DataValue, 0.00013450000000000002, -7.25714074E-07, 0.28378868103027305, 0.00013450000000000002, 0.00013450000000000002
DataValue, 0.00013550000000000001, -7.5371684700000011E-07, 0.291202634572983, 0.00013550000000000001, 0.00013550000000000001
DataValue, 0.0001365, -7.19059983E-07, 0.298827886581421, 0.0001365, 0.0001365
DataValue, 0.0001375, -8.07850824E-07, 0.306287616491318, 0.0001375, 0.0001375
DataValue, 0.0001385, -7.35071467E-07, 0.313553631305695, 0.0001385, 0.0001385
DataValue, 0.0001395, -7.8837365400000008E-07, 0.32070696353912304, 0.0001395, 0.0001395
DataValue, 0.0001405, -7.9225526400000005E-07, 0.32837802171707103, 0.0001405, 0.0001405
DataValue, 0.0001415, -6.921662820000001E-07, 0.33556655049324, 0.0001415, 0.0001415
DataValue, 0.00014250000000000002, -7.81165056E-07, 0.34292766451835605, 0.00014250000000000002, 0.00014250000000000002
DataValue, 0.00014350000000000002, -8.4694374900000009E-07, 0.35054588317871105, 0.00014350000000000002, 0.00014350000000000002
DataValue, 0.00014450000000000002, -7.62519676E-07, 0.358044356107712, 0.00014450000000000002, 0.00014450000000000002
DataValue, 0.0001455, -8.6260865800000007E-07, 0.36528217792511003, 0.0001455, 0.0001455
DataValue, 0.0001465, -7.59331215E-07, 0.372752487659454, 0.0001465, 0.0001465
DataValue, 0.0001475, -7.7333260200000007E-07, 0.38026154041290305, 0.0001475, 0.0001475
DataValue, 0.0001485, -7.98978647E-07, 0.38767546415329, 0.0001485, 0.0001485
DataValue, 0.0001495, -7.509442530000001E-07, 0.39526551961898804, 0.0001495, 0.0001495
DataValue, 0.0001505, -7.92879064E-07, 0.40316551923751803, 0.0001505, 0.0001505
DataValue, 0.0001515, -7.8768056300000011E-07, 0.41037166118621804, 0.0001515, 0.0001515
DataValue, 0.00015250000000000002, -7.47270633E-07, 0.41778206825256303, 0.00015250000000000002, 0.00015250000000000002
DataValue, 0.00015350000000000002, -7.7298602700000008E-07, 0.42544960975647006, 0.00015350000000000002, 0.00015350000000000002
DataValue, 0.00015450000000000002, -8.4403257000000008E-07, 0.43302556872367903, 0.00015450000000000002, 0.00015450000000000002
DataValue, 0.0001555, -7.7513476500000011E-07, 0.44066140055656405, 0.0001555, 0.0001555
DataValue, 0.0001565, -8.022364E-07, 0.448304265737534, 0.0001565, 0.0001565
DataValue, 0.0001575, -7.5718253400000009E-07, 0.45588728785514804, 0.0001575, 0.0001575
DataValue, 0.0001585, -8.0008766200000011E-07, 0.46345266699791005, 0.0001585, 0.0001585
DataValue, 0.0001595, -7.31883006E-07, 0.470630615949631, 0.0001595, 0.0001595
DataValue, 0.0001605, -8.2455540000000012E-07, 0.478424966335297, 0.0001605, 0.0001605
DataValue, 0.00016150000000000002, -7.6993620700000008E-07, 0.485789597034454, 0.00016150000000000002, 0.00016150000000000002
DataValue, 0.00016250000000000002, -7.805412E-07, 0.493400782346725, 0.00016250000000000002, 0.00016250000000000002
DataValue, 0.00016350000000000002, -8.51241168E-07, 0.500737249851227, 0.00016350000000000002, 0.00016350000000000002
DataValue, 0.00016450000000000001, -7.96414042E-07, 0.508080720901489, 0.00016450000000000001, 0.00016450000000000001
DataValue, 0.0001655, -7.4172555700000009E-07, 0.515505254268646, 0.0001655, 0.0001655
DataValue, 0.0001665, -7.65846721E-07, 0.52279239892959606, 0.0001665, 0.0001665
DataValue, 0.0001675, -7.880270800000001E-07, 0.53018522262573209, 0.0001675, 0.0001675
DataValue, 0.0001685, -7.9994907800000011E-07, 0.537799894809723, 0.0001685, 0.0001685
DataValue, 0.0001695, -8.3460588500000009E-07, 0.54533362388610807, 0.0001695, 0.0001695
DataValue, 0.0001705, -7.786004520000001E-07, 0.5525432825088501, 0.0001705, 0.0001705
DataValue, 0.00017150000000000002, -7.8511590100000009E-07, 0.56023192405700706, 0.00017150000000000002, 0.00017150000000000002
DataValue, 0.00017250000000000002, -8.4430979500000007E-07, 0.56760007143020608, 0.00017250000000000002, 0.00017250000000000002
DataValue, 0.00017350000000000002, -7.3264544700000009E-07, 0.57524293661117509, 0.00017350000000000002, 0.00017350000000000002
DataValue, 0.0001745, -7.93502863E-07, 0.582829475402832, 0.0001745, 0.0001745
DataValue, 0.0001755, -8.0895984E-07, 0.590162396430969, 0.0001755, 0.0001755
DataValue, 0.0001765, -8.0286025600000011E-07, 0.59757637977600109, 0.0001765, 0.0001765
DataValue, 0.0001775, -8.04870353E-07, 0.60506427288055409, 0.0001775, 0.0001775
DataValue, 0.0001785, -7.96206109E-07, 0.612745881080627, 0.0001785, 0.0001785
DataValue, 0.0001795, -8.371704890000001E-07, 0.6203781962394711, 0.0001795, 0.0001795
DataValue, 0.00018050000000000002, -7.2370397700000008E-07, 0.627781569957733, 0.00018050000000000002, 0.00018050000000000002
DataValue, 0.00018150000000000002, -8.60667853E-07, 0.63577663898468006, 0.00018150000000000002, 0.00018150000000000002
DataValue, 0.00018250000000000002, -7.9384943800000011E-07, 0.64356392621994007, 0.00018250000000000002, 0.00018250000000000002
DataValue, 0.00018350000000000002, -7.7312466800000008E-07, 0.65089333057403609, 0.00018350000000000002, 0.00018350000000000002
DataValue, 0.0001845, -8.0119667700000007E-07, 0.65857851505279508, 0.0001845, 0.0001845
DataValue, 0.0001855, -8.1083129500000005E-07, 0.66596072912216209, 0.0001855, 0.0001855
