
SetupTitle, FE PUND 3V - reverse
ApplicationTest, WGFMU Pattern Editor, Public
TestParameter, Name, ExecutionMode, Enable1, Channel1, OperationMode1, VForceRange1, InitMeasRange1, Enable2, Channel2, OperationMode2, VForceRange2, InitMeasRange2, RepeatCount, WaveformCh1, WaveformCh2, MeasurementEvent, Output_to_File_for_PatternValidation, Output_Enable, Output_Filename, DataDisplay_for_RunVector, DataDisplay_PatternValidation, DataDisplay_Mode, LogToFile, LogFile, WarningLevel, IForceRange1, IForceRange2, Result_Update_Interval_s
TestParameter, Value, Run Vector, Enable, WGFMU1:RS	RSWGFMU, Fast IV Imeas, Auto, 100uA (Imeas), Enable, WGFMU2:RS	RSWGFMU, PG Vmeas, Auto, 5V (Vmeas), 1, , Disable, C:\WGFMUPatternEditor_Pattern.csv, , Disable, x(time)_y(meas), Disable, C:\WGFMUPatternEditor_Log.log, 2, 10mA, 10mA, 10
MetaData, TestRecord.EntryPoint, true
MetaData, TestRecord.RecordTime, 11/19/2021 11:04:46
MetaData, TestRecord.TestTarget, FlashNumC_2_25um_E7
MetaData, TestRecord.IterationIndex, 2
MetaData, TestRecord.Preservation, true
MetaData, TestRecord.Flag, 
MetaData, TestRecord.Remarks, 
MetaData, TestRecord.LinkKey, f6125d7b-a6a7-473a-8964-8c716bca33ac
MetaData, TestRecord.Parameters, 
Dimension1, 5000, 5000, 5000, 5000, 5000
Dimension2, 1, 1, 1, 1, 1
DataName, Time, MeasResult1_value, MeasResult2_value, MeasResult1_time, MeasResult2_time
DataValue, 5.0000000000000008E-07, -5.3912162900000006E-07, 0.024212611839175002, 5.0000000000000008E-07, 5.0000000000000008E-07
DataValue, 1.5E-06, -5.0848495900000005E-07, 0.024244310334325003, 1.5E-06, 1.5E-06
DataValue, 2.5E-06, -4.94344988E-07, 0.02423726581037, 2.5E-06, 2.5E-06
DataValue, 3.5000000000000004E-06, -4.03266796E-07, 0.024138648062944003, 3.5000000000000004E-06, 3.5000000000000004E-06
DataValue, 4.5E-06, -6.3726980700000008E-07, 0.024388713762164, 4.5E-06, 4.5E-06
DataValue, 5.5000000000000007E-06, -5.4764723200000008E-07, 0.024508465081453, 5.5000000000000007E-06, 5.5000000000000007E-06
DataValue, 6.5000000000000004E-06, -4.58787071E-07, 0.024043552577496, 6.5000000000000004E-06, 6.5000000000000004E-06
DataValue, 7.5E-06, -5.57974943E-07, 0.024554250761867003, 7.5E-06, 7.5E-06
DataValue, 8.5E-06, -4.6918413E-07, 0.024462677538395, 8.5E-06, 8.5E-06
DataValue, 9.5E-06, -5.50003904E-07, 0.024177391082048003, 9.5E-06, 9.5E-06
DataValue, 1.0500000000000001E-05, -5.0203880200000006E-07, 0.024487331509590003, 1.0500000000000001E-05, 1.0500000000000001E-05
DataValue, 1.15E-05, -5.7925427700000006E-07, 0.024335883557796003, 1.15E-05, 1.15E-05
DataValue, 1.25E-05, -5.36349091E-07, 0.024314751848578002, 1.25E-05, 1.25E-05
DataValue, 1.3500000000000001E-05, -5.6220307E-07, 0.024360537528992, 1.3500000000000001E-05, 1.3500000000000001E-05
DataValue, 1.45E-05, -5.76343098E-07, 0.024268964305520002, 1.45E-05, 1.45E-05
DataValue, 1.55E-05, -4.91780384E-07, 0.024533119052649002, 1.55E-05, 1.55E-05
DataValue, 1.65E-05, -5.6989694000000006E-07, 0.024740921333432003, 1.65E-05, 1.65E-05
DataValue, 1.7500000000000002E-05, -5.70936606E-07, 0.024666957557201, 1.7500000000000002E-05, 1.7500000000000002E-05
DataValue, 1.8500000000000002E-05, -5.98315523E-07, 0.024592993780971004, 1.8500000000000002E-05, 1.8500000000000002E-05
DataValue, 1.95E-05, -4.82145765E-07, 0.024793751537800002, 1.95E-05, 1.95E-05
DataValue, 2.05E-05, -5.6296556700000008E-07, 0.024709222838283, 2.05E-05, 2.05E-05
DataValue, 2.15E-05, -5.2671447300000006E-07, 0.024769097566605003, 2.15E-05, 2.15E-05
DataValue, 2.25E-05, -5.2955636000000007E-07, 0.024607082828879002, 2.25E-05, 2.25E-05
DataValue, 2.3500000000000002E-05, -5.54786538E-07, 0.024621170014143, 2.3500000000000002E-05, 2.3500000000000002E-05
DataValue, 2.4500000000000003E-05, -6.5861843300000009E-07, 0.024571862071753003, 2.4500000000000003E-05, 2.4500000000000003E-05
DataValue, 2.5500000000000003E-05, -4.44439138E-07, 0.024864193052053, 2.5500000000000003E-05, 2.5500000000000003E-05
DataValue, 2.65E-05, -5.9131485800000007E-07, 0.024983942508698002, 2.65E-05, 2.65E-05
DataValue, 2.75E-05, -4.49291093E-07, 0.024818405508995, 2.75E-05, 2.75E-05
DataValue, 2.85E-05, -5.1382215800000008E-07, 0.024772619828582, 2.85E-05, 2.85E-05
DataValue, 2.9500000000000002E-05, -4.93513255E-07, 0.024807840585709003, 2.9500000000000002E-05, 2.9500000000000002E-05
DataValue, 3.0500000000000003E-05, -5.4459741200000008E-07, 0.024948721751571003, 3.0500000000000003E-05, 3.0500000000000003E-05
DataValue, 3.15E-05, -5.9055241800000009E-07, 0.024836016818881004, 3.15E-05, 3.15E-05
DataValue, 3.2500000000000004E-05, -4.7299636200000005E-07, 0.024684567004442003, 3.2500000000000004E-05, 3.2500000000000004E-05
DataValue, 3.35E-05, -4.88176056E-07, 0.024779664352536, 3.35E-05, 3.35E-05
DataValue, 3.4500000000000005E-05, -5.57836358E-07, 0.024983942508698002, 3.4500000000000005E-05, 3.4500000000000005E-05
DataValue, 3.55E-05, -5.31566457E-07, 0.024702178314328003, 3.55E-05, 3.55E-05
DataValue, 3.65E-05, -5.1971380800000009E-07, 0.025043819099665, 3.65E-05, 3.65E-05
DataValue, 3.7500000000000003E-05, -4.8318548800000007E-07, 0.025079039856791004, 3.7500000000000003E-05, 3.7500000000000003E-05
DataValue, 3.85E-05, -5.7585788200000007E-07, 0.024906458333135, 3.85E-05, 3.85E-05
DataValue, 3.9500000000000005E-05, -5.1742642900000006E-07, 0.024934634566307002, 3.9500000000000005E-05, 3.9500000000000005E-05
DataValue, 4.05E-05, -5.8237338900000006E-07, 0.024751486256719003, 4.05E-05, 4.05E-05
DataValue, 4.1500000000000006E-05, -5.10217831E-07, 0.024828972294927, 4.1500000000000006E-05, 4.1500000000000006E-05
DataValue, 4.25E-05, -5.5346959000000009E-07, 0.024860670790076003, 4.25E-05, 4.25E-05
DataValue, 4.35E-05, -5.34338994E-07, 0.025008598342538, 4.35E-05, 4.35E-05
DataValue, 4.4500000000000004E-05, -6.5043940400000005E-07, 0.024878282099962002, 4.4500000000000004E-05, 4.4500000000000004E-05
DataValue, 4.55E-05, -4.9261217300000006E-07, 0.024945201352239002, 4.55E-05, 4.55E-05
DataValue, 4.6500000000000005E-05, -5.3191303100000009E-07, 0.024674002081156002, 4.6500000000000005E-05, 4.6500000000000005E-05
DataValue, 4.75E-05, -5.62272419E-07, 0.024786707013845003, 4.75E-05, 4.75E-05
DataValue, 4.85E-05, -4.27734534E-07, 0.024790229275823, 4.85E-05, 4.85E-05
DataValue, 4.9500000000000004E-05, -6.4392395400000006E-07, 0.025054384022951, 4.9500000000000004E-05, 4.9500000000000004E-05
DataValue, 5.05E-05, -4.6571844300000003E-07, 0.025054384022951, 5.05E-05, 5.05E-05
DataValue, 5.1500000000000005E-05, -5.6338143400000007E-07, 0.024857148528099, 5.1500000000000005E-05, 5.1500000000000005E-05
DataValue, 5.25E-05, -5.3267547200000007E-07, 0.024973377585411002, 5.25E-05, 5.25E-05
DataValue, 5.3500000000000006E-05, -5.24635084E-07, 0.025089604780078004, 5.3500000000000006E-05, 5.3500000000000006E-05
DataValue, 5.45E-05, -5.52776442E-07, 0.024776142090559002, 5.45E-05, 5.45E-05
DataValue, 5.55E-05, -4.88383989E-07, 0.024832494556904002, 5.55E-05, 5.55E-05
DataValue, 5.6500000000000005E-05, -5.53123016E-07, 0.024610605090857003, 5.6500000000000005E-05, 5.6500000000000005E-05
DataValue, 5.75E-05, -5.31635749E-07, 0.024913502857089, 5.75E-05, 5.75E-05
DataValue, 5.8500000000000006E-05, -5.67609561E-07, 0.024592993780971004, 5.8500000000000006E-05, 5.8500000000000006E-05
DataValue, 5.95E-05, -5.24843017E-07, 0.024779664352536, 5.95E-05, 5.95E-05
DataValue, 6.0500000000000007E-05, -4.97325459E-07, 0.024902936071157, 6.0500000000000007E-05, 6.0500000000000007E-05
DataValue, 6.15E-05, -5.4182487500000007E-07, 0.024938156828284003, 6.15E-05, 6.15E-05
DataValue, 6.25E-05, -5.00444571E-07, 0.024853626266122003, 6.25E-05, 6.25E-05
DataValue, 6.35E-05, -6.16822263E-07, 0.024677524343133, 6.35E-05, 6.35E-05
DataValue, 6.4500000000000009E-05, -4.7050107800000003E-07, 0.024487331509590003, 6.4500000000000009E-05, 6.4500000000000009E-05
DataValue, 6.55E-05, -4.9566193600000007E-07, 0.024744443595409, 6.55E-05, 6.55E-05
DataValue, 6.65E-05, -5.7911563500000006E-07, 0.024702178314328003, 6.65E-05, 6.65E-05
DataValue, 6.75E-05, -5.1472324E-07, 0.024871237576008003, 6.75E-05, 6.75E-05
DataValue, 6.85E-05, -4.93374614E-07, 0.025050861760974003, 6.85E-05, 6.85E-05
DataValue, 6.9500000000000009E-05, -3.87463274E-07, 0.024850104004145, 6.9500000000000009E-05, 6.9500000000000009E-05
DataValue, 7.05E-05, -6.2874426E-07, 0.025043819099665, 7.05E-05, 7.05E-05
DataValue, 7.15E-05, -5.4438947900000009E-07, 0.025160046294332, 7.15E-05, 7.15E-05
DataValue, 7.25E-05, -5.8743330600000009E-07, 0.024885324761271, 7.25E-05, 7.25E-05
DataValue, 7.3500000000000011E-05, -5.64282516E-07, 0.025156524032354, 7.3500000000000011E-05, 7.3500000000000011E-05
DataValue, 7.4500000000000008E-05, -5.25258883E-07, 0.025339672341943002, 7.4500000000000008E-05, 7.4500000000000008E-05
DataValue, 7.55E-05, -4.35566989E-07, 0.024955766275525003, 7.55E-05, 7.55E-05
DataValue, 7.65E-05, -4.97672033E-07, 0.024751486256719003, 7.65E-05, 7.65E-05
DataValue, 7.75E-05, -5.3891369600000007E-07, 0.025170613080263003, 7.75E-05, 7.75E-05
DataValue, 7.8500000000000011E-05, -5.0848495900000005E-07, 0.025079039856791004, 7.8500000000000011E-05, 7.8500000000000011E-05
DataValue, 7.9500000000000008E-05, -5.8479935200000008E-07, 0.025005076080561003, 7.9500000000000008E-05, 7.9500000000000008E-05
DataValue, 8.05E-05, -5.2969500100000006E-07, 0.024828972294927, 8.05E-05, 8.05E-05
DataValue, 8.15E-05, -6.0614797800000009E-07, 0.024726832285523002, 8.15E-05, 8.15E-05
DataValue, 8.25E-05, -5.1992174100000008E-07, 0.024592993780971004, 8.25E-05, 8.25E-05
DataValue, 8.350000000000001E-05, -5.6282692600000009E-07, 0.024755008518696, 8.350000000000001E-05, 8.350000000000001E-05
DataValue, 8.4500000000000008E-05, -5.2962565200000007E-07, 0.024814885109663003, 8.4500000000000008E-05, 8.4500000000000008E-05
DataValue, 8.55E-05, -5.24843017E-07, 0.024786707013845003, 8.55E-05, 8.55E-05
DataValue, 8.65E-05, -5.6996623200000006E-07, 0.025269230827689, 8.65E-05, 8.65E-05
DataValue, 8.75E-05, -5.5437067200000006E-07, 0.025033252313733, 8.75E-05, 8.75E-05
DataValue, 8.850000000000001E-05, -4.9822654100000009E-07, 0.024747965857387002, 8.850000000000001E-05, 8.850000000000001E-05
DataValue, 8.9500000000000007E-05, -5.80086009E-07, 0.024681046605110002, 8.9500000000000007E-05, 8.9500000000000007E-05
DataValue, 9.05E-05, -5.4210210000000006E-07, 0.024793751537800002, 9.05E-05, 9.05E-05
DataValue, 9.15E-05, -5.2872457E-07, 0.024441545829177003, 9.15E-05, 9.15E-05
DataValue, 9.2500000000000012E-05, -5.5132085200000006E-07, 0.024716265499592, 9.2500000000000012E-05, 9.2500000000000012E-05
DataValue, 9.3500000000000009E-05, -5.4140900800000008E-07, 0.024698656052351, 9.3500000000000009E-05, 9.3500000000000009E-05
DataValue, 9.45E-05, -4.78333504E-07, 0.024621170014143, 9.45E-05, 9.45E-05
DataValue, 9.55E-05, -5.22555638E-07, 0.024843061342835003, 9.55E-05, 9.55E-05
DataValue, 9.65E-05, -5.02593309E-07, 0.024878282099962002, 9.65E-05, 9.65E-05
DataValue, 9.7500000000000012E-05, -5.21100048E-07, 0.024740921333432003, 9.7500000000000012E-05, 9.7500000000000012E-05
DataValue, 9.8500000000000009E-05, -5.43488397E-07, 0.024737399071455002, 9.8500000000000009E-05, 9.8500000000000009E-05
DataValue, 9.95E-05, -5.0737594400000009E-07, 0.024652868509293, 9.95E-05, 9.95E-05
DataValue, 0.0001005, -6.428842310000001E-07, 0.028030527755618, 0.0001005, 0.0001005
DataValue, 0.0001015, -6.9563196800000009E-07, 0.035740323364735004, 0.0001015, 0.0001015
DataValue, 0.00010250000000000001, -7.4789448900000009E-07, 0.043291628360748007, 0.00010250000000000001, 0.00010250000000000001
DataValue, 0.00010350000000000001, -6.11900987E-07, 0.050839409232140004, 0.00010350000000000001, 0.00010350000000000001
DataValue, 0.0001045, -7.137921330000001E-07, 0.058218132704496, 0.0001045, 0.0001045
DataValue, 0.0001055, -6.9549332700000009E-07, 0.065515846014023008, 0.0001055, 0.0001055
DataValue, 0.0001065, -6.9951352100000006E-07, 0.073186904191971, 0.0001065, 0.0001065
DataValue, 0.00010750000000000001, -6.72619819E-07, 0.080607891082764, 0.00010750000000000001, 0.00010750000000000001
DataValue, 0.00010850000000000001, -7.18505476E-07, 0.088338822126389008, 0.00010850000000000001, 0.00010850000000000001
DataValue, 0.0001095, -7.261992890000001E-07, 0.095640055835247012, 0.0001095, 0.0001095
DataValue, 0.0001105, -7.2439712500000005E-07, 0.10283915698528301, 0.0001105, 0.0001105
DataValue, 0.00011150000000000001, -7.322295800000001E-07, 0.11049964278936401, 0.00011150000000000001, 0.00011150000000000001
DataValue, 0.00011250000000000001, -6.9244350700000009E-07, 0.11791006475687, 0.00011250000000000001, 0.00011250000000000001
DataValue, 0.00011350000000000001, -7.37636071E-07, 0.125250041484833, 0.00011350000000000001, 0.00011350000000000001
DataValue, 0.0001145, -7.4803313100000009E-07, 0.132614687085152, 0.0001145, 0.0001145
DataValue, 0.0001155, -6.7927391E-07, 0.140296295285225, 0.0001155, 0.0001155
DataValue, 0.00011650000000000001, -7.37982646E-07, 0.147861689329147, 0.00011650000000000001, 0.00011650000000000001
DataValue, 0.00011750000000000001, -7.0887085700000006E-07, 0.155117139220238, 0.00011750000000000001, 0.00011750000000000001
DataValue, 0.00011850000000000001, -6.79689776E-07, 0.16298896074295002, 0.00011850000000000001, 0.00011850000000000001
DataValue, 0.0001195, -6.8710636500000007E-07, 0.17016692459583302, 0.0001195, 0.0001195
DataValue, 0.0001205, -7.3160578E-07, 0.177415326237678, 0.0001205, 0.0001205
DataValue, 0.00012150000000000001, -6.94730886E-07, 0.18481869995594003, 0.00012150000000000001, 0.00012150000000000001
DataValue, 0.0001225, -7.3964616800000006E-07, 0.192648246884346, 0.0001225, 0.0001225
DataValue, 0.00012350000000000002, -7.4581504400000007E-07, 0.20025591552257502, 0.00012350000000000002, 0.00012350000000000002
DataValue, 0.00012450000000000002, -8.11524444E-07, 0.207673370838165, 0.00012450000000000002, 0.00012450000000000002
DataValue, 0.00012550000000000002, -6.47805507E-07, 0.21516127884388, 0.00012550000000000002, 0.00012550000000000002
DataValue, 0.0001265, -7.43597013E-07, 0.22267031669616702, 0.0001265, 0.0001265
DataValue, 0.0001275, -7.5773704100000007E-07, 0.23097182810306502, 0.0001275, 0.0001275
DataValue, 0.0001285, -7.46577541E-07, 0.23843859136104603, 0.0001285, 0.0001285
DataValue, 0.0001295, -7.34170385E-07, 0.24607090651989003, 0.0001295, 0.0001295
DataValue, 0.0001305, -7.662625880000001E-07, 0.25332283973693803, 0.0001305, 0.0001305
DataValue, 0.0001315, -6.6222276000000007E-07, 0.261029124259949, 0.0001315, 0.0001315
DataValue, 0.0001325, -7.849079680000001E-07, 0.268450111150742, 0.0001325, 0.0001325
DataValue, 0.00013350000000000002, -7.632821170000001E-07, 0.27592390775680503, 0.00013350000000000002, 0.00013350000000000002
DataValue, 0.00013450000000000002, -6.9237421500000009E-07, 0.283432960510254, 0.00013450000000000002, 0.00013450000000000002
DataValue, 0.00013550000000000001, -7.3604184100000008E-07, 0.29094198346138, 0.00013550000000000001, 0.00013550000000000001
DataValue, 0.0001365, -6.17861986E-07, 0.29813757538795504, 0.0001365, 0.0001365
DataValue, 0.0001375, -7.693817000000001E-07, 0.305653661489487, 0.0001375, 0.0001375
DataValue, 0.0001385, -8.30169824E-07, 0.313018292188644, 0.0001385, 0.0001385
DataValue, 0.0001395, -7.510136020000001E-07, 0.320499151945114, 0.0001395, 0.0001395
DataValue, 0.0001405, -6.9556261900000009E-07, 0.32784265279769903, 0.0001405, 0.0001405
DataValue, 0.0001415, -7.19129275E-07, 0.335305899381638, 0.0001415, 0.0001415
DataValue, 0.00014250000000000002, -7.06999401E-07, 0.34273746609687805, 0.00014250000000000002, 0.00014250000000000002
DataValue, 0.00014350000000000002, -7.632821170000001E-07, 0.35019367933273304, 0.00014350000000000002, 0.00014350000000000002
DataValue, 0.00014450000000000002, -7.417948500000001E-07, 0.357632279396057, 0.00014450000000000002, 0.00014450000000000002
DataValue, 0.0001455, -7.39992743E-07, 0.36481729149818404, 0.0001455, 0.0001455
DataValue, 0.0001465, -7.8241271200000007E-07, 0.372424930334091, 0.0001465, 0.0001465
DataValue, 0.0001475, -6.62985201E-07, 0.38019460439682, 0.0001475, 0.0001475
DataValue, 0.0001485, -7.56420036E-07, 0.387615591287613, 0.0001485, 0.0001485
DataValue, 0.0001495, -7.86502198E-07, 0.39503657817840604, 0.0001495, 0.0001495
DataValue, 0.0001505, -7.7360988400000006E-07, 0.40280976891517606, 0.0001505, 0.0001505
DataValue, 0.0001515, -7.8837365400000008E-07, 0.410283595323563, 0.0001515, 0.0001515
DataValue, 0.00015250000000000002, -7.22594962E-07, 0.417704582214355, 0.00015250000000000002, 0.00015250000000000002
DataValue, 0.00015350000000000002, -7.230108850000001E-07, 0.42525589466095004, 0.00015350000000000002, 0.00015350000000000002
DataValue, 0.00015450000000000002, -7.43874295E-07, 0.43305021524429305, 0.00015450000000000002, 0.00015450000000000002
DataValue, 0.0001555, -7.4269593100000006E-07, 0.44050994515419, 0.0001555, 0.0001555
DataValue, 0.0001565, -7.09771939E-07, 0.447969675064087, 0.0001565, 0.0001565
DataValue, 0.0001575, -7.92809772E-07, 0.45534488558769204, 0.0001575, 0.0001575
DataValue, 0.0001585, -7.509442530000001E-07, 0.462945491075516, 0.0001585, 0.0001585
DataValue, 0.0001595, -7.03117848E-07, 0.47051793336868303, 0.0001595, 0.0001595
DataValue, 0.0001605, -7.74233683E-07, 0.47793892025947604, 0.0001605, 0.0001605
DataValue, 0.00016150000000000002, -7.261299970000001E-07, 0.48572620749473605, 0.00016150000000000002, 0.00016150000000000002
DataValue, 0.00016250000000000002, -7.41101758E-07, 0.49305912852287304, 0.00016250000000000002, 0.00016250000000000002
DataValue, 0.00016350000000000002, -7.8151163100000011E-07, 0.50053644180297807, 0.00016350000000000002, 0.00016350000000000002
DataValue, 0.00016450000000000001, -7.80056041E-07, 0.50768274068832409, 0.00016450000000000001, 0.00016450000000000001
DataValue, 0.0001655, -6.73174327E-07, 0.515057921409607, 0.0001655, 0.0001655
DataValue, 0.0001665, -8.0591002E-07, 0.52241200208663907, 0.0001665, 0.0001665
DataValue, 0.0001675, -7.3292272900000008E-07, 0.52987176179885909, 0.0001675, 0.0001675
DataValue, 0.0001685, -7.68480618E-07, 0.53764843940734908, 0.0001685, 0.0001685
DataValue, 0.0001695, -7.83937594E-07, 0.544865190982819, 0.0001695, 0.0001695
DataValue, 0.0001705, -5.4445877100000009E-07, 0.55206423997879006, 0.0001705, 0.0001705
DataValue, 0.00017150000000000002, -8.9345320500000008E-07, 0.559714198112488, 0.00017150000000000002, 0.00017150000000000002
DataValue, 0.00017250000000000002, -7.77976595E-07, 0.56761771440506, 0.00017250000000000002, 0.00017250000000000002
DataValue, 0.00017350000000000002, -7.2744694500000005E-07, 0.57488018274307207, 0.00017350000000000002, 0.00017350000000000002
DataValue, 0.0001745, -8.57202167E-07, 0.582427978515625, 0.0001745, 0.0001745
DataValue, 0.0001755, -6.87799513E-07, 0.589915871620178, 0.0001755, 0.0001755
DataValue, 0.0001765, -8.1547534600000011E-07, 0.597534120082855, 0.0001765, 0.0001765
DataValue, 0.0001775, -6.7428334200000008E-07, 0.605022013187408, 0.0001775, 0.0001775
DataValue, 0.0001785, -7.15525005E-07, 0.612752914428711, 0.0001785, 0.0001785
DataValue, 0.0001795, -8.3696255600000011E-07, 0.61997669935226407, 0.0001795, 0.0001795
DataValue, 0.00018050000000000002, -7.537861390000001E-07, 0.627559661865234, 0.00018050000000000002, 0.00018050000000000002
DataValue, 0.00018150000000000002, -7.37636071E-07, 0.635336399078369, 0.00018150000000000002, 0.00018150000000000002
DataValue, 0.00018250000000000002, -7.5503379500000006E-07, 0.64303916692733809, 0.00018250000000000002, 0.00018250000000000002
DataValue, 0.00018350000000000002, -7.90245167E-07, 0.65047776699066207, 0.00018350000000000002, 0.00018350000000000002
DataValue, 0.0001845, -7.1802026000000006E-07, 0.658191084861755, 0.0001845, 0.0001845
DataValue, 0.0001855, -8.1388111500000005E-07, 0.66578114032745406, 0.0001855, 0.0001855
