
SetupTitle, Break of oxide
PrimitiveTest, I/V Sweep
TestParameter, Context.MainFrame, B1500A
TestParameter, Channel.UnitType, SMU, SMU
TestParameter, Channel.Unit, SMU2:HR/AS, SMU1:HR/AS
TestParameter, Channel.IName, I1, I2
TestParameter, Channel.VName, V1, V2
TestParameter, Channel.Mode, V, V
TestParameter, Channel.Func, VAR1, CONST
TestParameter, Channel.Index, 
TestParameter, Channel.Time, 
TestParameter, Measurement.Port.Unit, SMU2:HR/AS, SMU1:HR/AS
TestParameter, Measurement.Port.SeriesResistor, NONE, NONE
TestParameter, Measurement.Port.Filter, ON, ON
TestParameter, Measurement.Port.OutputVoltageComparison, 0, 0
TestParameter, Measurement.Primary.Locus, Single
TestParameter, Measurement.Primary.Scale, LINEAR
TestParameter, Measurement.Primary.Start, 0
TestParameter, Measurement.Primary.Stop, 10
TestParameter, Measurement.Primary.Step, 0.05
TestParameter, Measurement.Primary.Compliance, 0.1
TestParameter, Measurement.Primary.PowerCompliance, 0
TestParameter, Measurement.Aborting.Condition, CONTINUE AT ANY
TestParameter, Measurement.PostOutput.Value, START
TestParameter, Measurement.PostOutput.Retention, OFF
TestParameter, Measurement.Bias.Source, 0, 0
TestParameter, Measurement.Bias.Compliance, 0.1, 0.1
TestParameter, Measurement.Monitor.Unit, SMU2:HR/AS, SMU1:HR/AS
TestParameter, Measurement.Monitor.Adc, HR ADC, HR ADC
TestParameter, Measurement.Monitor.Measurement, Compliance Side, Compliance Side
TestParameter, Measurement.Monitor.RangingMode, LIMITED, LIMITED
TestParameter, Measurement.Monitor.RangeBoundary, 1nA, 1nA
TestParameter, Measurement.Monitor.RangeRating, BY FULL RANGE, BY FULL RANGE
TestParameter, Measurement.Monitor.RangeRatingCoeff, 50, 50
TestParameter, Measurement.Timing.Hold, 1
TestParameter, Measurement.Timing.Delay, 0
TestParameter, Measurement.Adc.HighSpeed.Mode, AUTO
TestParameter, Measurement.Adc.HighSpeed.Coeff, 1
TestParameter, Measurement.Adc.HighResolution.AutoZero, OFF
TestParameter, Measurement.Adc.HighResolution.Mode, AUTO
TestParameter, Measurement.Adc.HighResolution.Coeff, 6
TestParameter, Measurement.WaitTime.Source.Coeff, 1
TestParameter, Measurement.WaitTime.Source.Offset, 0
TestParameter, Measurement.WaitTime.Monitor.Coeff, 1
TestParameter, Measurement.WaitTime.Monitor.Offset, 0
TestParameter, Function.Analysis.Name, absI
TestParameter, Function.Analysis.Unit, A
TestParameter, Function.Analysis.Definition, abs(I1)
TestParameter, Output.Graph.Enabled, true
TestParameter, Output.Graph.AutoScaling, false
TestParameter, Output.Graph.XAxis.Data, V1
TestParameter, Output.Graph.XAxis.Scale, Linear
TestParameter, Output.Graph.XAxis.Left, 0
TestParameter, Output.Graph.XAxis.Right, 3
TestParameter, Output.Graph.XAxis.RunTimeAutoScale, true
TestParameter, Output.Graph.YAxis.Data, I1, absI
TestParameter, Output.Graph.YAxis.Scale, Linear, Log
TestParameter, Output.Graph.YAxis.Bottom, 0.001, 0
TestParameter, Output.Graph.YAxis.Top, 0.01, 1
TestParameter, Output.Graph.YAxis.Group, , 
TestParameter, Output.Graph.YAxis.RunTimeAutoScale, true, true
TestParameter, AutoAnalysis.Interpolation, false
TestParameter, AutoAnalysis.Var2StepCount, 1
TestParameter, AutoAnalysis.Var2StepScript, 
TestParameter, AutoAnalysis.Line1.Enabled, false
TestParameter, AutoAnalysis.Line1.Type, 1
TestParameter, AutoAnalysis.Line1.Fix, True
TestParameter, AutoAnalysis.Line1.YAxis, 0
TestParameter, AutoAnalysis.Line1.Point1.Type, 0
TestParameter, AutoAnalysis.Line1.Point1.XY.X, 
TestParameter, AutoAnalysis.Line1.Point1.XY.Y, 
TestParameter, AutoAnalysis.Line1.Point1.Data.Var, 
TestParameter, AutoAnalysis.Line1.Point1.Data.Condition, 
TestParameter, AutoAnalysis.Line1.Point1.Data.Start, false
TestParameter, AutoAnalysis.Line1.Point1.Data.StartVar, 
TestParameter, AutoAnalysis.Line1.Point1.Data.StartCondition, 
TestParameter, AutoAnalysis.Line1.Point2.Type, 0
TestParameter, AutoAnalysis.Line1.Point2.XY.X, 
TestParameter, AutoAnalysis.Line1.Point2.XY.Y, 
TestParameter, AutoAnalysis.Line1.Point2.Data.Var, 
TestParameter, AutoAnalysis.Line1.Point2.Data.Condition, 
TestParameter, AutoAnalysis.Line1.Point2.Data.Start, false
TestParameter, AutoAnalysis.Line1.Point2.Data.StartVar, 
TestParameter, AutoAnalysis.Line1.Point2.Data.StartCondition, 
TestParameter, AutoAnalysis.Line1.GradientExpr, 0
TestParameter, AutoAnalysis.Line2.Enabled, false
TestParameter, AutoAnalysis.Line2.Type, 1
TestParameter, AutoAnalysis.Line2.Fix, True
TestParameter, AutoAnalysis.Line2.YAxis, 0
TestParameter, AutoAnalysis.Line2.Point1.Type, 0
TestParameter, AutoAnalysis.Line2.Point1.XY.X, 
TestParameter, AutoAnalysis.Line2.Point1.XY.Y, 
TestParameter, AutoAnalysis.Line2.Point1.Data.Var, 
TestParameter, AutoAnalysis.Line2.Point1.Data.Condition, 
TestParameter, AutoAnalysis.Line2.Point1.Data.Start, false
TestParameter, AutoAnalysis.Line2.Point1.Data.StartVar, 
TestParameter, AutoAnalysis.Line2.Point1.Data.StartCondition, 
TestParameter, AutoAnalysis.Line2.Point2.Type, 0
TestParameter, AutoAnalysis.Line2.Point2.XY.X, 
TestParameter, AutoAnalysis.Line2.Point2.XY.Y, 
TestParameter, AutoAnalysis.Line2.Point2.Data.Var, 
TestParameter, AutoAnalysis.Line2.Point2.Data.Condition, 
TestParameter, AutoAnalysis.Line2.Point2.Data.Start, false
TestParameter, AutoAnalysis.Line2.Point2.Data.StartVar, 
TestParameter, AutoAnalysis.Line2.Point2.Data.StartCondition, 
TestParameter, AutoAnalysis.Line2.GradientExpr, 0
TestParameter, AutoAnalysis.Marker.Enabled, false
TestParameter, AutoAnalysis.Marker.Data.Var, 
TestParameter, AutoAnalysis.Marker.Data.Condition, 
TestParameter, AutoAnalysis.Marker.Data.Start, false
TestParameter, AutoAnalysis.Marker.Data.StartVar, 
TestParameter, AutoAnalysis.Marker.Data.StartCondition, 
MetaData, TestRecord.EntryPoint, true
MetaData, TestRecord.RecordTime, 03/01/2021 14:11:59
MetaData, TestRecord.TestTarget, 
MetaData, TestRecord.IterationIndex, 2
MetaData, TestRecord.Preservation, true
MetaData, TestRecord.Flag, 
MetaData, TestRecord.Remarks, 
MetaData, TestRecord.LinkKey, 2e9a1fc4-841d-4b90-ab88-8dbb4dc5a23d
MetaData, TestRecord.Parameters, 
Dimension1, 201, 201, 201
Dimension2, 1, 1, 1
DataName, V1, I1, absI
DataValue, 0, 1.2248E-10, 1.2248E-10
DataValue, 0.05, 8.5588E-09, 8.5588E-09
DataValue, 0.1, 1.8324899999999998E-08, 1.8324899999999998E-08
DataValue, 0.15, 2.8516399999999997E-08, 2.8516399999999997E-08
DataValue, 0.2, 4.2385999999999993E-08, 4.2385999999999993E-08
DataValue, 0.25, 5.8478899999999992E-08, 5.8478899999999992E-08
DataValue, 0.3, 7.8978199999999992E-08, 7.8978199999999992E-08
DataValue, 0.35000000000000003, 1.0242E-07, 1.0242E-07
DataValue, 0.4, 1.301E-07, 1.301E-07
DataValue, 0.45, 1.6206E-07, 1.6206E-07
DataValue, 0.5, 1.9526E-07, 1.9526E-07
DataValue, 0.55, 2.3406E-07, 2.3406E-07
DataValue, 0.6, 2.746E-07, 2.746E-07
DataValue, 0.65, 3.2939999999999997E-07, 3.2939999999999997E-07
DataValue, 0.70000000000000007, 4.1108E-07, 4.1108E-07
DataValue, 0.75, 4.9494E-07, 4.9494E-07
DataValue, 0.8, 5.7008E-07, 5.7008E-07
DataValue, 0.85, 6.7688E-07, 6.7688E-07
DataValue, 0.9, 7.81E-07, 7.81E-07
DataValue, 0.95000000000000007, 8.9895999999999994E-07, 8.9895999999999994E-07
DataValue, 1, 1.06778E-06, 1.06778E-06
DataValue, 1.05, 1.2972E-06, 1.2972E-06
DataValue, 1.1, 1.4918E-06, 1.4918E-06
DataValue, 1.1500000000000001, 1.6529E-06, 1.6529E-06
DataValue, 1.2, 1.8418E-06, 1.8418E-06
DataValue, 1.25, 2.2213000000000002E-06, 2.2213000000000002E-06
DataValue, 1.3, 2.5636000000000003E-06, 2.5636000000000003E-06
DataValue, 1.35, 2.9537E-06, 2.9537E-06
DataValue, 1.4000000000000001, 3.5337E-06, 3.5337E-06
DataValue, 1.45, 3.8655000000000005E-06, 3.8655000000000005E-06
DataValue, 1.5, 4.6643E-06, 4.6643E-06
DataValue, 1.55, 5.2771000000000007E-06, 5.2771000000000007E-06
DataValue, 1.6, 6.2885000000000009E-06, 6.2885000000000009E-06
DataValue, 1.6500000000000001, 7.290600000000001E-06, 7.290600000000001E-06
DataValue, 1.7, 9.0905E-06, 9.0905E-06
DataValue, 1.75, 1.0794500000000001E-05, 1.0794500000000001E-05
DataValue, 1.8, 1.4204E-05, 1.4204E-05
DataValue, 1.85, 1.4740000000000001E-05, 1.4740000000000001E-05
DataValue, 1.9000000000000001, 1.788E-05, 1.788E-05
DataValue, 1.95, 2.0492E-05, 2.0492E-05
DataValue, 2, 2.5858000000000002E-05, 2.5858000000000002E-05
DataValue, 2.05, 2.7614E-05, 2.7614E-05
DataValue, 2.1, 3.669E-05, 3.669E-05
DataValue, 2.15, 4.3654E-05, 4.3654E-05
DataValue, 2.2, 5.8698E-05, 5.8698E-05
DataValue, 2.25, 7.0614E-05, 7.0614E-05
DataValue, 2.3000000000000003, 9.2638E-05, 9.2638E-05
DataValue, 2.35, 0.00014572, 0.00014572
DataValue, 2.4, 0.00015480000000000002, 0.00015480000000000002
DataValue, 2.45, 0.00016558, 0.00016558
DataValue, 2.5, 0.00019724, 0.00019724
DataValue, 2.5500000000000003, 0.00023098000000000001, 0.00023098000000000001
DataValue, 2.6, 0.00025528000000000004, 0.00025528000000000004
DataValue, 2.65, 0.10004, 0.10004
DataValue, 2.7, 0.10000400000000001, 0.10000400000000001
DataValue, 2.75, 0.100112, 0.100112
DataValue, 2.8000000000000003, 0.10000400000000001, 0.10000400000000001
DataValue, 2.85, 0.099976000000000009, 0.099976000000000009
DataValue, 2.9, 0.10012000000000002, 0.10012000000000002
DataValue, 2.95, 0.099998, 0.099998
DataValue, 3, 0.099994000000000013, 0.099994000000000013
DataValue, 3.0500000000000003, 0.099994000000000013, 0.099994000000000013
DataValue, 3.1, 0.10000600000000001, 0.10000600000000001
DataValue, 3.15, 0.1, 0.1
DataValue, 3.2, 0.10000400000000001, 0.10000400000000001
DataValue, 3.25, 0.10000200000000001, 0.10000200000000001
DataValue, 3.3000000000000003, 0.10000200000000001, 0.10000200000000001
DataValue, 3.35, 0.099998, 0.099998
DataValue, 3.4, 0.1, 0.1
DataValue, 3.45, 0.099998, 0.099998
DataValue, 3.5, 0.099998, 0.099998
DataValue, 3.5500000000000003, 0.10000200000000001, 0.10000200000000001
DataValue, 3.6, 0.100026, 0.100026
DataValue, 3.65, 0.099994000000000013, 0.099994000000000013
DataValue, 3.7, 0.099990000000000009, 0.099990000000000009
DataValue, 3.75, 0.099992000000000011, 0.099992000000000011
DataValue, 3.8000000000000003, 0.10004, 0.10004
DataValue, 3.85, 0.099976000000000009, 0.099976000000000009
DataValue, 3.9, 0.099986, 0.099986
DataValue, 3.95, 0.100042, 0.100042
DataValue, 4, 0.100012, 0.100012
DataValue, 4.05, 0.099978000000000011, 0.099978000000000011
DataValue, 4.1, 0.1, 0.1
DataValue, 4.15, 0.10001000000000002, 0.10001000000000002
DataValue, 4.2, 0.099990000000000009, 0.099990000000000009
DataValue, 4.25, 0.1, 0.1
DataValue, 4.3, 0.10001000000000002, 0.10001000000000002
DataValue, 4.3500000000000005, 0.099982000000000015, 0.099982000000000015
DataValue, 4.4, 0.099988000000000007, 0.099988000000000007
DataValue, 4.45, 0.099994000000000013, 0.099994000000000013
DataValue, 4.5, 0.099994000000000013, 0.099994000000000013
DataValue, 4.55, 0.099998, 0.099998
DataValue, 4.6000000000000005, 0.1, 0.1
DataValue, 4.65, 0.100012, 0.100012
DataValue, 4.7, 0.099980000000000013, 0.099980000000000013
DataValue, 4.75, 0.10000200000000001, 0.10000200000000001
DataValue, 4.8, 0.100028, 0.100028
DataValue, 4.8500000000000005, 0.099986, 0.099986
DataValue, 4.9, 0.1, 0.1
DataValue, 4.95, 0.10001800000000001, 0.10001800000000001
DataValue, 5, 0.099998, 0.099998
DataValue, 5.05, 0.10000400000000001, 0.10000400000000001
DataValue, 5.1000000000000005, 0.1, 0.1
DataValue, 5.15, 0.10000200000000001, 0.10000200000000001
DataValue, 5.2, 0.10000400000000001, 0.10000400000000001
DataValue, 5.25, 0.10000400000000001, 0.10000400000000001
DataValue, 5.3, 0.099998, 0.099998
DataValue, 5.3500000000000005, 0.1, 0.1
DataValue, 5.4, 0.1, 0.1
DataValue, 5.45, 0.1, 0.1
DataValue, 5.5, 0.10000400000000001, 0.10000400000000001
DataValue, 5.55, 0.099988000000000007, 0.099988000000000007
DataValue, 5.6000000000000005, 0.10000200000000001, 0.10000200000000001
DataValue, 5.65, 0.10000200000000001, 0.10000200000000001
DataValue, 5.7, 0.10000400000000001, 0.10000400000000001
DataValue, 5.75, 0.10000400000000001, 0.10000400000000001
DataValue, 5.8, 0.1, 0.1
DataValue, 5.8500000000000005, 0.1, 0.1
DataValue, 5.9, 0.10000200000000001, 0.10000200000000001
DataValue, 5.95, 0.1, 0.1
DataValue, 6, 0.10000200000000001, 0.10000200000000001
DataValue, 6.05, 0.099998, 0.099998
DataValue, 6.1000000000000005, 0.10000200000000001, 0.10000200000000001
DataValue, 6.15, 0.099986, 0.099986
DataValue, 6.2, 0.10001600000000001, 0.10001600000000001
DataValue, 6.25, 0.099998, 0.099998
DataValue, 6.3, 0.10001000000000002, 0.10001000000000002
DataValue, 6.3500000000000005, 0.099992000000000011, 0.099992000000000011
DataValue, 6.4, 0.1, 0.1
DataValue, 6.45, 0.10000400000000001, 0.10000400000000001
DataValue, 6.5, 0.1, 0.1
DataValue, 6.55, 0.1, 0.1
DataValue, 6.6000000000000005, 0.10000400000000001, 0.10000400000000001
DataValue, 6.65, 0.099994000000000013, 0.099994000000000013
DataValue, 6.7, 0.10000200000000001, 0.10000200000000001
DataValue, 6.75, 0.10000400000000001, 0.10000400000000001
DataValue, 6.8, 0.10000200000000001, 0.10000200000000001
DataValue, 6.8500000000000005, 0.10000400000000001, 0.10000400000000001
DataValue, 6.9, 0.099986, 0.099986
DataValue, 6.95, 0.10000400000000001, 0.10000400000000001
DataValue, 7, 0.1, 0.1
DataValue, 7.05, 0.099958, 0.099958
DataValue, 7.1000000000000005, 0.10000200000000001, 0.10000200000000001
DataValue, 7.15, 0.1, 0.1
DataValue, 7.2, 0.10000200000000001, 0.10000200000000001
DataValue, 7.25, 0.1, 0.1
DataValue, 7.3, 0.10000200000000001, 0.10000200000000001
DataValue, 7.3500000000000005, 0.10000200000000001, 0.10000200000000001
DataValue, 7.4, 0.10000400000000001, 0.10000400000000001
DataValue, 7.45, 0.10000200000000001, 0.10000200000000001
DataValue, 7.5, 0.10000200000000001, 0.10000200000000001
DataValue, 7.55, 0.10000400000000001, 0.10000400000000001
DataValue, 7.6000000000000005, 0.10000200000000001, 0.10000200000000001
DataValue, 7.65, 0.10000200000000001, 0.10000200000000001
DataValue, 7.7, 0.1, 0.1
DataValue, 7.75, 0.10000400000000001, 0.10000400000000001
DataValue, 7.8, 0.1, 0.1
DataValue, 7.8500000000000005, 0.099998, 0.099998
DataValue, 7.9, 0.1, 0.1
DataValue, 7.95, 0.1, 0.1
DataValue, 8, 0.10000200000000001, 0.10000200000000001
DataValue, 8.05, 0.099986, 0.099986
DataValue, 8.1, 0.1, 0.1
DataValue, 8.15, 0.10000200000000001, 0.10000200000000001
DataValue, 8.2, 0.10000600000000001, 0.10000600000000001
DataValue, 8.25, 0.10000400000000001, 0.10000400000000001
DataValue, 8.3, 0.10000200000000001, 0.10000200000000001
DataValue, 8.35, 0.10000400000000001, 0.10000400000000001
DataValue, 8.4, 0.1, 0.1
DataValue, 8.45, 0.099948000000000009, 0.099948000000000009
DataValue, 8.5, 0.10000200000000001, 0.10000200000000001
DataValue, 8.55, 0.10000400000000001, 0.10000400000000001
DataValue, 8.6, 0.1, 0.1
DataValue, 8.65, 0.10000400000000001, 0.10000400000000001
DataValue, 8.7000000000000011, 0.1, 0.1
DataValue, 8.75, 0.099998, 0.099998
DataValue, 8.8, 0.099956, 0.099956
DataValue, 8.85, 0.099982000000000015, 0.099982000000000015
DataValue, 8.9, 0.10000400000000001, 0.10000400000000001
DataValue, 8.9500000000000011, 0.10000400000000001, 0.10000400000000001
DataValue, 9, 0.099958, 0.099958
DataValue, 9.05, 0.10000400000000001, 0.10000400000000001
DataValue, 9.1, 0.099982000000000015, 0.099982000000000015
DataValue, 9.15, 0.100012, 0.100012
DataValue, 9.2000000000000011, 0.099994000000000013, 0.099994000000000013
DataValue, 9.25, 0.099998, 0.099998
DataValue, 9.3, 0.10000200000000001, 0.10000200000000001
DataValue, 9.35, 0.1, 0.1
DataValue, 9.4, 0.10000200000000001, 0.10000200000000001
DataValue, 9.4500000000000011, 0.10001000000000002, 0.10001000000000002
DataValue, 9.5, 0.10005800000000001, 0.10005800000000001
DataValue, 9.55, 0.099994000000000013, 0.099994000000000013
DataValue, 9.6, 0.099994000000000013, 0.099994000000000013
DataValue, 9.65, 0.099994000000000013, 0.099994000000000013
DataValue, 9.7000000000000011, 0.10000800000000001, 0.10000800000000001
DataValue, 9.75, 0.1, 0.1
DataValue, 9.8, 0.10000400000000001, 0.10000400000000001
DataValue, 9.85, 0.099998, 0.099998
DataValue, 9.9, 0.099998, 0.099998
DataValue, 9.9500000000000011, 0.100028, 0.100028
DataValue, 10, 0.1, 0.1