
SetupTitle, Break of oxide
PrimitiveTest, I/V Sweep
TestParameter, Context.MainFrame, B1500A
TestParameter, Channel.UnitType, SMU, SMU
TestParameter, Channel.Unit, SMU2:HR/AS, SMU1:HR/AS
TestParameter, Channel.IName, I1, I2
TestParameter, Channel.VName, V1, V2
TestParameter, Channel.Mode, V, V
TestParameter, Channel.Func, VAR1, CONST
TestParameter, Channel.Index, 
TestParameter, Channel.Time, 
TestParameter, Measurement.Port.Unit, SMU2:HR/AS, SMU1:HR/AS
TestParameter, Measurement.Port.SeriesResistor, NONE, NONE
TestParameter, Measurement.Port.Filter, ON, ON
TestParameter, Measurement.Port.OutputVoltageComparison, 0, 0
TestParameter, Measurement.Primary.Locus, Single
TestParameter, Measurement.Primary.Scale, LINEAR
TestParameter, Measurement.Primary.Start, 0
TestParameter, Measurement.Primary.Stop, 10
TestParameter, Measurement.Primary.Step, 0.05
TestParameter, Measurement.Primary.Compliance, 0.1
TestParameter, Measurement.Primary.PowerCompliance, 0
TestParameter, Measurement.Aborting.Condition, CONTINUE AT ANY
TestParameter, Measurement.PostOutput.Value, START
TestParameter, Measurement.PostOutput.Retention, OFF
TestParameter, Measurement.Bias.Source, 0, 0
TestParameter, Measurement.Bias.Compliance, 0.1, 0.1
TestParameter, Measurement.Monitor.Unit, SMU2:HR/AS, SMU1:HR/AS
TestParameter, Measurement.Monitor.Adc, HR ADC, HR ADC
TestParameter, Measurement.Monitor.Measurement, Compliance Side, Compliance Side
TestParameter, Measurement.Monitor.RangingMode, LIMITED, LIMITED
TestParameter, Measurement.Monitor.RangeBoundary, 1nA, 1nA
TestParameter, Measurement.Monitor.RangeRating, BY FULL RANGE, BY FULL RANGE
TestParameter, Measurement.Monitor.RangeRatingCoeff, 50, 50
TestParameter, Measurement.Timing.Hold, 1
TestParameter, Measurement.Timing.Delay, 0
TestParameter, Measurement.Adc.HighSpeed.Mode, AUTO
TestParameter, Measurement.Adc.HighSpeed.Coeff, 1
TestParameter, Measurement.Adc.HighResolution.AutoZero, OFF
TestParameter, Measurement.Adc.HighResolution.Mode, AUTO
TestParameter, Measurement.Adc.HighResolution.Coeff, 6
TestParameter, Measurement.WaitTime.Source.Coeff, 1
TestParameter, Measurement.WaitTime.Source.Offset, 0
TestParameter, Measurement.WaitTime.Monitor.Coeff, 1
TestParameter, Measurement.WaitTime.Monitor.Offset, 0
TestParameter, Function.Analysis.Name, absI
TestParameter, Function.Analysis.Unit, A
TestParameter, Function.Analysis.Definition, abs(I1)
TestParameter, Output.Graph.Enabled, true
TestParameter, Output.Graph.AutoScaling, false
TestParameter, Output.Graph.XAxis.Data, V1
TestParameter, Output.Graph.XAxis.Scale, Linear
TestParameter, Output.Graph.XAxis.Left, 0
TestParameter, Output.Graph.XAxis.Right, 3
TestParameter, Output.Graph.XAxis.RunTimeAutoScale, true
TestParameter, Output.Graph.YAxis.Data, I1, absI
TestParameter, Output.Graph.YAxis.Scale, Linear, Log
TestParameter, Output.Graph.YAxis.Bottom, 0.001, 0
TestParameter, Output.Graph.YAxis.Top, 0.01, 1
TestParameter, Output.Graph.YAxis.Group, , 
TestParameter, Output.Graph.YAxis.RunTimeAutoScale, true, true
TestParameter, AutoAnalysis.Interpolation, false
TestParameter, AutoAnalysis.Var2StepCount, 1
TestParameter, AutoAnalysis.Var2StepScript, 
TestParameter, AutoAnalysis.Line1.Enabled, false
TestParameter, AutoAnalysis.Line1.Type, 1
TestParameter, AutoAnalysis.Line1.Fix, True
TestParameter, AutoAnalysis.Line1.YAxis, 0
TestParameter, AutoAnalysis.Line1.Point1.Type, 0
TestParameter, AutoAnalysis.Line1.Point1.XY.X, 
TestParameter, AutoAnalysis.Line1.Point1.XY.Y, 
TestParameter, AutoAnalysis.Line1.Point1.Data.Var, 
TestParameter, AutoAnalysis.Line1.Point1.Data.Condition, 
TestParameter, AutoAnalysis.Line1.Point1.Data.Start, false
TestParameter, AutoAnalysis.Line1.Point1.Data.StartVar, 
TestParameter, AutoAnalysis.Line1.Point1.Data.StartCondition, 
TestParameter, AutoAnalysis.Line1.Point2.Type, 0
TestParameter, AutoAnalysis.Line1.Point2.XY.X, 
TestParameter, AutoAnalysis.Line1.Point2.XY.Y, 
TestParameter, AutoAnalysis.Line1.Point2.Data.Var, 
TestParameter, AutoAnalysis.Line1.Point2.Data.Condition, 
TestParameter, AutoAnalysis.Line1.Point2.Data.Start, false
TestParameter, AutoAnalysis.Line1.Point2.Data.StartVar, 
TestParameter, AutoAnalysis.Line1.Point2.Data.StartCondition, 
TestParameter, AutoAnalysis.Line1.GradientExpr, 0
TestParameter, AutoAnalysis.Line2.Enabled, false
TestParameter, AutoAnalysis.Line2.Type, 1
TestParameter, AutoAnalysis.Line2.Fix, True
TestParameter, AutoAnalysis.Line2.YAxis, 0
TestParameter, AutoAnalysis.Line2.Point1.Type, 0
TestParameter, AutoAnalysis.Line2.Point1.XY.X, 
TestParameter, AutoAnalysis.Line2.Point1.XY.Y, 
TestParameter, AutoAnalysis.Line2.Point1.Data.Var, 
TestParameter, AutoAnalysis.Line2.Point1.Data.Condition, 
TestParameter, AutoAnalysis.Line2.Point1.Data.Start, false
TestParameter, AutoAnalysis.Line2.Point1.Data.StartVar, 
TestParameter, AutoAnalysis.Line2.Point1.Data.StartCondition, 
TestParameter, AutoAnalysis.Line2.Point2.Type, 0
TestParameter, AutoAnalysis.Line2.Point2.XY.X, 
TestParameter, AutoAnalysis.Line2.Point2.XY.Y, 
TestParameter, AutoAnalysis.Line2.Point2.Data.Var, 
TestParameter, AutoAnalysis.Line2.Point2.Data.Condition, 
TestParameter, AutoAnalysis.Line2.Point2.Data.Start, false
TestParameter, AutoAnalysis.Line2.Point2.Data.StartVar, 
TestParameter, AutoAnalysis.Line2.Point2.Data.StartCondition, 
TestParameter, AutoAnalysis.Line2.GradientExpr, 0
TestParameter, AutoAnalysis.Marker.Enabled, false
TestParameter, AutoAnalysis.Marker.Data.Var, 
TestParameter, AutoAnalysis.Marker.Data.Condition, 
TestParameter, AutoAnalysis.Marker.Data.Start, false
TestParameter, AutoAnalysis.Marker.Data.StartVar, 
TestParameter, AutoAnalysis.Marker.Data.StartCondition, 
MetaData, TestRecord.EntryPoint, true
MetaData, TestRecord.RecordTime, 03/01/2021 14:11:31
MetaData, TestRecord.TestTarget, 
MetaData, TestRecord.IterationIndex, 1
MetaData, TestRecord.Preservation, true
MetaData, TestRecord.Flag, 
MetaData, TestRecord.Remarks, 
MetaData, TestRecord.LinkKey, e3993f07-382e-42c7-995b-f40e266e313c
MetaData, TestRecord.Parameters, 
Dimension1, 201, 201, 201
Dimension2, 1, 1, 1
DataName, V1, I1, absI
DataValue, 0, 8.1000000000000008E-13, 8.1000000000000008E-13
DataValue, 0.05, 3.7000000000000004E-13, 3.7000000000000004E-13
DataValue, 0.1, 1.1000000000000001E-13, 1.1000000000000001E-13
DataValue, 0.15, 5.6E-13, 5.6E-13
DataValue, 0.2, 2.4000000000000004E-13, 2.4000000000000004E-13
DataValue, 0.25, 9.0000000000000008E-14, 9.0000000000000008E-14
DataValue, 0.3, 6.3E-13, 6.3E-13
DataValue, 0.35000000000000003, 4.3000000000000004E-13, 4.3000000000000004E-13
DataValue, 0.4, 3.9000000000000005E-13, 3.9000000000000005E-13
DataValue, 0.45, 6.5000000000000006E-13, 6.5000000000000006E-13
DataValue, 0.5, 7.100000000000001E-13, 7.100000000000001E-13
DataValue, 0.55, 5.9E-13, 5.9E-13
DataValue, 0.6, 7.2000000000000006E-13, 7.2000000000000006E-13
DataValue, 0.65, 1.17E-12, 1.17E-12
DataValue, 0.70000000000000007, 2.8E-13, 2.8E-13
DataValue, 0.75, 6.0000000000000007E-13, 6.0000000000000007E-13
DataValue, 0.8, 4.9E-13, 4.9E-13
DataValue, 0.85, 6.9000000000000009E-13, 6.9000000000000009E-13
DataValue, 0.9, 7.8000000000000011E-13, 7.8000000000000011E-13
DataValue, 0.95000000000000007, 1.14E-12, 1.14E-12
DataValue, 1, 6.2000000000000008E-13, 6.2000000000000008E-13
DataValue, 1.05, 1.07E-12, 1.07E-12
DataValue, 1.1, 5.8000000000000005E-13, 5.8000000000000005E-13
DataValue, 1.1500000000000001, 4.2000000000000003E-13, 4.2000000000000003E-13
DataValue, 1.2, 6.0000000000000007E-13, 6.0000000000000007E-13
DataValue, 1.25, 6.2000000000000008E-13, 6.2000000000000008E-13
DataValue, 1.3, 5.5000000000000008E-13, 5.5000000000000008E-13
DataValue, 1.35, 7.4000000000000008E-13, 7.4000000000000008E-13
DataValue, 1.4000000000000001, 6.9000000000000009E-13, 6.9000000000000009E-13
DataValue, 1.45, 5.2E-13, 5.2E-13
DataValue, 1.5, 6.3E-13, 6.3E-13
DataValue, 1.55, 7.9000000000000007E-13, 7.9000000000000007E-13
DataValue, 1.6, 7.3E-13, 7.3E-13
DataValue, 1.6500000000000001, 4.8000000000000008E-13, 4.8000000000000008E-13
DataValue, 1.7, 8.6000000000000007E-13, 8.6000000000000007E-13
DataValue, 1.75, 8.1000000000000008E-13, 8.1000000000000008E-13
DataValue, 1.8, 1.03E-12, 1.03E-12
DataValue, 1.85, 8.7E-13, 8.7E-13
DataValue, 1.9000000000000001, 1.1100000000000001E-12, 1.1100000000000001E-12
DataValue, 1.95, 9.000000000000001E-13, 9.000000000000001E-13
DataValue, 2, 3.8000000000000005E-13, 3.8000000000000005E-13
DataValue, 2.05, 9.8E-13, 9.8E-13
DataValue, 2.1, 7.8000000000000011E-13, 7.8000000000000011E-13
DataValue, 2.15, 3.1000000000000004E-13, 3.1000000000000004E-13
DataValue, 2.2, 8.5000000000000011E-13, 8.5000000000000011E-13
DataValue, 2.25, 5.7E-13, 5.7E-13
DataValue, 2.3000000000000003, 7E-13, 7E-13
DataValue, 2.35, 9.7000000000000011E-13, 9.7000000000000011E-13
DataValue, 2.4, 1.14E-12, 1.14E-12
DataValue, 2.45, 9.7000000000000011E-13, 9.7000000000000011E-13
DataValue, 2.5, 1.3000000000000001E-12, 1.3000000000000001E-12
DataValue, 2.5500000000000003, 9.5E-13, 9.5E-13
DataValue, 2.6, 1.03E-12, 1.03E-12
DataValue, 2.65, 9.9E-13, 9.9E-13
DataValue, 2.7, 7.7000000000000005E-13, 7.7000000000000005E-13
DataValue, 2.75, 1.3000000000000001E-12, 1.3000000000000001E-12
DataValue, 2.8000000000000003, 1.08E-12, 1.08E-12
DataValue, 2.85, 1.1000000000000002E-12, 1.1000000000000002E-12
DataValue, 2.9, 1.1900000000000002E-12, 1.1900000000000002E-12
DataValue, 2.95, 9.7000000000000011E-13, 9.7000000000000011E-13
DataValue, 3, 1.6800000000000001E-12, 1.6800000000000001E-12
DataValue, 3.0500000000000003, 9.1000000000000016E-13, 9.1000000000000016E-13
DataValue, 3.1, 9.000000000000001E-13, 9.000000000000001E-13
DataValue, 3.15, 1.12E-12, 1.12E-12
DataValue, 3.2, 1.1000000000000002E-12, 1.1000000000000002E-12
DataValue, 3.25, 6.1E-13, 6.1E-13
DataValue, 3.3000000000000003, 1.4E-12, 1.4E-12
DataValue, 3.35, 1.1000000000000002E-12, 1.1000000000000002E-12
DataValue, 3.4, 1.5E-12, 1.5E-12
DataValue, 3.45, 1.23E-12, 1.23E-12
DataValue, 3.5, 1E-12, 1E-12
DataValue, 3.5500000000000003, 1.37E-12, 1.37E-12
DataValue, 3.6, 1.0500000000000002E-12, 1.0500000000000002E-12
DataValue, 3.65, 9.5E-13, 9.5E-13
DataValue, 3.7, 9.8E-13, 9.8E-13
DataValue, 3.75, 1.32E-12, 1.32E-12
DataValue, 3.8000000000000003, 9.8E-13, 9.8E-13
DataValue, 3.85, 1.78E-12, 1.78E-12
DataValue, 3.9, 1.1100000000000001E-12, 1.1100000000000001E-12
DataValue, 3.95, 1.0100000000000001E-12, 1.0100000000000001E-12
DataValue, 4, 1E-12, 1E-12
DataValue, 4.05, 1.18E-12, 1.18E-12
DataValue, 4.1, 9.9E-13, 9.9E-13
DataValue, 4.15, 8.7E-13, 8.7E-13
DataValue, 4.2, 1.14E-12, 1.14E-12
DataValue, 4.25, 9.8E-13, 9.8E-13
DataValue, 4.3, 6.1E-13, 6.1E-13
DataValue, 4.3500000000000005, 1.04E-12, 1.04E-12
DataValue, 4.4, 1.23E-12, 1.23E-12
DataValue, 4.45, 1.12E-12, 1.12E-12
DataValue, 4.5, 1.2900000000000002E-12, 1.2900000000000002E-12
DataValue, 4.55, 9.7000000000000011E-13, 9.7000000000000011E-13
DataValue, 4.6000000000000005, 1.3400000000000002E-12, 1.3400000000000002E-12
DataValue, 4.65, 1.04E-12, 1.04E-12
DataValue, 4.7, 8.5000000000000011E-13, 8.5000000000000011E-13
DataValue, 4.75, 8.1000000000000008E-13, 8.1000000000000008E-13
DataValue, 4.8, 1.2900000000000002E-12, 1.2900000000000002E-12
DataValue, 4.8500000000000005, 9.2000000000000012E-13, 9.2000000000000012E-13
DataValue, 4.9, 9.5E-13, 9.5E-13
DataValue, 4.95, 1.3400000000000002E-12, 1.3400000000000002E-12
DataValue, 5, 1.36E-12, 1.36E-12
DataValue, 5.05, 1.65E-12, 1.65E-12
DataValue, 5.1000000000000005, 6.0000000000000007E-13, 6.0000000000000007E-13
DataValue, 5.15, 1.2000000000000001E-12, 1.2000000000000001E-12
DataValue, 5.2, 1.32E-12, 1.32E-12
DataValue, 5.25, 9.4E-13, 9.4E-13
DataValue, 5.3, 1.51E-12, 1.51E-12
DataValue, 5.3500000000000005, 1.36E-12, 1.36E-12
DataValue, 5.4, 9.7000000000000011E-13, 9.7000000000000011E-13
DataValue, 5.45, 1.4300000000000002E-12, 1.4300000000000002E-12
DataValue, 5.5, 1.2900000000000002E-12, 1.2900000000000002E-12
DataValue, 5.55, 1.07E-12, 1.07E-12
DataValue, 5.6000000000000005, 1.22E-12, 1.22E-12
DataValue, 5.65, 1.6200000000000002E-12, 1.6200000000000002E-12
DataValue, 5.7, 1.2000000000000001E-12, 1.2000000000000001E-12
DataValue, 5.75, 1.2000000000000001E-12, 1.2000000000000001E-12
DataValue, 5.8, 1.31E-12, 1.31E-12
DataValue, 5.8500000000000005, 1.07E-12, 1.07E-12
DataValue, 5.9, 7.6000000000000009E-13, 7.6000000000000009E-13
DataValue, 5.95, 1.4800000000000002E-12, 1.4800000000000002E-12
DataValue, 6, 7.100000000000001E-13, 7.100000000000001E-13
DataValue, 6.05, 1.14E-12, 1.14E-12
DataValue, 6.1000000000000005, 1.8200000000000003E-12, 1.8200000000000003E-12
DataValue, 6.15, 1.5400000000000001E-12, 1.5400000000000001E-12
DataValue, 6.2, 1.12E-12, 1.12E-12
DataValue, 6.25, 1.3000000000000001E-12, 1.3000000000000001E-12
DataValue, 6.3, 1.6700000000000002E-12, 1.6700000000000002E-12
DataValue, 6.3500000000000005, 1.78E-12, 1.78E-12
DataValue, 6.4, 1.5E-12, 1.5E-12
DataValue, 6.45, 1.6E-12, 1.6E-12
DataValue, 6.5, 1.5200000000000002E-12, 1.5200000000000002E-12
DataValue, 6.55, 1.5200000000000002E-12, 1.5200000000000002E-12
DataValue, 6.6000000000000005, 9.9E-13, 9.9E-13
DataValue, 6.65, 1.6700000000000002E-12, 1.6700000000000002E-12
DataValue, 6.7, 1.41E-12, 1.41E-12
DataValue, 6.75, 1.0600000000000001E-12, 1.0600000000000001E-12
DataValue, 6.8, 1.74E-12, 1.74E-12
DataValue, 6.8500000000000005, 1.04E-12, 1.04E-12
DataValue, 6.9, 1.03E-12, 1.03E-12
DataValue, 6.95, 1.65E-12, 1.65E-12
DataValue, 7, 1.5800000000000001E-12, 1.5800000000000001E-12
DataValue, 7.05, 1.5300000000000001E-12, 1.5300000000000001E-12
DataValue, 7.1000000000000005, 1.5700000000000002E-12, 1.5700000000000002E-12
DataValue, 7.15, 2.08E-12, 2.08E-12
DataValue, 7.2, 1.4800000000000002E-12, 1.4800000000000002E-12
DataValue, 7.25, 2.01E-12, 2.01E-12
DataValue, 7.3, 1.07E-12, 1.07E-12
DataValue, 7.3500000000000005, 1.26E-12, 1.26E-12
DataValue, 7.4, 1.3900000000000001E-12, 1.3900000000000001E-12
DataValue, 7.45, 1.4800000000000002E-12, 1.4800000000000002E-12
DataValue, 7.5, 1.6700000000000002E-12, 1.6700000000000002E-12
DataValue, 7.55, 1.78E-12, 1.78E-12
DataValue, 7.6000000000000005, 1.36E-12, 1.36E-12
DataValue, 7.65, 1.22E-12, 1.22E-12
DataValue, 7.7, 1.8000000000000002E-12, 1.8000000000000002E-12
DataValue, 7.75, 6.7000000000000007E-13, 6.7000000000000007E-13
DataValue, 7.8, 1.5300000000000001E-12, 1.5300000000000001E-12
DataValue, 7.8500000000000005, 1.17E-12, 1.17E-12
DataValue, 7.9, 1.04E-12, 1.04E-12
DataValue, 7.95, 1.5600000000000002E-12, 1.5600000000000002E-12
DataValue, 8, 1E-12, 1E-12
DataValue, 8.05, 1.04E-12, 1.04E-12
DataValue, 8.1, 1E-12, 1E-12
DataValue, 8.15, 1.6800000000000001E-12, 1.6800000000000001E-12
DataValue, 8.2, 1.5600000000000002E-12, 1.5600000000000002E-12
DataValue, 8.25, 9.4E-13, 9.4E-13
DataValue, 8.3, 1.18E-12, 1.18E-12
DataValue, 8.35, 1.2400000000000002E-12, 1.2400000000000002E-12
DataValue, 8.4, 1.0600000000000001E-12, 1.0600000000000001E-12
DataValue, 8.45, 1.4700000000000002E-12, 1.4700000000000002E-12
DataValue, 8.5, 1.1900000000000002E-12, 1.1900000000000002E-12
DataValue, 8.55, 1.7100000000000002E-12, 1.7100000000000002E-12
DataValue, 8.6, 1.51E-12, 1.51E-12
DataValue, 8.65, 1.4300000000000002E-12, 1.4300000000000002E-12
DataValue, 8.7000000000000011, 1.4800000000000002E-12, 1.4800000000000002E-12
DataValue, 8.75, 1.45E-12, 1.45E-12
DataValue, 8.8, 1.2500000000000001E-12, 1.2500000000000001E-12
DataValue, 8.85, 1.3500000000000001E-12, 1.3500000000000001E-12
DataValue, 8.9, 1.4200000000000002E-12, 1.4200000000000002E-12
DataValue, 8.9500000000000011, 1.1100000000000001E-12, 1.1100000000000001E-12
DataValue, 9, 1.8000000000000002E-12, 1.8000000000000002E-12
DataValue, 9.05, 1.74E-12, 1.74E-12
DataValue, 9.1, 1.26E-12, 1.26E-12
DataValue, 9.15, 1.4900000000000001E-12, 1.4900000000000001E-12
DataValue, 9.2000000000000011, 1.37E-12, 1.37E-12
DataValue, 9.25, 1.4400000000000001E-12, 1.4400000000000001E-12
DataValue, 9.3, 1.7000000000000002E-12, 1.7000000000000002E-12
DataValue, 9.35, 1.4700000000000002E-12, 1.4700000000000002E-12
DataValue, 9.4, 1.59E-12, 1.59E-12
DataValue, 9.4500000000000011, 1.4700000000000002E-12, 1.4700000000000002E-12
DataValue, 9.5, 1.5200000000000002E-12, 1.5200000000000002E-12
DataValue, 9.55, 1.3300000000000002E-12, 1.3300000000000002E-12
DataValue, 9.6, 1.55E-12, 1.55E-12
DataValue, 9.65, 1.98E-12, 1.98E-12
DataValue, 9.7000000000000011, 1.9400000000000002E-12, 1.9400000000000002E-12
DataValue, 9.75, 1.5400000000000001E-12, 1.5400000000000001E-12
DataValue, 9.8, 1.12E-12, 1.12E-12
DataValue, 9.85, 1.5200000000000002E-12, 1.5200000000000002E-12
DataValue, 9.9, 1.8700000000000003E-12, 1.8700000000000003E-12
DataValue, 9.9500000000000011, 1.7000000000000002E-12, 1.7000000000000002E-12
DataValue, 10, 1.88E-12, 1.88E-12