
SetupTitle, Endurance Measure 1kHz After 20 000 Cycles(1)
ApplicationTest, WGFMU Pattern Editor, Public
TestParameter, Name, ExecutionMode, Enable1, Channel1, OperationMode1, VForceRange1, InitMeasRange1, Enable2, Channel2, OperationMode2, VForceRange2, InitMeasRange2, RepeatCount, WaveformCh1, WaveformCh2, MeasurementEvent, Output_to_File_for_PatternValidation, Output_Enable, Output_Filename, DataDisplay_for_RunVector, DataDisplay_PatternValidation, DataDisplay_Mode, LogToFile, LogFile, WarningLevel, IForceRange1, IForceRange2, Result_Update_Interval_s
TestParameter, Value, Run Vector, Enable, WGFMU1:RS	RSWGFMU, Fast IV Imeas, Auto, 10uA (Imeas), Enable, WGFMU2:RS	RSWGFMU, PG Vmeas, Auto, 5V (Vmeas), 1, , Disable, C:\WGFMUPatternEditor_Pattern.csv, , Disable, x(time)_y(meas), Disable, C:\WGFMUPatternEditor_Log.log, 2, 10mA, 10mA, 10
MetaData, TestRecord.EntryPoint, true
MetaData, TestRecord.RecordTime, 03/01/2021 15:34:46
MetaData, TestRecord.TestTarget, FlashIntA_2_8um_I3
MetaData, TestRecord.IterationIndex, 1
MetaData, TestRecord.Preservation, true
MetaData, TestRecord.Flag, 
MetaData, TestRecord.Remarks, 
MetaData, TestRecord.LinkKey, 7f9dd102-862b-4bd9-9b4f-cab0dac0935e
MetaData, TestRecord.Parameters, 
Dimension1, 500, 500, 500, 500, 500
Dimension2, 1, 1, 1, 1, 1
DataName, Time, MeasResult1_value, MeasResult2_value, MeasResult1_time, MeasResult2_time
DataValue, 5E-06, -6.8225920000000008E-09, 0.02796108648181, 5E-06, 5E-06
DataValue, 1.5E-05, -8.998129E-09, 0.087747767567635013, 1.5E-05, 1.5E-05
DataValue, 2.5E-05, -8.3482020000000012E-09, 0.14728486537933302, 2.5E-05, 2.5E-05
DataValue, 3.5000000000000004E-05, -1.1119681E-08, 0.20794348418712602, 3.5000000000000004E-05, 3.5000000000000004E-05
DataValue, 4.5E-05, -1.1636397000000002E-08, 0.267982542514801, 4.5E-05, 4.5E-05
DataValue, 5.5E-05, -1.2950974000000001E-08, 0.327456295490265, 5.5E-05, 5.5E-05
DataValue, 6.5000000000000008E-05, -1.5710533E-08, 0.38783824443817105, 6.5000000000000008E-05, 6.5000000000000008E-05
DataValue, 7.5000000000000007E-05, -1.9573637E-08, 0.448108583688736, 7.5000000000000007E-05, 7.5000000000000007E-05
DataValue, 8.5E-05, -2.1956701000000003E-08, 0.50740033388137806, 8.5E-05, 8.5E-05
DataValue, 9.5E-05, -2.8018478000000003E-08, 0.567149341106415, 9.5E-05, 9.5E-05
DataValue, 0.000105, -3.2894683E-08, 0.627748787403107, 0.000105, 0.000105
DataValue, 0.000115, -3.8062545000000005E-08, 0.687241911888123, 0.000115, 0.000115
DataValue, 0.000125, -4.1361961E-08, 0.746889173984528, 0.000125, 0.000125
DataValue, 0.000135, -4.4878014000000004E-08, 0.80715388059616111, 0.000135, 0.000135
DataValue, 0.000145, -4.6347537E-08, 0.86732465028762806, 0.000145, 0.000145
DataValue, 0.000155, -4.6472334E-08, 0.92679166793823209, 0.000155, 0.000155
DataValue, 0.000165, -4.5063107E-08, 0.98688393831253007, 0.000165, 0.000165
DataValue, 0.000175, -4.4899046000000005E-08, 1.047487258911133, 0.000175, 0.000175
DataValue, 0.00018500000000000002, -4.3842480000000004E-08, 1.1072728633880622, 0.00018500000000000002, 0.00018500000000000002
DataValue, 0.00019500000000000002, -4.1618566000000004E-08, 1.1669127941131592, 0.00019500000000000002, 0.00019500000000000002
DataValue, 0.00020500000000000002, -4.0108379E-08, 1.2271387577056891, 0.00020500000000000002, 0.00020500000000000002
DataValue, 0.00021500000000000002, -3.6767602E-08, 1.2872053384780882, 0.00021500000000000002, 0.00021500000000000002
DataValue, 0.00022500000000000002, -3.7076788E-08, 1.346998333930969, 0.00022500000000000002, 0.00022500000000000002
DataValue, 0.00023500000000000002, -3.5529446E-08, 1.4067026376724241, 0.00023500000000000002, 0.00023500000000000002
DataValue, 0.000245, -3.3695347E-08, 1.4673235416412351, 0.000245, 0.000245
DataValue, 0.000255, -3.1471433E-08, 1.527084946632385, 0.000255, 0.000255
DataValue, 0.000265, -3.0452725E-08, 1.5870926380157471, 0.000265, 0.000265
DataValue, 0.000275, -2.9896047000000004E-08, 1.6474748849868772, 0.000275, 0.000275
DataValue, 0.00028500000000000004, -2.9534274000000003E-08, 1.7073320150375371, 0.00028500000000000004, 0.00028500000000000004
DataValue, 0.000295, -2.7698073E-08, 1.7667789459228522, 0.000295, 0.000295
DataValue, 0.00030500000000000004, -2.7226928000000003E-08, 1.8269416093826292, 0.00030500000000000004, 0.00030500000000000004
DataValue, 0.000315, -2.6888292000000003E-08, 1.8869849443435671, 0.000315, 0.000315
DataValue, 0.00032500000000000004, -2.4573936E-08, 1.9463855028152473, 0.00032500000000000004, 0.00032500000000000004
DataValue, 0.000335, -2.4672794000000002E-08, 2.00639009475708, 0.000335, 0.000335
DataValue, 0.00034500000000000004, -2.4210062000000003E-08, 2.067095041275024, 0.00034500000000000004, 0.00034500000000000004
DataValue, 0.000355, -2.3483013000000003E-08, 2.12680459022522, 0.000355, 0.000355
DataValue, 0.00036500000000000004, -2.2436259000000003E-08, 2.186751127243042, 0.00036500000000000004, 0.00036500000000000004
DataValue, 0.000375, -2.1342531E-08, 2.2467198371887211, 0.000375, 0.000375
DataValue, 0.00038500000000000003, -2.1804562000000002E-08, 2.3062739372253422, 0.00038500000000000003, 0.00038500000000000003
DataValue, 0.000395, -2.0848251000000003E-08, 2.3660907745361333, 0.000395, 0.000395
DataValue, 0.00040500000000000003, -2.0410759000000003E-08, 2.4263818264007573, 0.00040500000000000003, 0.00040500000000000003
DataValue, 0.000415, -2.1015115E-08, 2.4864842891693124, 0.000415, 0.000415
DataValue, 0.00042500000000000003, -2.0328029E-08, 2.5460331439971924, 0.00042500000000000003, 0.00042500000000000003
DataValue, 0.000435, -2.0787255E-08, 2.6059894561767583, 0.000435, 0.000435
DataValue, 0.00044500000000000003, -2.170921E-08, 2.6664142608642583, 0.00044500000000000003, 0.00044500000000000003
DataValue, 0.00045500000000000006, -1.9873712E-08, 2.7260127067565922, 0.00045500000000000006, 0.00045500000000000006
DataValue, 0.000465, -2.0183601000000002E-08, 2.78594446182251, 0.000465, 0.000465
DataValue, 0.00047500000000000005, -2.0670869E-08, 2.8463008403778081, 0.00047500000000000005, 0.00047500000000000005
DataValue, 0.000485, -2.1657328000000002E-08, 2.9062130451202393, 0.000485, 0.000485
DataValue, 0.000495, -2.1747772E-08, 2.9657423496246342, 0.000495, 0.000495
DataValue, 0.000505, 1.9164665000000002E-08, 2.9660739898681641, 0.000505, 0.000505
DataValue, 0.000515, 2.3565518000000003E-08, 2.9067075252532963, 0.000515, 0.000515
DataValue, 0.00052500000000000008, 2.5977327000000003E-08, 2.8467581272125244, 0.00052500000000000008, 0.00052500000000000008
DataValue, 0.000535, 2.7491019E-08, 2.7867941856384282, 0.000535, 0.000535
DataValue, 0.000545, 2.8129026E-08, 2.7269811630249023, 0.000545, 0.000545
DataValue, 0.000555, 2.7627735000000003E-08, 2.6670930385589604, 0.000555, 0.000555
DataValue, 0.00056500000000000007, 2.8750909E-08, 2.6065888404846191, 0.00056500000000000007, 0.00056500000000000007
DataValue, 0.000575, 2.8077846000000002E-08, 2.5469658374786381, 0.000575, 0.000575
DataValue, 0.000585, 2.9685486000000004E-08, 2.487284898757935, 0.000585, 0.000585
DataValue, 0.000595, 2.9785744000000004E-08, 2.4271130561828613, 0.000595, 0.000595
DataValue, 0.00060500000000000007, 2.9652533E-08, 2.3669753074646, 0.00060500000000000007, 0.00060500000000000007
DataValue, 0.000615, 2.9581722000000004E-08, 2.307468175888062, 0.000615, 0.000615
DataValue, 0.000625, 3.0402017000000005E-08, 2.247722864151001, 0.000625, 0.000625
DataValue, 0.000635, 3.0561168000000005E-08, 2.187495231628418, 0.000635, 0.000635
DataValue, 0.00064500000000000007, 2.9937883000000006E-08, 2.127583265304565, 0.00064500000000000007, 0.00064500000000000007
DataValue, 0.00065500000000000009, 3.0830396E-08, 2.0679230690002441, 0.00065500000000000009, 0.00065500000000000009
DataValue, 0.000665, 2.9452016000000003E-08, 2.0071053504943852, 0.000665, 0.000665
DataValue, 0.000675, 3.1012682000000006E-08, 1.9474477767944343, 0.000675, 0.000675
DataValue, 0.00068500000000000006, 2.9749987E-08, 1.8877065181732182, 0.00068500000000000006, 0.00068500000000000006
DataValue, 0.00069500000000000009, 2.9938587000000005E-08, 1.8278219699859621, 0.00069500000000000009, 0.00069500000000000009
DataValue, 0.000705, 3.0329101E-08, 1.7673978805541992, 0.000705, 0.000705
DataValue, 0.000715, 3.0284934E-08, 1.707932233810425, 0.000715, 0.000715
DataValue, 0.00072500000000000006, 3.1136778000000005E-08, 1.6478593349456792, 0.00072500000000000006, 0.00072500000000000006
DataValue, 0.00073500000000000008, 3.1393384000000005E-08, 1.5874576568603522, 0.00073500000000000008, 0.00073500000000000008
DataValue, 0.000745, 3.0603236E-08, 1.5279198884963992, 0.000745, 0.000745
DataValue, 0.000755, 3.0974121000000005E-08, 1.4680261611938481, 0.000755, 0.000755
DataValue, 0.00076500000000000005, 3.0929950000000004E-08, 1.4077326059341431, 0.00076500000000000005, 0.00076500000000000005
DataValue, 0.00077500000000000008, 3.1273494000000003E-08, 1.3477319478988652, 0.00077500000000000008, 0.00077500000000000008
DataValue, 0.000785, 2.9224857000000003E-08, 1.2878861427307131, 0.000785, 0.000785
DataValue, 0.000795, 3.1629657E-08, 1.2278009653091431, 0.000795, 0.000795
DataValue, 0.000805, 3.1342203000000005E-08, 1.16781747341156, 0.000805, 0.000805
DataValue, 0.00081500000000000008, 3.0378882000000006E-08, 1.108024477958679, 0.00081500000000000008, 0.00081500000000000008
DataValue, 0.0008250000000000001, 3.0293346E-08, 1.0482102632522581, 0.0008250000000000001, 0.0008250000000000001
DataValue, 0.000835, 3.1518884E-08, 0.987855494022369, 0.000835, 0.000835
DataValue, 0.000845, 3.1449474000000005E-08, 0.927947342395782, 0.000845, 0.000845
DataValue, 0.00085500000000000007, 3.0996556E-08, 0.868330001831055, 0.00085500000000000007, 0.00085500000000000007
DataValue, 0.0008650000000000001, 3.1019695E-08, 0.80824518203735307, 0.0008650000000000001, 0.0008650000000000001
DataValue, 0.000875, 3.0556961000000004E-08, 0.747855126857758, 0.000875, 0.000875
DataValue, 0.000885, 3.1011982E-08, 0.6879885196685791, 0.000885, 0.000885
DataValue, 0.00089500000000000007, 3.0808661E-08, 0.628250777721405, 0.00089500000000000007, 0.00089500000000000007
DataValue, 0.0009050000000000001, 3.075257E-08, 0.567839622497559, 0.0009050000000000001, 0.0009050000000000001
DataValue, 0.000915, 3.0889989E-08, 0.508098006248474, 0.000915, 0.000915
DataValue, 0.000925, 3.1935340000000004E-08, 0.448495805263519, 0.000925, 0.000925
DataValue, 0.00093500000000000007, 3.1590396E-08, 0.388319432735443, 0.00093500000000000007, 0.00093500000000000007
DataValue, 0.00094500000000000009, 3.0451798E-08, 0.32818636298179604, 0.00094500000000000009, 0.00094500000000000009
DataValue, 0.000955, 3.1191465000000004E-08, 0.268762618303299, 0.000955, 0.000955
DataValue, 0.000965, 3.1295929000000005E-08, 0.208622872829437, 0.000965, 0.000965
DataValue, 0.00097500000000000006, 3.1952165000000003E-08, 0.14803747832775102, 0.00097500000000000006, 0.00097500000000000006
DataValue, 0.000985, 2.9031352000000003E-08, 0.08849967271089601, 0.000985, 0.000985
DataValue, 0.000995, 3.2051023000000004E-08, 0.028777411207557002, 0.000995, 0.000995
DataValue, 0.001005, 3.2102903000000005E-08, -0.031492937356234, 0.001005, 0.001005
DataValue, 0.001015, 3.0939066000000004E-08, -0.091541863977909, 0.001015, 0.001015
DataValue, 0.001025, 3.1998439000000004E-08, -0.15128031373024, 0.001025, 0.001025
DataValue, 0.0010350000000000001, 3.1001466000000004E-08, -0.21120886504650102, 0.0010350000000000001, 0.0010350000000000001
DataValue, 0.0010450000000000001, 3.1895375000000006E-08, -0.27136409282684304, 0.0010450000000000001, 0.0010450000000000001
DataValue, 0.0010550000000000002, 3.2444344E-08, -0.331125438213348, 0.0010550000000000002, 0.0010550000000000002
DataValue, 0.001065, 3.2377038000000005E-08, -0.39107754826545704, 0.001065, 0.001065
DataValue, 0.001075, 3.2513753E-08, -0.45104974508285506, 0.001075, 0.001075
DataValue, 0.001085, 3.373929E-08, -0.51086950302124, 0.001085, 0.001085
DataValue, 0.001095, 3.3183312E-08, -0.570666372776031, 0.001095, 0.001095
DataValue, 0.001105, 3.4118589E-08, -0.631119787693024, 0.001105, 0.001105
DataValue, 0.001115, 3.4292466E-08, -0.69139152765274, 0.001115, 0.001115
DataValue, 0.0011250000000000001, 3.5884678E-08, -0.75108563899993908, 0.0011250000000000001, 0.0011250000000000001
DataValue, 0.0011350000000000002, 3.6122355E-08, -0.81079488992691007, 0.0011350000000000002, 0.0011350000000000002
DataValue, 0.001145, 3.6595601E-08, -0.871586561203003, 0.001145, 0.001145
DataValue, 0.001155, 3.9237378000000004E-08, -0.93154889345169112, 0.001155, 0.001155
DataValue, 0.001165, 4.0124277E-08, -0.99079173803329512, 0.001165, 0.001165
DataValue, 0.001175, 4.1920515E-08, -1.0512722730636601, 0.001175, 0.001175
DataValue, 0.001185, 4.5351737E-08, -1.111164808273315, 0.001185, 0.001185
DataValue, 0.001195, 4.9193105000000006E-08, -1.170998334884644, 0.001195, 0.001195
DataValue, 0.0012050000000000001, 5.7229901E-08, -1.2310395240783691, 0.0012050000000000001, 0.0012050000000000001
DataValue, 0.0012150000000000002, 6.3119906E-08, -1.291143417358398, 0.0012150000000000002, 0.0012150000000000002
DataValue, 0.0012250000000000002, 7.2938221000000009E-08, -1.3509286642074592, 0.0012250000000000002, 0.0012250000000000002
DataValue, 0.001235, 8.1643172E-08, -1.4108321666717532, 0.001235, 0.001235
DataValue, 0.001245, 9.4915841E-08, -1.471467971801758, 0.001245, 0.001245
DataValue, 0.001255, 1.0341957300000001E-07, -1.5312654972076421, 0.001255, 0.001255
DataValue, 0.001265, 1.0378765600000001E-07, -1.591133117675781, 0.001265, 0.001265
DataValue, 0.001275, 9.8424181E-08, -1.6512957811355591, 0.001275, 0.001275
DataValue, 0.0012850000000000001, 8.897745800000001E-08, -1.710967421531677, 0.0012850000000000001, 0.0012850000000000001
DataValue, 0.0012950000000000001, 7.7775859000000012E-08, -1.770837068557739, 0.0012950000000000001, 0.0012950000000000001
DataValue, 0.0013050000000000002, 6.8829728000000008E-08, -1.8307462930679321, 0.0013050000000000002, 0.0013050000000000002
DataValue, 0.001315, 5.8972155000000007E-08, -1.8910127878189091, 0.001315, 0.001315
DataValue, 0.001325, 5.2729494000000007E-08, -1.9510476589202881, 0.001325, 0.001325
DataValue, 0.001335, 5.0910117000000005E-08, -2.0106303691864014, 0.001335, 0.001335
DataValue, 0.001345, 4.6869634000000005E-08, -2.0709328651428223, 0.001345, 0.001345
DataValue, 0.001355, 4.4763507E-08, -2.130865335464478, 0.001355, 0.001355
DataValue, 0.0013650000000000001, 4.3054207000000006E-08, -2.1904358863830571, 0.0013650000000000001, 0.0013650000000000001
DataValue, 0.0013750000000000001, 4.2526974000000006E-08, -2.250388383865356, 0.0013750000000000001, 0.0013750000000000001
DataValue, 0.0013850000000000002, 4.2715570000000005E-08, -2.3108301162719731, 0.0013850000000000002, 0.0013850000000000002
DataValue, 0.0013950000000000002, 4.3607379000000006E-08, -2.3707330226898193, 0.0013950000000000002, 0.0013950000000000002
DataValue, 0.001405, 4.3893433000000004E-08, -2.43011474609375, 0.001405, 0.001405
DataValue, 0.001415, 4.5032031E-08, -2.4903700351715092, 0.001415, 0.001415
DataValue, 0.001425, 4.7047013000000005E-08, -2.5505850315093994, 0.001425, 0.001425
DataValue, 0.001435, 4.8491998E-08, -2.6100599765777592, 0.001435, 0.001435
DataValue, 0.001445, 5.1581079000000006E-08, -2.6702277660369873, 0.001445, 0.001445
DataValue, 0.0014550000000000001, 5.3769934E-08, -2.7301933765411381, 0.0014550000000000001, 0.0014550000000000001
DataValue, 0.0014650000000000002, 5.6295324000000006E-08, -2.79017186164856, 0.0014650000000000002, 0.0014650000000000002
DataValue, 0.0014750000000000002, 6.0417840000000007E-08, -2.8500092029571533, 0.0014750000000000002, 0.0014750000000000002
DataValue, 0.001485, 6.1703673E-08, -2.9100763797760014, 0.001485, 0.001485
DataValue, 0.001495, 6.9296668E-08, -2.96967625617981, 0.001495, 0.001495
DataValue, 0.001505, 2.2176623000000003E-08, -2.9699947834014893, 0.001505, 0.001505
DataValue, 0.001515, 1.2685027000000001E-08, -2.9106273651123051, 0.001515, 0.001515
DataValue, 0.001525, 6.423435E-09, -2.8506677150726323, 0.001525, 0.001525
DataValue, 0.0015350000000000001, 1.9314380000000003E-09, -2.7906124591827393, 0.0015350000000000001, 0.0015350000000000001
DataValue, 0.0015450000000000002, -1.6056500000000001E-09, -2.7310395240783691, 0.0015450000000000002, 0.0015450000000000002
DataValue, 0.0015550000000000002, -4.42901E-09, -2.671078205108643, 0.0015550000000000002, 0.0015550000000000002
DataValue, 0.0015650000000000002, -5.9721490000000008E-09, -2.6108736991882324, 0.0015650000000000002, 0.0015650000000000002
DataValue, 0.001575, -7.7908210000000009E-09, -2.5512268543243413, 0.001575, 0.001575
DataValue, 0.001585, -8.7618560000000014E-09, -2.4912247657775883, 0.001585, 0.001585
DataValue, 0.001595, -1.1930863E-08, -2.4310591220855713, 0.001595, 0.001595
DataValue, 0.001605, -1.0620492000000002E-08, -2.3713457584381104, 0.001605, 0.001605
DataValue, 0.0016150000000000001, -1.1988353000000001E-08, -2.3115887641906743, 0.0016150000000000001, 0.0016150000000000001
DataValue, 0.0016250000000000001, -1.3166214E-08, -2.25145697593689, 0.0016250000000000001, 0.0016250000000000001
DataValue, 0.0016350000000000002, -1.4051012000000002E-08, -2.1913948059082031, 0.0016350000000000002, 0.0016350000000000002
DataValue, 0.0016450000000000002, -1.296079E-08, -2.1318016052246094, 0.0016450000000000002, 0.0016450000000000002
DataValue, 0.001655, -1.3484517000000001E-08, -2.0717871189117432, 0.001655, 0.001655
DataValue, 0.001665, -1.5953818E-08, -2.0115878582000732, 0.001665, 0.001665
DataValue, 0.001675, -1.4299905000000002E-08, -1.9516168832778931, 0.001675, 0.001675
DataValue, 0.001685, -1.513212E-08, -1.8921300172805791, 0.001685, 0.001685
DataValue, 0.0016950000000000001, -1.52457E-08, -1.83202338218689, 0.0016950000000000001, 0.0016950000000000001
DataValue, 0.0017050000000000001, -1.3792303000000001E-08, -1.7718576192855842, 0.0017050000000000001, 0.0017050000000000001
DataValue, 0.0017150000000000002, -1.3957063E-08, -1.7120832204818732, 0.0017150000000000002, 0.0017150000000000002
DataValue, 0.0017250000000000002, -1.6095441E-08, -1.6522684097290041, 0.0017250000000000002, 0.0017250000000000002
DataValue, 0.0017350000000000002, -1.5198024000000003E-08, -1.5919523239135742, 0.0017350000000000002, 0.0017350000000000002
DataValue, 0.001745, -1.5354370000000002E-08, -1.531943202018738, 0.001745, 0.001745
DataValue, 0.001755, -1.4893743000000002E-08, -1.4723595380783081, 0.001755, 0.001755
DataValue, 0.001765, -1.5517729E-08, -1.4117646217346191, 0.001765, 0.001765
DataValue, 0.001775, -1.5363485000000002E-08, -1.3517365455627441, 0.001775, 0.001775
DataValue, 0.0017850000000000001, -1.4717766000000001E-08, -1.2923628091812132, 0.0017850000000000001, 0.0017850000000000001
DataValue, 0.0017950000000000002, -1.4683411000000002E-08, -1.2323757410049441, 0.0017950000000000002, 0.0017950000000000002
DataValue, 0.0018050000000000002, -1.4814519000000001E-08, -1.1719790697097781, 0.0018050000000000002, 0.0018050000000000002
DataValue, 0.0018150000000000002, -1.5085847E-08, -1.1123166084289551, 0.0018150000000000002, 0.0018150000000000002
DataValue, 0.001825, -1.5786254E-08, -1.0522620677948, 0.001825, 0.001825
DataValue, 0.001835, -1.5021344E-08, -0.99153798818588212, 0.001835, 0.001835
DataValue, 0.001845, -1.4518650000000002E-08, -0.931997716426849, 0.001845, 0.001845
DataValue, 0.001855, -1.5051492E-08, -0.87214839458465609, 0.001855, 0.001855
DataValue, 0.0018650000000000001, -1.4449241000000002E-08, -0.81192100048065208, 0.0018650000000000001, 0.0018650000000000001
DataValue, 0.0018750000000000002, -1.5573116E-08, -0.75188153982162509, 0.0018750000000000002, 0.0018750000000000002
DataValue, 0.0018850000000000002, -1.4710754000000001E-08, -0.692440211772919, 0.0018850000000000002, 0.0018850000000000002
