
SetupTitle, FE PUND 3V - reverse
ApplicationTest, WGFMU Pattern Editor, Public
TestParameter, Name, ExecutionMode, Enable1, Channel1, OperationMode1, VForceRange1, InitMeasRange1, Enable2, Channel2, OperationMode2, VForceRange2, InitMeasRange2, RepeatCount, WaveformCh1, WaveformCh2, MeasurementEvent, Output_to_File_for_PatternValidation, Output_Enable, Output_Filename, DataDisplay_for_RunVector, DataDisplay_PatternValidation, DataDisplay_Mode, LogToFile, LogFile, WarningLevel, IForceRange1, IForceRange2, Result_Update_Interval_s
TestParameter, Value, Run Vector, Enable, WGFMU1:RS	RSWGFMU, Fast IV Imeas, Auto, 100uA (Imeas), Enable, WGFMU2:RS	RSWGFMU, PG Vmeas, Auto, 5V (Vmeas), 1, , Disable, C:\WGFMUPatternEditor_Pattern.csv, , Disable, x(time)_y(meas), Disable, C:\WGFMUPatternEditor_Log.log, 2, 10mA, 10mA, 10
MetaData, TestRecord.EntryPoint, true
MetaData, TestRecord.RecordTime, 03/01/2021 10:56:05
MetaData, TestRecord.TestTarget, FlashIntA_1_25um_D1
MetaData, TestRecord.IterationIndex, 1
MetaData, TestRecord.Preservation, true
MetaData, TestRecord.Flag, 
MetaData, TestRecord.Remarks, 
MetaData, TestRecord.LinkKey, 38d8b72d-0d2a-43b5-9c97-7eb030a7483d
MetaData, TestRecord.Parameters, 
Dimension1, 5000, 5000, 5000, 5000, 5000
Dimension2, 1, 1, 1, 1, 1
DataName, Time, MeasResult1_value, MeasResult2_value, MeasResult1_time, MeasResult2_time
DataValue, 5.0000000000000008E-07, 9.227072E-09, 0.00028421336901400003, 5.0000000000000008E-07, 5.0000000000000008E-07
DataValue, 1.5E-06, 1.9560774000000003E-08, -2.5560333597000002E-05, 1.5E-06, 1.5E-06
DataValue, 2.5E-06, 2.5871961000000002E-08, 0.000301814143313, 2.5E-06, 2.5E-06
DataValue, 3.5000000000000004E-06, 2.291701E-09, -2.2040178010000003E-05, 3.5000000000000004E-06, 3.5000000000000004E-06
DataValue, 4.5E-06, 2.3305873000000003E-08, 5.8923404140000008E-05, 4.5E-06, 4.5E-06
DataValue, 5.5000000000000007E-06, -4.4356080000000008E-09, -1.4999865925000002E-05, 5.5000000000000007E-06, 5.5000000000000007E-06
DataValue, 6.5000000000000004E-06, 1.5330198000000003E-08, 3.076215944E-05, 6.5000000000000004E-06, 6.5000000000000004E-06
DataValue, 7.5E-06, -2.1288557E-08, 0.00037925757351300003, 7.5E-06, 7.5E-06
DataValue, 8.5E-06, 2.7120327000000002E-08, -4.6681267122000005E-05, 8.5E-06, 8.5E-06
DataValue, 9.5E-06, -1.35678E-10, -7.484251546E-05, 9.5E-06, 9.5E-06
DataValue, 1.0500000000000001E-05, 1.1446391000000001E-08, -4.3161111535E-05, 1.0500000000000001E-05, 1.0500000000000001E-05
DataValue, 1.15E-05, 1.3901030000000001E-09, 0.00031941494671600004, 1.15E-05, 1.15E-05
DataValue, 1.25E-05, 3.49798E-10, 0.00013988699356600002, 1.25E-05, 1.25E-05
DataValue, 1.3500000000000001E-05, 1.2209281E-08, -2.5560333597000002E-05, 1.3500000000000001E-05, 1.3500000000000001E-05
DataValue, 1.45E-05, 4.719081E-09, 5.1883092965E-05, 1.45E-05, 1.45E-05
DataValue, 1.55E-05, 5.481972E-09, -1.1479710338E-05, 1.55E-05, 1.55E-05
DataValue, 1.65E-05, 1.3249586000000002E-08, -0.00010652391938500001, 1.65E-05, 1.65E-05
DataValue, 1.7500000000000002E-05, 2.7050973000000003E-08, -0.000257890613284, 1.7500000000000002E-05, 1.7500000000000002E-05
DataValue, 1.8500000000000002E-05, -1.4699956000000002E-08, -0.00010652391938500001, 1.8500000000000002E-05, 1.8500000000000002E-05
DataValue, 1.95E-05, 2.3305873000000003E-08, 0.00015044744941400002, 1.95E-05, 1.95E-05
DataValue, 2.05E-05, 1.5288110000000001E-09, -0.000247330142884, 2.05E-05, 2.05E-05
DataValue, 2.15E-05, 1.9907542E-08, 3.076215944E-05, 2.15E-05, 2.15E-05
DataValue, 2.25E-05, -1.5324138E-08, -0.00011708438250900001, 2.25E-05, 2.25E-05
DataValue, 2.3500000000000002E-05, 1.1585097E-08, -0.000419817777583, 2.3500000000000002E-05, 2.3500000000000002E-05
DataValue, 2.4500000000000003E-05, 3.5304065E-08, -0.00055006355978500009, 2.4500000000000003E-05, 2.4500000000000003E-05
DataValue, 2.5500000000000003E-05, -1.4491895000000001E-08, -9.192427230000001E-07, 2.5500000000000003E-05, 2.5500000000000003E-05
DataValue, 2.65E-05, 4.9964960000000007E-09, -0.00018396734958500002, 2.65E-05, 2.65E-05
DataValue, 2.75E-05, 1.3110879E-08, -0.00018748750153500002, 2.75E-05, 2.75E-05
DataValue, 2.85E-05, 4.3723130000000007E-09, -0.000307172798784, 2.85E-05, 2.85E-05
DataValue, 2.9500000000000002E-05, 1.2347988E-08, 5.8923404140000008E-05, 2.9500000000000002E-05, 2.9500000000000002E-05
DataValue, 3.0500000000000003E-05, -6.2388040000000009E-09, -1.4999865925000002E-05, 3.0500000000000003E-05, 3.0500000000000003E-05
DataValue, 3.15E-05, 2.3305873000000003E-08, -0.000345894513885, 3.15E-05, 3.15E-05
DataValue, 3.2500000000000004E-05, -8.527477E-09, -0.00013116501213500002, 3.2500000000000004E-05, 3.2500000000000004E-05
DataValue, 3.35E-05, 3.613631E-08, -0.00033885420998600003, 3.35E-05, 3.35E-05
DataValue, 3.4500000000000005E-05, 9.712548E-09, -0.00031421310268300005, 3.4500000000000005E-05, 3.4500000000000005E-05
DataValue, 3.55E-05, 1.9699481E-08, -0.00059582554968100007, 3.55E-05, 3.55E-05
DataValue, 3.65E-05, 7.285168E-09, -0.00042685808148200003, 3.65E-05, 3.65E-05
DataValue, 3.7500000000000003E-05, 5.0658500000000007E-09, -0.000398696836783, 3.7500000000000003E-05, 3.7500000000000003E-05
DataValue, 3.85E-05, 8.880304E-09, -9.2443289759E-05, 3.85E-05, 3.85E-05
DataValue, 3.9500000000000005E-05, 2.0739787E-08, -0.000289572024485, 3.9500000000000005E-05, 3.9500000000000005E-05
DataValue, 4.05E-05, 8.325474E-09, -0.000490220903885, 4.05E-05, 4.05E-05
DataValue, 4.1500000000000006E-05, 2.5039716000000003E-08, -0.00020156812388400002, 4.1500000000000006E-05, 4.1500000000000006E-05
DataValue, 4.25E-05, 2.3444581E-08, -0.000307172798784, 4.25E-05, 4.25E-05
DataValue, 4.35E-05, -7.59861E-10, -0.000124124693684, 4.35E-05, 4.35E-05
DataValue, 4.4500000000000004E-05, 1.9075298000000003E-08, -0.000176927031134, 4.4500000000000004E-05, 4.4500000000000004E-05
DataValue, 4.55E-05, 2.1849445000000002E-08, -0.00043389841448500003, 4.55E-05, 4.55E-05
DataValue, 4.6500000000000005E-05, 8.3527400000000009E-10, -0.00018748750153500002, 4.6500000000000005E-05, 4.6500000000000005E-05
DataValue, 4.75E-05, 1.4914075E-08, -0.00022972936858400001, 4.75E-05, 4.75E-05
DataValue, 4.85E-05, 3.3778282000000004E-08, -0.00044093871838400006, 4.85E-05, 4.85E-05
DataValue, 4.9500000000000004E-05, 1.4081831E-08, -0.00052542245248300007, 4.9500000000000004E-05, 4.9500000000000004E-05
DataValue, 5.05E-05, 1.0128670000000002E-08, -0.00062046665698300009, 5.05E-05, 5.05E-05
DataValue, 5.1500000000000005E-05, -8.29215E-10, -0.00056766433408500007, 5.1500000000000005E-05, 5.1500000000000005E-05
DataValue, 5.25E-05, 1.0475438E-08, -0.00059230544138700008, 5.25E-05, 5.25E-05
DataValue, 5.3500000000000006E-05, 7.2158150000000005E-09, -0.00026141077978500003, 5.3500000000000006E-05, 5.3500000000000006E-05
DataValue, 5.45E-05, 1.0475438E-08, -0.00046557979658200005, 5.45E-05, 5.45E-05
DataValue, 5.55E-05, -6.21154E-10, -0.00057470460888, 5.55E-05, 5.55E-05
DataValue, 5.6500000000000005E-05, 1.4567307000000001E-08, -0.00021916889818400002, 5.6500000000000005E-05, 5.6500000000000005E-05
DataValue, 5.75E-05, 1.5885027E-08, -0.000127644845634, 5.75E-05, 5.75E-05
DataValue, 5.8500000000000006E-05, 2.499763E-09, -0.000289572024485, 5.8500000000000006E-05, 5.8500000000000006E-05
DataValue, 5.95E-05, 2.5386484000000002E-08, -0.000849276781082, 5.95E-05, 5.95E-05
DataValue, 6.0500000000000007E-05, -1.9416008000000003E-08, -0.000226209216635, 6.0500000000000007E-05, 6.0500000000000007E-05
DataValue, 6.15E-05, 1.806226E-09, -0.00026141077978500003, 6.15E-05, 6.15E-05
DataValue, 6.25E-05, 4.3029590000000007E-09, -0.000521902285982, 6.25E-05, 6.25E-05
DataValue, 6.35E-05, 4.5110200000000004E-09, -0.00021916889818400002, 6.35E-05, 6.35E-05
DataValue, 6.4500000000000009E-05, -7.59861E-10, -0.00027197125018600004, 6.4500000000000009E-05, 6.4500000000000009E-05
DataValue, 6.55E-05, 2.0184958E-08, -0.00021212859428500002, 6.55E-05, 6.55E-05
DataValue, 6.65E-05, 4.19152E-10, -3.2600644772000005E-05, 6.65E-05, 6.65E-05
DataValue, 6.75E-05, -8.111354000000001E-09, 0.000136366827064, 6.75E-05, 6.75E-05
DataValue, 6.85E-05, 1.6023735E-08, -0.00016636656073400002, 6.85E-05, 6.85E-05
DataValue, 6.9500000000000009E-05, -1.7057982E-08, 4.484278179E-05, 6.9500000000000009E-05, 6.9500000000000009E-05
DataValue, 7.05E-05, 1.5538259E-08, -1.4999865925000002E-05, 7.05E-05, 7.05E-05
DataValue, 7.15E-05, 1.4428600000000001E-08, 4.8362937378000005E-05, 7.15E-05, 7.15E-05
DataValue, 7.25E-05, -3.742071E-09, 8.0044337665E-05, 7.25E-05, 7.25E-05
DataValue, 7.3500000000000011E-05, 1.3318941000000001E-08, 4.8362937378000005E-05, 7.3500000000000011E-05, 7.3500000000000011E-05
DataValue, 7.4500000000000008E-05, -5.337206E-09, 8.3564496890000013E-05, 7.4500000000000008E-05, 7.4500000000000008E-05
DataValue, 7.55E-05, 5.82874E-09, -2.5560333597000002E-05, 7.55E-05, 7.55E-05
DataValue, 7.65E-05, 2.2751044E-08, 0.00014692729746500002, 7.65E-05, 7.65E-05
DataValue, 7.75E-05, -1.7820872E-08, -6.4282045059000007E-05, 7.75E-05, 7.75E-05
DataValue, 7.8500000000000011E-05, -1.245337E-09, -0.000145245634485, 7.8500000000000011E-05, 7.8500000000000011E-05
DataValue, 7.9500000000000008E-05, 1.0059316E-08, -0.00012060454173500001, 7.9500000000000008E-05, 7.9500000000000008E-05
DataValue, 8.05E-05, 1.6578564000000002E-08, -9.2443289759E-05, 8.05E-05, 8.05E-05
DataValue, 8.15E-05, -1.7404750000000002E-08, 5.8923404140000008E-05, 8.15E-05, 8.15E-05
DataValue, 8.25E-05, 8.325474E-09, -0.00018396734958500002, 8.25E-05, 8.25E-05
DataValue, 8.350000000000001E-05, 1.9214005E-08, -0.00033533404348400005, 8.350000000000001E-05, 8.350000000000001E-05
DataValue, 8.4500000000000008E-05, 5.551326E-09, -0.000205088275834, 8.4500000000000008E-05, 8.4500000000000008E-05
DataValue, 8.55E-05, 1.2902818000000001E-08, -0.000110044071334, 8.55E-05, 8.55E-05
DataValue, 8.65E-05, 8.741596E-09, -0.00013116501213500002, 8.65E-05, 8.65E-05
DataValue, 8.75E-05, 8.810949E-09, -0.00010300376015900001, 8.75E-05, 8.75E-05
DataValue, 8.850000000000001E-05, 1.3665709000000001E-08, 4.484278179E-05, 8.850000000000001E-05, 8.850000000000001E-05
DataValue, 8.9500000000000007E-05, 1.5122136000000002E-08, -7.484251546E-05, 8.9500000000000007E-05, 8.9500000000000007E-05
DataValue, 9.05E-05, 9.2964260000000011E-09, -0.000226209216635, 9.05E-05, 9.05E-05
DataValue, 9.15E-05, 1.3804416000000001E-08, -0.00041277747368400003, 9.15E-05, 9.15E-05
DataValue, 9.2500000000000012E-05, 1.3041525000000001E-08, -0.00035645498428500005, 9.2500000000000012E-05, 9.2500000000000012E-05
DataValue, 9.3500000000000009E-05, 5.0658500000000007E-09, -0.00062046665698300009, 9.3500000000000009E-05, 9.3500000000000009E-05
DataValue, 9.45E-05, 4.3029590000000007E-09, -0.00036701545468500004, 9.45E-05, 9.45E-05
DataValue, 9.55E-05, 3.5234709E-08, -0.00045501932618200006, 9.55E-05, 9.55E-05
DataValue, 9.65E-05, 1.0267377000000001E-08, -0.00018748750153500002, 9.65E-05, 9.65E-05
DataValue, 9.7500000000000012E-05, 9.365779E-09, -0.000300132494885, 9.7500000000000012E-05, 9.7500000000000012E-05
DataValue, 9.8500000000000009E-05, -5.40656E-09, -4.3161111535E-05, 9.8500000000000009E-05, 9.8500000000000009E-05
DataValue, 9.95E-05, 1.6578564000000002E-08, -0.00020156812388400002, 9.95E-05, 9.95E-05
DataValue, 0.0001005, -2.2997385000000003E-07, 0.0031496202573180004, 0.0001005, 0.0001005
DataValue, 0.0001015, -2.5563471700000003E-07, 0.010309617035091001, 0.0001015, 0.0001015
DataValue, 0.00010250000000000001, -3.0466779300000003E-07, 0.018624225631356, 0.00010250000000000001, 0.00010250000000000001
DataValue, 0.00010350000000000001, -2.52860559E-07, 0.025580052286386, 0.00010350000000000001, 0.00010350000000000001
DataValue, 0.0001045, -2.7415217100000004E-07, 0.032989982515573, 0.0001045, 0.0001045
DataValue, 0.0001055, -2.96206622E-07, 0.040378786623478005, 0.0001055, 0.0001055
DataValue, 0.0001065, -2.80810127E-07, 0.048260416835546, 0.0001065, 0.0001065
DataValue, 0.00010750000000000001, -2.93709888E-07, 0.055395770817995, 0.00010750000000000001, 0.00010750000000000001
DataValue, 0.00010850000000000001, -3.0570808500000004E-07, 0.063368923962116, 0.00010850000000000001, 0.00010850000000000001
DataValue, 0.0001095, -3.0813546900000003E-07, 0.070620447397232, 0.0001095, 0.0001095
DataValue, 0.0001105, -3.12574116E-07, 0.078100778162479012, 0.0001105, 0.0001105
DataValue, 0.00011150000000000001, -2.58686271E-07, 0.085056602954864, 0.00011150000000000001, 0.00011150000000000001
DataValue, 0.00011250000000000001, -3.30536722E-07, 0.092885434627533, 0.00011250000000000001, 0.00011250000000000001
DataValue, 0.00011350000000000001, -3.4607194300000003E-07, 0.100664973258972, 0.00011350000000000001, 0.00011350000000000001
DataValue, 0.0001145, -3.05985509E-07, 0.107761606574058, 0.0001145, 0.0001145
DataValue, 0.0001155, -3.2429488800000005E-07, 0.115118734538555, 0.0001155, 0.0001155
DataValue, 0.00011650000000000001, -3.2034171200000004E-07, 0.122690588235855, 0.00011650000000000001, 0.00011650000000000001
DataValue, 0.00011750000000000001, -3.3559953700000003E-07, 0.130290612578392, 0.00011750000000000001, 0.00011750000000000001
DataValue, 0.00011850000000000001, -3.15348245E-07, 0.13754212856292702, 0.00011850000000000001, 0.00011850000000000001
DataValue, 0.0001195, -3.4295104000000005E-07, 0.144723251461983, 0.0001195, 0.0001195
DataValue, 0.0001205, -3.5182830500000004E-07, 0.152372539043427, 0.0001205, 0.0001205
DataValue, 0.00012150000000000001, -3.33588275E-07, 0.15979655086994202, 0.00012150000000000001, 0.00012150000000000001
DataValue, 0.0001225, -3.5605887700000003E-07, 0.167107909917831, 0.0001225, 0.0001225
DataValue, 0.00012350000000000002, -3.5647499900000004E-07, 0.17470088601112402, 0.00012350000000000002, 0.00012350000000000002
DataValue, 0.00012450000000000002, -3.4419940700000004E-07, 0.182515636086464, 0.00012450000000000002, 0.00012450000000000002
DataValue, 0.00012550000000000002, -3.5016381600000003E-07, 0.18956299126148202, 0.00012550000000000002, 0.00012550000000000002
DataValue, 0.0001265, -3.6334103000000005E-07, 0.197381258010864, 0.0001265, 0.0001265
DataValue, 0.0001275, -3.84216492E-07, 0.20553745329380002, 0.0001275, 0.0001275
DataValue, 0.0001285, -3.8685192300000004E-07, 0.2135950922966, 0.0001285, 0.0001285
DataValue, 0.0001295, -3.6569903700000005E-07, 0.220550924539566, 0.0001295, 0.0001295
DataValue, 0.0001305, -3.5640565000000005E-07, 0.227985486388206, 0.0001305, 0.0001305
DataValue, 0.0001315, -3.57376592E-07, 0.235698148608208, 0.0001315, 0.0001315
DataValue, 0.0001325, -4.00029137E-07, 0.24310104548931102, 0.0001325, 0.0001325
DataValue, 0.00013350000000000002, -3.7520050000000004E-07, 0.25046169757843, 0.00013350000000000002, 0.00013350000000000002
DataValue, 0.00013450000000000002, -3.7915367600000005E-07, 0.257920891046524, 0.00013450000000000002, 0.00013450000000000002
DataValue, 0.00013550000000000001, -3.7457633100000004E-07, 0.26557019352912903, 0.00013550000000000001, 0.00013550000000000001
DataValue, 0.0001365, -4.0072265500000005E-07, 0.27298715710639904, 0.0001365, 0.0001365
DataValue, 0.0001375, -3.8692127200000003E-07, 0.28066110610961903, 0.0001375, 0.0001375
DataValue, 0.0001385, -3.7568597100000005E-07, 0.28809213638305703, 0.0001385, 0.0001385
DataValue, 0.0001395, -3.93509879E-07, 0.295308470726013, 0.0001395, 0.0001395
DataValue, 0.0001405, -4.22152965E-07, 0.30271840095520003, 0.0001405, 0.0001405
DataValue, 0.0001415, -3.8435518900000005E-07, 0.310054391622543, 0.0001415, 0.0001415
DataValue, 0.00014250000000000002, -4.0328876600000003E-07, 0.31750658154487604, 0.00014250000000000002, 0.00014250000000000002
DataValue, 0.00014350000000000002, -4.09183826E-07, 0.324779212474823, 0.00014350000000000002, 0.00014350000000000002
DataValue, 0.00014450000000000002, -4.00445259E-07, 0.33227011561393704, 0.00014450000000000002, 0.00014450000000000002
DataValue, 0.0001455, -4.2645288500000005E-07, 0.33979266881942705, 0.0001455, 0.0001455
DataValue, 0.0001465, -4.0911447700000003E-07, 0.34736806154251104, 0.0001465, 0.0001465
DataValue, 0.0001475, -4.1847721400000003E-07, 0.35479909181594804, 0.0001475, 0.0001475
DataValue, 0.0001485, -4.2430292500000003E-07, 0.362462490797043, 0.0001485, 0.0001485
DataValue, 0.0001495, -4.30891532E-07, 0.36985832452774003, 0.0001495, 0.0001495
DataValue, 0.0001505, -4.2777060100000003E-07, 0.377574503421783, 0.0001505, 0.0001505
DataValue, 0.0001515, -4.4212683300000006E-07, 0.38482955098152205, 0.0001515, 0.0001515
DataValue, 0.00015250000000000002, -4.3047541000000005E-07, 0.39235916733741805, 0.00015250000000000002, 0.00015250000000000002
DataValue, 0.00015350000000000002, -4.44900962E-07, 0.40005421638488803, 0.00015350000000000002, 0.00015350000000000002
DataValue, 0.00015450000000000002, -4.90674438E-07, 0.40834066271781905, 0.00015450000000000002, 0.00015450000000000002
DataValue, 0.0001555, -4.24372274E-07, 0.415303528308868, 0.0001555, 0.0001555
DataValue, 0.0001565, -4.32001173E-07, 0.423002123832703, 0.0001565, 0.0001565
DataValue, 0.0001575, -4.67648988E-07, 0.43062677979469305, 0.0001575, 0.0001575
DataValue, 0.0001585, -4.5086540000000006E-07, 0.43765300512313804, 0.0001585, 0.0001585
DataValue, 0.0001595, -4.5516532100000004E-07, 0.445288240909576, 0.0001595, 0.0001595
DataValue, 0.0001605, -4.8235199300000006E-07, 0.452962160110474, 0.0001605, 0.0001605
DataValue, 0.00016150000000000002, -4.7340535E-07, 0.460072875022888, 0.00016150000000000002, 0.00016150000000000002
DataValue, 0.00016250000000000002, -4.5641368700000003E-07, 0.46784186363220204, 0.00016250000000000002, 0.00016250000000000002
DataValue, 0.00016350000000000002, -4.6612319700000005E-07, 0.475072264671326, 0.00016350000000000002, 0.00016350000000000002
DataValue, 0.00016450000000000001, -4.77913318E-07, 0.48253148794174205, 0.00016450000000000001, 0.00016450000000000001
DataValue, 0.0001655, -4.6265552100000005E-07, 0.490018844604492, 0.0001655, 0.0001655
DataValue, 0.0001665, -4.85472867E-07, 0.49766463041305503, 0.0001665, 0.0001665
DataValue, 0.0001675, -4.7423759500000005E-07, 0.504898548126221, 0.0001675, 0.0001675
DataValue, 0.0001685, -5.07180573E-07, 0.51205503940582309, 0.0001685, 0.0001685
DataValue, 0.0001695, -4.7555531100000004E-07, 0.519591689109802, 0.0001695, 0.0001695
DataValue, 0.0001705, -5.1217404E-07, 0.527209281921387, 0.0001705, 0.0001705
DataValue, 0.00017150000000000002, -4.9760979E-07, 0.53434818983078, 0.00017150000000000002, 0.00017150000000000002
DataValue, 0.00017250000000000002, -5.01562965E-07, 0.54230374097824108, 0.00017250000000000002, 0.00017250000000000002
DataValue, 0.00017350000000000002, -4.86374461E-07, 0.549681961536407, 0.00017350000000000002, 0.00017350000000000002
DataValue, 0.0001745, -5.05030641E-07, 0.557183444499969, 0.0001745, 0.0001745
DataValue, 0.0001755, -5.30622174E-07, 0.564625024795532, 0.0001755, 0.0001755
DataValue, 0.0001765, -5.06001584E-07, 0.57214409112930309, 0.0001765, 0.0001765
DataValue, 0.0001775, -5.34505944E-07, 0.57952934503555309, 0.0001775, 0.0001775
DataValue, 0.0001785, -5.2438031200000006E-07, 0.587199807167053, 0.0001785, 0.0001785
DataValue, 0.0001795, -5.2132873E-07, 0.594711780548096, 0.0001795, 0.0001795
DataValue, 0.00018050000000000002, -5.38597817E-07, 0.602139353752136, 0.00018050000000000002, 0.00018050000000000002
DataValue, 0.00018150000000000002, -5.80972937E-07, 0.60997873544693, 0.00018150000000000002, 0.00018150000000000002
DataValue, 0.00018250000000000002, -5.2868023200000009E-07, 0.617550551891327, 0.00018250000000000002, 0.00018250000000000002
DataValue, 0.00018350000000000002, -5.61137767E-07, 0.62529492378234908, 0.00018350000000000002, 0.00018350000000000002
DataValue, 0.0001845, -5.47197715E-07, 0.63253587484359708, 0.0001845, 0.0001845
DataValue, 0.0001855, -5.6176196500000006E-07, 0.64015698432922408, 0.0001855, 0.0001855
