
SetupTitle, FE PUND 2.5V - reverse
ApplicationTest, WGFMU Pattern Editor, Public
TestParameter, Name, ExecutionMode, Enable1, Channel1, OperationMode1, VForceRange1, InitMeasRange1, Enable2, Channel2, OperationMode2, VForceRange2, InitMeasRange2, RepeatCount, WaveformCh1, WaveformCh2, MeasurementEvent, Output_to_File_for_PatternValidation, Output_Enable, Output_Filename, DataDisplay_for_RunVector, DataDisplay_PatternValidation, DataDisplay_Mode, LogToFile, LogFile, WarningLevel, IForceRange1, IForceRange2, Result_Update_Interval_s
TestParameter, Value, Run Vector, Enable, WGFMU1:RS	RSWGFMU, Fast IV Imeas, Auto, 10uA (Imeas), Enable, WGFMU2:RS	RSWGFMU, PG Vmeas, Auto, 5V (Vmeas), 1, , Disable, C:\WGFMUPatternEditor_Pattern.csv, , Disable, x(time)_y(meas), Disable, C:\WGFMUPatternEditor_Log.log, 2, 10mA, 10mA, 10
MetaData, TestRecord.EntryPoint, true
MetaData, TestRecord.RecordTime, 03/01/2021 13:26:32
MetaData, TestRecord.TestTarget, FlashIntA_5_25um_D2
MetaData, TestRecord.IterationIndex, 15
MetaData, TestRecord.Preservation, true
MetaData, TestRecord.Flag, 
MetaData, TestRecord.Remarks, 
MetaData, TestRecord.LinkKey, d72fb7ec-e577-43a0-a639-0e1a86b72615
MetaData, TestRecord.Parameters, 
Dimension1, 5000, 5000, 5000, 5000, 5000
Dimension2, 1, 1, 1, 1, 1
DataName, Time, MeasResult1_value, MeasResult2_value, MeasResult1_time, MeasResult2_time
DataValue, 5.0000000000000008E-07, 8.784766E-09, -0.000581744941883, 5.0000000000000008E-07, 5.0000000000000008E-07
DataValue, 1.5E-06, 4.5290420000000005E-09, -0.000303652632283, 1.5E-06, 1.5E-06
DataValue, 2.5E-06, 1.52129E-09, -0.000405737169785, 2.5E-06, 2.5E-06
DataValue, 3.5000000000000004E-06, -6.3100820000000004E-09, -0.00044445888488600004, 3.5000000000000004E-06, 3.5000000000000004E-06
DataValue, 4.5E-06, 3.912067E-09, -0.00056766433408500007, 4.5E-06, 4.5E-06
DataValue, 5.5000000000000007E-06, 6.1686100000000009E-10, -0.000479660433484, 5.5000000000000007E-06, 5.5000000000000007E-06
DataValue, 6.5000000000000004E-06, -5.32955E-10, -0.000493741070386, 6.5000000000000004E-06, 6.5000000000000004E-06
DataValue, 7.5E-06, -2.236647E-09, -0.000564144167583, 7.5E-06, 7.5E-06
DataValue, 8.5E-06, 8.7146550000000015E-09, -0.000293092161883, 8.5E-06, 8.5E-06
DataValue, 9.5E-06, 7.7050600000000011E-09, -0.00029661232838400003, 9.5E-06, 9.5E-06
DataValue, 1.0500000000000001E-05, 1.948966E-09, -0.000490220903885, 1.0500000000000001E-05, 1.0500000000000001E-05
DataValue, 1.15E-05, -6.8018800000000009E-10, -0.000662708538584, 1.15E-05, 1.15E-05
DataValue, 1.25E-05, -3.077976E-09, -0.000521902285982, 1.25E-05, 1.25E-05
DataValue, 1.3500000000000001E-05, 6.79961E-10, -0.000384616228985, 1.3500000000000001E-05, 1.3500000000000001E-05
DataValue, 1.45E-05, 9.53393E-10, -0.000571184500586, 1.45E-05, 1.45E-05
DataValue, 1.55E-05, 2.818339E-09, -0.000564144167583, 1.55E-05, 1.55E-05
DataValue, 1.65E-05, -1.47346E-10, -0.000553583726287, 1.65E-05, 1.65E-05
DataValue, 1.7500000000000002E-05, 1.991032E-09, -0.00044445888488600004, 1.7500000000000002E-05, 1.7500000000000002E-05
DataValue, 1.8500000000000002E-05, 6.7515530000000005E-09, -0.000521902285982, 1.8500000000000002E-05, 1.8500000000000002E-05
DataValue, 1.95E-05, 3.3652030000000005E-09, -0.000511341844685, 1.95E-05, 1.95E-05
DataValue, 2.05E-05, -5.2594400000000008E-10, -0.00047262012958500005, 2.05E-05, 2.05E-05
DataValue, 2.15E-05, -2.657311E-09, -0.000405737169785, 2.15E-05, 2.15E-05
DataValue, 2.25E-05, 5.8120690000000007E-09, -0.0006451077642850001, 2.25E-05, 2.25E-05
DataValue, 2.3500000000000002E-05, 3.982178E-09, -0.000490220903885, 2.3500000000000002E-05, 2.3500000000000002E-05
DataValue, 2.4500000000000003E-05, -5.503809E-09, -0.00055006355978500009, 2.4500000000000003E-05, 2.4500000000000003E-05
DataValue, 2.5500000000000003E-05, 3.7648350000000005E-09, -0.000521902285982, 2.5500000000000003E-05, 2.5500000000000003E-05
DataValue, 2.65E-05, 4.045278E-09, -0.00046557979658200005, 2.65E-05, 2.65E-05
DataValue, 2.75E-05, 1.2899250000000002E-09, -0.00045501932618200006, 2.75E-05, 2.75E-05
DataValue, 2.85E-05, -1.89412E-10, -0.000430378247984, 2.85E-05, 2.85E-05
DataValue, 2.9500000000000002E-05, 2.1452760000000002E-09, -0.00033533404348400005, 2.9500000000000002E-05, 2.9500000000000002E-05
DataValue, 3.0500000000000003E-05, 4.283654E-09, -0.000553583726287, 3.0500000000000003E-05, 3.0500000000000003E-05
DataValue, 3.15E-05, -2.019303E-09, -0.000451499188785, 3.15E-05, 3.15E-05
DataValue, 3.2500000000000004E-05, -2.075392E-09, -0.000511341844685, 3.2500000000000004E-05, 3.2500000000000004E-05
DataValue, 3.35E-05, 8.153768E-09, -0.00048670073738300005, 3.35E-05, 3.35E-05
DataValue, 3.4500000000000005E-05, -5.7001190000000005E-09, -0.000557103834581, 3.4500000000000005E-05, 3.4500000000000005E-05
DataValue, 3.55E-05, 7.754137E-09, -0.000659188372083, 3.55E-05, 3.55E-05
DataValue, 3.65E-05, 3.884023E-09, -0.000349414680386, 3.65E-05, 3.65E-05
DataValue, 3.7500000000000003E-05, -3.239231E-09, -0.000374055758584, 3.7500000000000003E-05, 3.7500000000000003E-05
DataValue, 3.85E-05, -1.93517E-09, -0.000398696836783, 3.85E-05, 3.85E-05
DataValue, 3.9500000000000005E-05, 4.90764E-09, -0.000521902285982, 3.9500000000000005E-05, 3.9500000000000005E-05
DataValue, 4.05E-05, 2.1242430000000002E-09, -0.000395176699385, 4.05E-05, 4.05E-05
DataValue, 4.1500000000000006E-05, 2.9445390000000004E-09, -0.00053246278548600007, 4.1500000000000006E-05, 4.1500000000000006E-05
DataValue, 4.25E-05, 3.1538500000000004E-10, -0.000521902285982, 4.25E-05, 4.25E-05
DataValue, 4.35E-05, 3.834945E-09, -0.00050430151168300008, 4.35E-05, 4.35E-05
DataValue, 4.4500000000000004E-05, 2.874428E-09, -0.000606386049185, 4.4500000000000004E-05, 4.4500000000000004E-05
DataValue, 4.55E-05, -4.5012250000000007E-09, -0.00056766433408500007, 4.55E-05, 4.55E-05
DataValue, 4.6500000000000005E-05, 2.720184E-09, -0.000479660433484, 4.6500000000000005E-05, 4.6500000000000005E-05
DataValue, 4.75E-05, -1.12291E-10, -0.00035645498428500005, 4.75E-05, 4.75E-05
DataValue, 4.85E-05, 5.272216E-09, -0.00056766433408500007, 4.85E-05, 4.85E-05
DataValue, 4.9500000000000004E-05, 8.2018300000000008E-10, -0.000571184500586, 4.9500000000000004E-05, 4.9500000000000004E-05
DataValue, 5.05E-05, 3.4942E-11, -0.000701430253685, 5.05E-05, 5.05E-05
DataValue, 5.1500000000000005E-05, 7.51576E-09, -0.00062046665698300009, 5.1500000000000005E-05, 5.1500000000000005E-05
DataValue, 5.25E-05, -7.950674E-09, -0.000500781345181, 5.25E-05, 5.25E-05
DataValue, 5.3500000000000006E-05, 7.866315E-09, -0.000458539492683, 5.3500000000000006E-05, 5.3500000000000006E-05
DataValue, 5.45E-05, 2.8323610000000002E-09, -0.000395176699385, 5.45E-05, 5.45E-05
DataValue, 5.55E-05, -3.239231E-09, -0.00057470460888, 5.55E-05, 5.55E-05
DataValue, 5.6500000000000005E-05, 7.438639E-09, -0.00036701545468500004, 5.6500000000000005E-05, 5.6500000000000005E-05
DataValue, 5.75E-05, -3.3724410000000003E-09, -0.000543023226783, 5.75E-05, 5.75E-05
DataValue, 5.8500000000000006E-05, -1.86506E-09, -0.000451499188785, 5.8500000000000006E-05, 5.8500000000000006E-05
DataValue, 5.95E-05, 4.7664E-10, -0.000342374347383, 5.95E-05, 5.95E-05
DataValue, 6.0500000000000007E-05, 1.3327943E-08, -0.00044797902228300003, 6.0500000000000007E-05, 6.0500000000000007E-05
DataValue, 6.15E-05, -8.9753100000000011E-10, -0.000535982951988, 6.15E-05, 6.15E-05
DataValue, 6.25E-05, -1.318196E-09, -0.000419817777583, 6.25E-05, 6.25E-05
DataValue, 6.35E-05, -1.9421820000000002E-09, -0.000289572024485, 6.35E-05, 6.35E-05
DataValue, 6.4500000000000009E-05, 6.3308890000000008E-09, -0.000324773573084, 6.4500000000000009E-05, 6.4500000000000009E-05
DataValue, 6.55E-05, -2.5241010000000003E-09, -7.1322356234E-05, 6.55E-05, 6.55E-05
DataValue, 6.65E-05, -2.0613700000000003E-09, -0.00015580610488500002, 6.65E-05, 6.65E-05
DataValue, 6.75E-05, 1.2079972E-08, 6.948387454E-05, 6.75E-05, 6.75E-05
DataValue, 6.85E-05, -3.7871200000000005E-10, -0.000141725467984, 6.85E-05, 6.85E-05
DataValue, 6.9500000000000009E-05, -3.2111860000000003E-09, 1.6681537090000002E-05, 6.9500000000000009E-05, 6.9500000000000009E-05
DataValue, 7.05E-05, 5.784025E-09, -0.00026493091718300004, 7.05E-05, 7.05E-05
DataValue, 7.15E-05, -1.4136E-11, -2.9080489185000002E-05, 7.15E-05, 7.15E-05
DataValue, 7.25E-05, 2.979594E-09, -0.000180447183084, 7.25E-05, 7.25E-05
DataValue, 7.3500000000000011E-05, -3.2262300000000004E-10, -0.000479660433484, 7.3500000000000011E-05, 7.3500000000000011E-05
DataValue, 7.4500000000000008E-05, 3.6947240000000003E-09, -0.00038109606248300004, 7.4500000000000008E-05, 7.4500000000000008E-05
DataValue, 7.55E-05, 6.51917E-10, -0.00047262012958500005, 7.55E-05, 7.55E-05
DataValue, 7.65E-05, 8.258935E-09, -0.000535982951988, 7.65E-05, 7.65E-05
DataValue, 7.75E-05, 6.93983E-10, -0.00043389841448500003, 7.75E-05, 7.75E-05
DataValue, 7.8500000000000011E-05, -7.2495670000000005E-09, -0.00018396734958500002, 7.8500000000000011E-05, 7.8500000000000011E-05
DataValue, 7.9500000000000008E-05, 6.520188E-09, -0.00033885420998600003, 7.9500000000000008E-05, 7.9500000000000008E-05
DataValue, 8.05E-05, 1.2338360000000001E-09, -0.00042685808148200003, 8.05E-05, 8.05E-05
DataValue, 8.15E-05, -1.100852E-09, -0.000349414680386, 8.15E-05, 8.15E-05
DataValue, 8.25E-05, 5.791036E-09, -0.00043741855188300004, 8.25E-05, 8.25E-05
DataValue, 8.350000000000001E-05, 6.0504450000000008E-09, -0.00027197125018600004, 8.350000000000001E-05, 8.350000000000001E-05
DataValue, 8.4500000000000008E-05, 6.3729550000000008E-09, -0.00027549138758300003, 8.4500000000000008E-05, 8.4500000000000008E-05
DataValue, 8.55E-05, -9.1004910000000014E-09, -0.00044445888488600004, 8.55E-05, 8.55E-05
DataValue, 8.65E-05, 9.156352E-09, -0.00042333794408500004, 8.65E-05, 8.65E-05
DataValue, 8.75E-05, 6.4851320000000006E-09, -0.00031773326918500003, 8.75E-05, 8.75E-05
DataValue, 8.850000000000001E-05, -3.9193050000000007E-09, -0.00053246278548600007, 8.850000000000001E-05, 8.850000000000001E-05
DataValue, 8.9500000000000007E-05, -1.6547270000000002E-09, -0.00044445888488600004, 8.9500000000000007E-05, 8.9500000000000007E-05
DataValue, 9.05E-05, 1.058559E-09, -0.00025085030938500004, 9.05E-05, 9.05E-05
DataValue, 9.15E-05, 8.258935E-09, -0.000374055758584, 9.15E-05, 9.15E-05
DataValue, 9.2500000000000012E-05, 3.9401110000000007E-09, -0.000359975121683, 9.2500000000000012E-05, 9.2500000000000012E-05
DataValue, 9.3500000000000009E-05, -1.9001150000000003E-09, -0.00033533404348400005, 9.3500000000000009E-05, 9.3500000000000009E-05
DataValue, 9.45E-05, -6.10077E-10, -0.000384616228985, 9.45E-05, 9.45E-05
DataValue, 9.55E-05, 3.680702E-09, -0.000659188372083, 9.55E-05, 9.55E-05
DataValue, 9.65E-05, -6.218938E-09, -0.00043741855188300004, 9.65E-05, 9.65E-05
DataValue, 9.7500000000000012E-05, 9.20543E-09, -0.000599345716182, 9.7500000000000012E-05, 9.7500000000000012E-05
DataValue, 9.8500000000000009E-05, 8.0616E-10, -0.000398696836783, 9.8500000000000009E-05, 9.8500000000000009E-05
DataValue, 9.95E-05, -2.9657990000000003E-09, -0.000528942618985, 9.95E-05, 9.95E-05
DataValue, 0.0001005, -8.0795758E-08, 0.002575834747404, 0.0001005, 0.0001005
DataValue, 0.0001015, -1.3554525000000002E-07, 0.008577700704336, 0.0001015, 0.0001015
DataValue, 0.00010250000000000001, -1.30427168E-07, 0.014716852456331002, 0.00010250000000000001, 0.00010250000000000001
DataValue, 0.00010350000000000001, -1.32074774E-07, 0.021141136065125, 0.00010350000000000001, 0.00010350000000000001
DataValue, 0.0001045, -1.3553824400000002E-07, 0.027382371947169002, 0.0001045, 0.0001045
DataValue, 0.0001055, -1.2814156500000002E-07, 0.033669371157885, 0.0001055, 0.0001055
DataValue, 0.0001065, -1.3989912900000002E-07, 0.039597313851118004, 0.0001065, 0.0001065
DataValue, 0.00010750000000000001, -1.32740823E-07, 0.046359531581402005, 0.00010750000000000001, 0.00010750000000000001
DataValue, 0.00010850000000000001, -1.3604304200000002E-07, 0.052220590412617007, 0.00010850000000000001, 0.00010850000000000001
DataValue, 0.0001095, -1.32109832E-07, 0.058412544429302007, 0.0001095, 0.0001095
DataValue, 0.0001105, -1.3459174400000002E-07, 0.064812190830708008, 0.0001105, 0.0001105
DataValue, 0.00011150000000000001, -1.4454046500000002E-07, 0.070993579924107, 0.00011150000000000001, 0.00011150000000000001
DataValue, 0.00011250000000000001, -1.35383999E-07, 0.077009528875351008, 0.00011250000000000001, 0.00011250000000000001
DataValue, 0.00011350000000000001, -1.40137516E-07, 0.083300046622753, 0.00011350000000000001, 0.00011350000000000001
DataValue, 0.0001145, -1.26949672E-07, 0.089798256754875, 0.0001145, 0.0001145
DataValue, 0.0001155, -1.39268138E-07, 0.09569803625345201, 0.0001155, 0.0001155
DataValue, 0.00011650000000000001, -1.3952754300000001E-07, 0.10193927586078601, 0.00011650000000000001, 0.00011650000000000001
DataValue, 0.00011750000000000001, -1.36589904E-07, 0.10842339694500001, 0.00011750000000000001, 0.00011750000000000001
DataValue, 0.00011850000000000001, -1.44000609E-07, 0.114140130579472, 0.00011850000000000001, 0.00011850000000000001
DataValue, 0.0001195, -1.4685412E-07, 0.12036728858947701, 0.0001195, 0.0001195
DataValue, 0.0001205, -1.3641462700000002E-07, 0.126685962080955, 0.0001205, 0.0001205
DataValue, 0.00012150000000000001, -1.35993972E-07, 0.132663190364838, 0.00012150000000000001, 0.00012150000000000001
DataValue, 0.0001225, -1.43369618E-07, 0.139062836766243, 0.0001225, 0.0001225
DataValue, 0.00012350000000000002, -1.4411278900000002E-07, 0.145138621330261, 0.00012350000000000002, 0.00012350000000000002
DataValue, 0.00012450000000000002, -1.38048208E-07, 0.15133409202098802, 0.00012450000000000002, 0.00012450000000000002
DataValue, 0.00012550000000000002, -1.46776998E-07, 0.15769854187965401, 0.00012550000000000002, 0.00012550000000000002
DataValue, 0.0001265, -1.4011648400000002E-07, 0.16393977403640703, 0.0001265, 0.0001265
DataValue, 0.0001275, -1.48564823E-07, 0.170008525252342, 0.0001275, 0.0001275
DataValue, 0.0001285, -1.4339065000000002E-07, 0.17632719874382002, 0.0001285, 0.0001285
DataValue, 0.0001295, -1.47057449E-07, 0.18280428647995, 0.0001295, 0.0001295
DataValue, 0.0001305, -1.4695929500000002E-07, 0.18909832835197402, 0.0001305, 0.0001305
DataValue, 0.0001315, -1.3997625100000002E-07, 0.19527268409729, 0.0001315, 0.0001315
DataValue, 0.0001325, -1.6170358200000002E-07, 0.20184832811355602, 0.0001325, 0.0001325
DataValue, 0.00013350000000000002, -1.5588439300000002E-07, 0.20843102037906602, 0.00013350000000000002, 0.00013350000000000002
DataValue, 0.00013450000000000002, -1.45627183E-07, 0.214770823717117, 0.00013450000000000002, 0.00013450000000000002
DataValue, 0.00013550000000000001, -1.4264748000000001E-07, 0.22077269852161402, 0.00013550000000000001, 0.00013550000000000001
DataValue, 0.0001365, -1.4992497200000002E-07, 0.227334260940552, 0.0001365, 0.0001365
DataValue, 0.0001375, -1.51397302E-07, 0.23366349935531602, 0.0001375, 0.0001375
DataValue, 0.0001385, -1.43299502E-07, 0.23986953496933003, 0.0001385, 0.0001385
DataValue, 0.0001395, -1.52575154E-07, 0.24591363966465002, 0.0001395, 0.0001395
DataValue, 0.0001405, -1.49223865E-07, 0.252394258975983, 0.0001405, 0.0001405
DataValue, 0.0001415, -1.5479767500000002E-07, 0.258660137653351, 0.0001415, 0.0001415
DataValue, 0.00014250000000000002, -1.52140473E-07, 0.26491543650627103, 0.00014250000000000002, 0.00014250000000000002
DataValue, 0.00014350000000000002, -1.50913536E-07, 0.271093308925629, 0.00014350000000000002, 0.00014350000000000002
DataValue, 0.00014450000000000002, -1.4636334800000002E-07, 0.27724301815033003, 0.00014450000000000002, 0.00014450000000000002
DataValue, 0.0001455, -1.59754507E-07, 0.283230811357498, 0.0001455, 0.0001455
DataValue, 0.0001465, -1.4701537100000002E-07, 0.28929603099823004, 0.0001465, 0.0001465
DataValue, 0.0001475, -1.5494490000000002E-07, 0.295452803373337, 0.0001475, 0.0001475
DataValue, 0.0001485, -1.57791405E-07, 0.301672905683517, 0.0001485, 0.0001485
DataValue, 0.0001495, -1.56774789E-07, 0.30771350860595703, 0.0001495, 0.0001495
DataValue, 0.0001505, -1.4505928900000002E-07, 0.314007550477982, 0.0001505, 0.0001505
DataValue, 0.0001515, -1.6984344600000002E-07, 0.32002699375152605, 0.0001515, 0.0001515
DataValue, 0.00015250000000000002, -1.50836414E-07, 0.32645130157470703, 0.00015250000000000002, 0.00015250000000000002
DataValue, 0.00015350000000000002, -1.5453125E-07, 0.33277702331543, 0.00015350000000000002, 0.00015350000000000002
DataValue, 0.00015450000000000002, -1.58808007E-07, 0.339141458272934, 0.00015450000000000002, 0.00015450000000000002
DataValue, 0.0001555, -1.65054871E-07, 0.345622062683105, 0.0001555, 0.0001555
DataValue, 0.0001565, -1.50892504E-07, 0.35199001431465105, 0.0001565, 0.0001565
DataValue, 0.0001575, -1.620962E-07, 0.35818901658058205, 0.0001575, 0.0001575
DataValue, 0.0001585, -1.5764416600000003E-07, 0.36435633897781405, 0.0001585, 0.0001585
DataValue, 0.0001595, -1.52946754E-07, 0.37092494964599604, 0.0001595, 0.0001595
DataValue, 0.0001605, -1.6568587600000002E-07, 0.376976072788238, 0.0001605, 0.0001605
DataValue, 0.00016150000000000002, -1.6268514E-07, 0.38346725702285805, 0.00016150000000000002, 0.00016150000000000002
DataValue, 0.00016250000000000002, -1.5900431500000002E-07, 0.38946208357811, 0.00016250000000000002, 0.00016250000000000002
DataValue, 0.00016350000000000002, -1.5952314000000002E-07, 0.395668119192123, 0.00016350000000000002, 0.00016350000000000002
DataValue, 0.00016450000000000001, -1.65517605E-07, 0.402064234018326, 0.00016450000000000001, 0.00016450000000000001
DataValue, 0.0001655, -1.6836411000000001E-07, 0.40854483842849704, 0.0001655, 0.0001655
DataValue, 0.0001665, -1.6300063500000002E-07, 0.41489520668983504, 0.0001665, 0.0001665
DataValue, 0.0001675, -1.6408033300000001E-07, 0.42123147845268205, 0.0001675, 0.0001675
DataValue, 0.0001685, -1.56424235E-07, 0.42714533209800704, 0.0001685, 0.0001685
DataValue, 0.0001695, -1.66611329E-07, 0.43309441208839405, 0.0001695, 0.0001695
DataValue, 0.0001705, -1.5601058600000001E-07, 0.43944478034973106, 0.0001705, 0.0001705
DataValue, 0.00017150000000000002, -1.66386982E-07, 0.44547480344772306, 0.00017150000000000002, 0.00017150000000000002
DataValue, 0.00017250000000000002, -1.5761612800000001E-07, 0.45185330510139504, 0.00017250000000000002, 0.00017250000000000002
DataValue, 0.00017350000000000002, -1.7082499E-07, 0.458298712968826, 0.00017350000000000002, 0.00017350000000000002
DataValue, 0.0001745, -1.6669547200000002E-07, 0.464589238166809, 0.0001745, 0.0001745
DataValue, 0.0001755, -1.6002793800000002E-07, 0.470587581396103, 0.0001755, 0.0001755
DataValue, 0.0001765, -1.69009127E-07, 0.476709127426147, 0.0001765, 0.0001765
DataValue, 0.0001775, -1.61016501E-07, 0.48305597901344305, 0.0001775, 0.0001775
DataValue, 0.0001785, -1.70067793E-07, 0.48906135559082003, 0.0001785, 0.0001785
DataValue, 0.0001795, -1.57735315E-07, 0.49527090787887607, 0.0001795, 0.0001795
DataValue, 0.00018050000000000002, -1.7237444200000002E-07, 0.50137132406234708, 0.00018050000000000002, 0.00018050000000000002
DataValue, 0.00018150000000000002, -1.65959307E-07, 0.507587969303131, 0.00018150000000000002, 0.00018150000000000002
DataValue, 0.00018250000000000002, -1.7182758E-07, 0.513727068901062, 0.00018250000000000002, 0.00018250000000000002
DataValue, 0.00018350000000000002, -1.7165230300000002E-07, 0.520038723945618, 0.00018350000000000002, 0.00018350000000000002
DataValue, 0.0001845, -1.6322498200000002E-07, 0.526477098464966, 0.0001845, 0.0001845
DataValue, 0.0001855, -1.7615340700000002E-07, 0.5327429771423341, 0.0001855, 0.0001855
DataValue, 0.0001865, -1.62523875E-07, 0.539051115512848, 0.0001865, 0.0001865
DataValue, 0.0001875, -1.69661149E-07, 0.54510223865509, 0.0001875, 0.0001875
