
SetupTitle, I/V Sweep read 0.3(1)
PrimitiveTest, I/V Sweep
TestParameter, Context.MainFrame, B1500A
TestParameter, Channel.UnitType, SMU, SMU
TestParameter, Channel.Unit, SMU1:HR/AS, SMU2:HR/AS
TestParameter, Channel.IName, I1, I2
TestParameter, Channel.VName, V1, V2
TestParameter, Channel.Mode, V, V
TestParameter, Channel.Func, VAR1, CONST
TestParameter, Channel.Index, 
TestParameter, Channel.Time, 
TestParameter, Measurement.Port.Unit, SMU1:HR/AS, SMU2:HR/AS
TestParameter, Measurement.Port.SeriesResistor, NONE, NONE
TestParameter, Measurement.Port.Filter, ON, ON
TestParameter, Measurement.Port.OutputVoltageComparison, 0, 0
TestParameter, Measurement.Primary.Locus, Single
TestParameter, Measurement.Primary.Scale, LINEAR
TestParameter, Measurement.Primary.Start, -0.5
TestParameter, Measurement.Primary.Stop, 0.5
TestParameter, Measurement.Primary.Step, 0.001
TestParameter, Measurement.Primary.Compliance, 0.1
TestParameter, Measurement.Primary.PowerCompliance, 0
TestParameter, Measurement.Aborting.Condition, CONTINUE AT ANY
TestParameter, Measurement.PostOutput.Value, START
TestParameter, Measurement.PostOutput.Retention, OFF
TestParameter, Measurement.Bias.Source, -0.5, 0
TestParameter, Measurement.Bias.Compliance, 0.1, 0.1
TestParameter, Measurement.Monitor.Unit, SMU1:HR/AS, SMU2:HR/AS
TestParameter, Measurement.Monitor.Adc, HR ADC, HR ADC
TestParameter, Measurement.Monitor.Measurement, Compliance Side, Compliance Side
TestParameter, Measurement.Monitor.RangingMode, LIMITED, LIMITED
TestParameter, Measurement.Monitor.RangeBoundary, 1nA, 1nA
TestParameter, Measurement.Monitor.RangeRating, BY FULL RANGE, BY FULL RANGE
TestParameter, Measurement.Monitor.RangeRatingCoeff, 50, 50
TestParameter, Measurement.Timing.Hold, 0
TestParameter, Measurement.Timing.Delay, 0
TestParameter, Measurement.Adc.HighSpeed.Mode, AUTO
TestParameter, Measurement.Adc.HighSpeed.Coeff, 1
TestParameter, Measurement.Adc.HighResolution.AutoZero, OFF
TestParameter, Measurement.Adc.HighResolution.Mode, AUTO
TestParameter, Measurement.Adc.HighResolution.Coeff, 100
TestParameter, Measurement.WaitTime.Source.Coeff, 1
TestParameter, Measurement.WaitTime.Source.Offset, 0
TestParameter, Measurement.WaitTime.Monitor.Coeff, 1
TestParameter, Measurement.WaitTime.Monitor.Offset, 0
TestParameter, Function.Analysis.Name, absI
TestParameter, Function.Analysis.Unit, A
TestParameter, Function.Analysis.Definition, abs(I1)
TestParameter, Output.Graph.Enabled, true
TestParameter, Output.Graph.AutoScaling, false
TestParameter, Output.Graph.XAxis.Data, V1
TestParameter, Output.Graph.XAxis.Scale, Linear
TestParameter, Output.Graph.XAxis.Left, 0
TestParameter, Output.Graph.XAxis.Right, 1
TestParameter, Output.Graph.XAxis.RunTimeAutoScale, true
TestParameter, Output.Graph.YAxis.Data, I1, absI
TestParameter, Output.Graph.YAxis.Scale, Linear, Log
TestParameter, Output.Graph.YAxis.Bottom, -0.1, 0
TestParameter, Output.Graph.YAxis.Top, 0.1, 1
TestParameter, Output.Graph.YAxis.Group, , 
TestParameter, Output.Graph.YAxis.RunTimeAutoScale, true, true
TestParameter, AutoAnalysis.Interpolation, false
TestParameter, AutoAnalysis.Var2StepCount, 1
TestParameter, AutoAnalysis.Var2StepScript, 
TestParameter, AutoAnalysis.Line1.Enabled, false
TestParameter, AutoAnalysis.Line1.Type, 1
TestParameter, AutoAnalysis.Line1.Fix, True
TestParameter, AutoAnalysis.Line1.YAxis, 0
TestParameter, AutoAnalysis.Line1.Point1.Type, 0
TestParameter, AutoAnalysis.Line1.Point1.XY.X, 
TestParameter, AutoAnalysis.Line1.Point1.XY.Y, 
TestParameter, AutoAnalysis.Line1.Point1.Data.Var, 
TestParameter, AutoAnalysis.Line1.Point1.Data.Condition, 
TestParameter, AutoAnalysis.Line1.Point1.Data.Start, false
TestParameter, AutoAnalysis.Line1.Point1.Data.StartVar, 
TestParameter, AutoAnalysis.Line1.Point1.Data.StartCondition, 
TestParameter, AutoAnalysis.Line1.Point2.Type, 0
TestParameter, AutoAnalysis.Line1.Point2.XY.X, 
TestParameter, AutoAnalysis.Line1.Point2.XY.Y, 
TestParameter, AutoAnalysis.Line1.Point2.Data.Var, 
TestParameter, AutoAnalysis.Line1.Point2.Data.Condition, 
TestParameter, AutoAnalysis.Line1.Point2.Data.Start, false
TestParameter, AutoAnalysis.Line1.Point2.Data.StartVar, 
TestParameter, AutoAnalysis.Line1.Point2.Data.StartCondition, 
TestParameter, AutoAnalysis.Line1.GradientExpr, 0
TestParameter, AutoAnalysis.Line2.Enabled, false
TestParameter, AutoAnalysis.Line2.Type, 1
TestParameter, AutoAnalysis.Line2.Fix, True
TestParameter, AutoAnalysis.Line2.YAxis, 0
TestParameter, AutoAnalysis.Line2.Point1.Type, 0
TestParameter, AutoAnalysis.Line2.Point1.XY.X, 
TestParameter, AutoAnalysis.Line2.Point1.XY.Y, 
TestParameter, AutoAnalysis.Line2.Point1.Data.Var, 
TestParameter, AutoAnalysis.Line2.Point1.Data.Condition, 
TestParameter, AutoAnalysis.Line2.Point1.Data.Start, false
TestParameter, AutoAnalysis.Line2.Point1.Data.StartVar, 
TestParameter, AutoAnalysis.Line2.Point1.Data.StartCondition, 
TestParameter, AutoAnalysis.Line2.Point2.Type, 0
TestParameter, AutoAnalysis.Line2.Point2.XY.X, 
TestParameter, AutoAnalysis.Line2.Point2.XY.Y, 
TestParameter, AutoAnalysis.Line2.Point2.Data.Var, 
TestParameter, AutoAnalysis.Line2.Point2.Data.Condition, 
TestParameter, AutoAnalysis.Line2.Point2.Data.Start, false
TestParameter, AutoAnalysis.Line2.Point2.Data.StartVar, 
TestParameter, AutoAnalysis.Line2.Point2.Data.StartCondition, 
TestParameter, AutoAnalysis.Line2.GradientExpr, 0
TestParameter, AutoAnalysis.Marker.Enabled, false
TestParameter, AutoAnalysis.Marker.Data.Var, 
TestParameter, AutoAnalysis.Marker.Data.Condition, 
TestParameter, AutoAnalysis.Marker.Data.Start, false
TestParameter, AutoAnalysis.Marker.Data.StartVar, 
TestParameter, AutoAnalysis.Marker.Data.StartCondition, 
MetaData, TestRecord.EntryPoint, true
MetaData, TestRecord.RecordTime, 03/01/2021 13:45:09
MetaData, TestRecord.TestTarget, FlashIntA_1_40um_B1
MetaData, TestRecord.IterationIndex, 3
MetaData, TestRecord.Preservation, true
MetaData, TestRecord.Flag, 
MetaData, TestRecord.Remarks, 
MetaData, TestRecord.LinkKey, f1fd639f-74b5-4921-802e-802cc784d370
MetaData, TestRecord.Parameters, 
Dimension1, 1001, 1001, 1001
Dimension2, 1, 1, 1
DataName, V1, I1, absI
DataValue, -0.5, -3.012E-11, 3.012E-11
DataValue, -0.499, -2.1831000000000003E-11, 2.1831000000000003E-11
DataValue, -0.498, -1.7427E-11, 1.7427E-11
DataValue, -0.497, -1.4555000000000002E-11, 1.4555000000000002E-11
DataValue, -0.496, -1.2586000000000002E-11, 1.2586000000000002E-11
DataValue, -0.49500000000000005, -1.1315E-11, 1.1315E-11
DataValue, -0.49400000000000005, -1.0025E-11, 1.0025E-11
DataValue, -0.49300000000000005, -9.13E-12, 9.13E-12
DataValue, -0.49200000000000005, -8.31E-12, 8.31E-12
DataValue, -0.49100000000000005, -7.5930000000000013E-12, 7.5930000000000013E-12
DataValue, -0.49000000000000005, -7.1800000000000005E-12, 7.1800000000000005E-12
DataValue, -0.48900000000000005, -6.581E-12, 6.581E-12
DataValue, -0.48800000000000004, -6.1020000000000005E-12, 6.1020000000000005E-12
DataValue, -0.48700000000000004, -5.692E-12, 5.692E-12
DataValue, -0.48600000000000004, -5.306E-12, 5.306E-12
DataValue, -0.48500000000000004, -5.048E-12, 5.048E-12
DataValue, -0.48400000000000004, -4.662E-12, 4.662E-12
DataValue, -0.48300000000000004, -4.4770000000000004E-12, 4.4770000000000004E-12
DataValue, -0.48200000000000004, -4.2110000000000005E-12, 4.2110000000000005E-12
DataValue, -0.48100000000000004, -3.9870000000000007E-12, 3.9870000000000007E-12
DataValue, -0.48000000000000004, -3.8870000000000007E-12, 3.8870000000000007E-12
DataValue, -0.47900000000000004, -3.6240000000000003E-12, 3.6240000000000003E-12
DataValue, -0.47800000000000004, -3.6800000000000005E-12, 3.6800000000000005E-12
DataValue, -0.47700000000000004, -3.3780000000000003E-12, 3.3780000000000003E-12
DataValue, -0.47600000000000003, -3.4270000000000002E-12, 3.4270000000000002E-12
DataValue, -0.47500000000000003, -3.396E-12, 3.396E-12
DataValue, -0.47400000000000003, -3.15E-12, 3.15E-12
DataValue, -0.47300000000000003, -3.155E-12, 3.155E-12
DataValue, -0.47200000000000003, -3.041E-12, 3.041E-12
DataValue, -0.47100000000000003, -2.9610000000000004E-12, 2.9610000000000004E-12
DataValue, -0.47000000000000003, -2.9480000000000004E-12, 2.9480000000000004E-12
DataValue, -0.46900000000000003, -2.758E-12, 2.758E-12
DataValue, -0.468, -2.808E-12, 2.808E-12
DataValue, -0.467, -2.674E-12, 2.674E-12
DataValue, -0.466, -2.6140000000000004E-12, 2.6140000000000004E-12
DataValue, -0.465, -2.4790000000000002E-12, 2.4790000000000002E-12
DataValue, -0.464, -2.2490000000000002E-12, 2.2490000000000002E-12
DataValue, -0.463, -2.276E-12, 2.276E-12
DataValue, -0.462, -2.0620000000000003E-12, 2.0620000000000003E-12
DataValue, -0.461, -2.0280000000000002E-12, 2.0280000000000002E-12
DataValue, -0.46, -2.0070000000000002E-12, 2.0070000000000002E-12
DataValue, -0.459, -1.8080000000000002E-12, 1.8080000000000002E-12
DataValue, -0.458, -1.876E-12, 1.876E-12
DataValue, -0.457, -1.7230000000000002E-12, 1.7230000000000002E-12
DataValue, -0.456, -1.7010000000000001E-12, 1.7010000000000001E-12
DataValue, -0.455, -1.588E-12, 1.588E-12
DataValue, -0.454, -1.5110000000000001E-12, 1.5110000000000001E-12
DataValue, -0.453, -1.552E-12, 1.552E-12
DataValue, -0.452, -1.4630000000000001E-12, 1.4630000000000001E-12
DataValue, -0.451, -1.573E-12, 1.573E-12
DataValue, -0.45, -1.663E-12, 1.663E-12
DataValue, -0.449, -1.6200000000000002E-12, 1.6200000000000002E-12
DataValue, -0.448, -1.6200000000000002E-12, 1.6200000000000002E-12
DataValue, -0.447, -1.565E-12, 1.565E-12
DataValue, -0.446, -1.5820000000000001E-12, 1.5820000000000001E-12
DataValue, -0.445, -1.594E-12, 1.594E-12
DataValue, -0.444, -1.5260000000000002E-12, 1.5260000000000002E-12
DataValue, -0.443, -1.496E-12, 1.496E-12
DataValue, -0.442, -1.452E-12, 1.452E-12
DataValue, -0.441, -1.3460000000000001E-12, 1.3460000000000001E-12
DataValue, -0.44, -1.301E-12, 1.301E-12
DataValue, -0.439, -1.4070000000000002E-12, 1.4070000000000002E-12
DataValue, -0.438, -1.235E-12, 1.235E-12
DataValue, -0.437, -1.0580000000000001E-12, 1.0580000000000001E-12
DataValue, -0.436, -1.1440000000000002E-12, 1.1440000000000002E-12
DataValue, -0.435, -1.02E-12, 1.02E-12
DataValue, -0.434, -9.11E-13, 9.11E-13
DataValue, -0.433, -9.75E-13, 9.75E-13
DataValue, -0.432, -8.24E-13, 8.24E-13
DataValue, -0.431, -8.2E-13, 8.2E-13
DataValue, -0.43, -7.6900000000000006E-13, 7.6900000000000006E-13
DataValue, -0.42900000000000005, -8.5700000000000008E-13, 8.5700000000000008E-13
DataValue, -0.42800000000000005, -7.99E-13, 7.99E-13
DataValue, -0.42700000000000005, -6.9600000000000006E-13, 6.9600000000000006E-13
DataValue, -0.42600000000000005, -8.5700000000000008E-13, 8.5700000000000008E-13
DataValue, -0.42500000000000004, -7.73E-13, 7.73E-13
DataValue, -0.42400000000000004, -8.94E-13, 8.94E-13
DataValue, -0.42300000000000004, -9.3900000000000014E-13, 9.3900000000000014E-13
DataValue, -0.42200000000000004, -9.52E-13, 9.52E-13
DataValue, -0.42100000000000004, -9.44E-13, 9.44E-13
DataValue, -0.42000000000000004, -9.3E-13, 9.3E-13
DataValue, -0.41900000000000004, -9.6800000000000012E-13, 9.6800000000000012E-13
DataValue, -0.41800000000000004, -8.96E-13, 8.96E-13
DataValue, -0.41700000000000004, -8.8500000000000007E-13, 8.8500000000000007E-13
DataValue, -0.41600000000000004, -9.54E-13, 9.54E-13
DataValue, -0.41500000000000004, -7.580000000000001E-13, 7.580000000000001E-13
DataValue, -0.41400000000000003, -9.27E-13, 9.27E-13
DataValue, -0.41300000000000003, -6.6500000000000009E-13, 6.6500000000000009E-13
DataValue, -0.41200000000000003, -6.8E-13, 6.8E-13
DataValue, -0.41100000000000003, -5.66E-13, 5.66E-13
DataValue, -0.41000000000000003, -5.14E-13, 5.14E-13
DataValue, -0.40900000000000003, -5.36E-13, 5.36E-13
DataValue, -0.40800000000000003, -4.7900000000000008E-13, 4.7900000000000008E-13
DataValue, -0.40700000000000003, -4.69E-13, 4.69E-13
DataValue, -0.406, -5.82E-13, 5.82E-13
DataValue, -0.405, -2.9800000000000004E-13, 2.9800000000000004E-13
DataValue, -0.404, -5.12E-13, 5.12E-13
DataValue, -0.403, -2.5400000000000003E-13, 2.5400000000000003E-13
DataValue, -0.402, -5.0100000000000009E-13, 5.0100000000000009E-13
DataValue, -0.401, -4.5300000000000004E-13, 4.5300000000000004E-13
DataValue, -0.4, -5.4E-13, 5.4E-13
DataValue, -0.399, -5.46E-13, 5.46E-13
DataValue, -0.398, -4.91E-13, 4.91E-13
DataValue, -0.397, -6.29E-13, 6.29E-13
DataValue, -0.396, -6.12E-13, 6.12E-13
DataValue, -0.395, -6.32E-13, 6.32E-13
DataValue, -0.394, -6.78E-13, 6.78E-13
DataValue, -0.393, -6.61E-13, 6.61E-13
DataValue, -0.392, -6.06E-13, 6.06E-13
DataValue, -0.391, -5.4800000000000009E-13, 5.4800000000000009E-13
DataValue, -0.39, -5.85E-13, 5.85E-13
DataValue, -0.389, -4.5900000000000006E-13, 4.5900000000000006E-13
DataValue, -0.388, -3.5900000000000004E-13, 3.5900000000000004E-13
DataValue, -0.387, -3.6800000000000005E-13, 3.6800000000000005E-13
DataValue, -0.386, -2.0800000000000002E-13, 2.0800000000000002E-13
DataValue, -0.385, -2.84E-13, 2.84E-13
DataValue, -0.384, -2.1600000000000001E-13, 2.1600000000000001E-13
DataValue, -0.383, -1.06E-13, 1.06E-13
DataValue, -0.382, -2.5E-13, 2.5E-13
DataValue, -0.381, -1.06E-13, 1.06E-13
DataValue, -0.38, -1.24E-13, 1.24E-13
DataValue, -0.379, -1.87E-13, 1.87E-13
DataValue, -0.378, -1.4900000000000002E-13, 1.4900000000000002E-13
DataValue, -0.377, -1.88E-13, 1.88E-13
DataValue, -0.376, -1.8600000000000002E-13, 1.8600000000000002E-13
DataValue, -0.375, -2.71E-13, 2.71E-13
DataValue, -0.374, -3.62E-13, 3.62E-13
DataValue, -0.373, -2E-13, 2E-13
DataValue, -0.372, -3.9400000000000004E-13, 3.9400000000000004E-13
DataValue, -0.371, -2.73E-13, 2.73E-13
DataValue, -0.37, -4.23E-13, 4.23E-13
DataValue, -0.369, -3.6900000000000004E-13, 3.6900000000000004E-13
DataValue, -0.368, -3.97E-13, 3.97E-13
DataValue, -0.367, -4.23E-13, 4.23E-13
DataValue, -0.366, -2.94E-13, 2.94E-13
DataValue, -0.365, -3.29E-13, 3.29E-13
DataValue, -0.364, -2.58E-13, 2.58E-13
DataValue, -0.36300000000000004, -1.4500000000000001E-13, 1.4500000000000001E-13
DataValue, -0.36200000000000004, -1.8600000000000002E-13, 1.8600000000000002E-13
DataValue, -0.36100000000000004, -1.0500000000000001E-13, 1.0500000000000001E-13
DataValue, -0.36000000000000004, -7.1E-14, 7.1E-14
DataValue, -0.35900000000000004, 5.5000000000000005E-14, 5.5000000000000005E-14
DataValue, -0.35800000000000004, -4.6000000000000006E-14, 4.6000000000000006E-14
DataValue, -0.35700000000000004, 7.5000000000000009E-14, 7.5000000000000009E-14
DataValue, -0.35600000000000004, 9.2000000000000012E-14, 9.2000000000000012E-14
DataValue, -0.35500000000000004, -5.1000000000000004E-14, 5.1000000000000004E-14
DataValue, -0.35400000000000004, 3.7E-14, 3.7E-14
DataValue, -0.35300000000000004, -3.3000000000000005E-14, 3.3000000000000005E-14
DataValue, -0.35200000000000004, -1.06E-13, 1.06E-13
DataValue, -0.35100000000000003, 7.5000000000000009E-14, 7.5000000000000009E-14
DataValue, -0.35000000000000003, -1.0400000000000001E-13, 1.0400000000000001E-13
DataValue, -0.34900000000000003, -8E-15, 8E-15
DataValue, -0.34800000000000003, -1.25E-13, 1.25E-13
DataValue, -0.34700000000000003, -1.22E-13, 1.22E-13
DataValue, -0.34600000000000003, -1.4900000000000002E-13, 1.4900000000000002E-13
DataValue, -0.34500000000000003, -2.44E-13, 2.44E-13
DataValue, -0.34400000000000003, -1.36E-13, 1.36E-13
DataValue, -0.343, -2.8800000000000004E-13, 2.8800000000000004E-13
DataValue, -0.342, -1.8500000000000002E-13, 1.8500000000000002E-13
DataValue, -0.341, -2.2000000000000002E-13, 2.2000000000000002E-13
DataValue, -0.34, -2.36E-13, 2.36E-13
DataValue, -0.339, -6.3000000000000009E-14, 6.3000000000000009E-14
DataValue, -0.338, -5.5000000000000005E-14, 5.5000000000000005E-14
DataValue, -0.337, -3.2E-14, 3.2E-14
DataValue, -0.336, -5.700000000000001E-14, 5.700000000000001E-14
DataValue, -0.335, 8.7000000000000008E-14, 8.7000000000000008E-14
DataValue, -0.334, 1.53E-13, 1.53E-13
DataValue, -0.333, 1.9000000000000002E-13, 1.9000000000000002E-13
DataValue, -0.332, 1.64E-13, 1.64E-13
DataValue, -0.331, 1.2000000000000002E-13, 1.2000000000000002E-13
DataValue, -0.33, 1.41E-13, 1.41E-13
DataValue, -0.329, 2.1500000000000002E-13, 2.1500000000000002E-13
DataValue, -0.328, 1.5100000000000001E-13, 1.5100000000000001E-13
DataValue, -0.327, 2.3900000000000004E-13, 2.3900000000000004E-13
DataValue, -0.326, 1.6E-14, 1.6E-14
DataValue, -0.325, 1.4300000000000002E-13, 1.4300000000000002E-13
DataValue, -0.324, 1.4E-14, 1.4E-14
DataValue, -0.323, 0, 0
DataValue, -0.322, 6.0000000000000009E-14, 6.0000000000000009E-14
DataValue, -0.321, -9.8000000000000012E-14, 9.8000000000000012E-14
DataValue, -0.32, 3.0000000000000002E-15, 3.0000000000000002E-15
DataValue, -0.319, -3.2E-14, 3.2E-14
DataValue, -0.318, -1.16E-13, 1.16E-13
DataValue, -0.317, -1.03E-13, 1.03E-13
DataValue, -0.316, -1.6800000000000002E-13, 1.6800000000000002E-13
DataValue, -0.315, -2.3000000000000003E-14, 2.3000000000000003E-14
DataValue, -0.314, -4.6000000000000006E-14, 4.6000000000000006E-14
DataValue, -0.313, -8.1000000000000008E-14, 8.1000000000000008E-14
DataValue, -0.312, 9.8000000000000012E-14, 9.8000000000000012E-14
DataValue, -0.311, 1.29E-13, 1.29E-13
DataValue, -0.31, 1.9000000000000002E-13, 1.9000000000000002E-13
DataValue, -0.309, 1.46E-13, 1.46E-13
DataValue, -0.308, 1.99E-13, 1.99E-13
DataValue, -0.307, 3.07E-13, 3.07E-13
DataValue, -0.306, 2.4000000000000004E-13, 2.4000000000000004E-13
DataValue, -0.305, 3.1200000000000003E-13, 3.1200000000000003E-13
DataValue, -0.304, 2.59E-13, 2.59E-13
DataValue, -0.303, 3.5E-13, 3.5E-13
DataValue, -0.302, 2.84E-13, 2.84E-13
DataValue, -0.301, 2.61E-13, 2.61E-13
DataValue, -0.3, 2.0100000000000003E-13, 2.0100000000000003E-13
DataValue, -0.299, 6.6000000000000009E-14, 6.6000000000000009E-14
DataValue, -0.298, -7E-15, 7E-15
DataValue, -0.29700000000000004, 7.2000000000000009E-14, 7.2000000000000009E-14
DataValue, -0.29600000000000004, 3.4E-14, 3.4E-14
DataValue, -0.29500000000000004, 5.9E-14, 5.9E-14
DataValue, -0.29400000000000004, -7.3E-14, 7.3E-14
DataValue, -0.29300000000000004, 5E-14, 5E-14
DataValue, -0.29200000000000004, 2E-15, 2E-15
DataValue, -0.29100000000000004, -6.8E-14, 6.8E-14
DataValue, -0.29000000000000004, 6.0000000000000005E-15, 6.0000000000000005E-15
DataValue, -0.28900000000000003, 4.7E-14, 4.7E-14
DataValue, -0.28800000000000003, 1.3100000000000002E-13, 1.3100000000000002E-13
DataValue, -0.28700000000000003, 1.12E-13, 1.12E-13
DataValue, -0.28600000000000003, 1.4E-13, 1.4E-13
DataValue, -0.28500000000000003, 3.05E-13, 3.05E-13
DataValue, -0.28400000000000003, 2.7500000000000004E-13, 2.7500000000000004E-13
DataValue, -0.28300000000000003, 2.79E-13, 2.79E-13
DataValue, -0.28200000000000003, 1.16E-13, 1.16E-13
DataValue, -0.281, 3.0000000000000003E-13, 3.0000000000000003E-13
DataValue, -0.28, 4.4900000000000006E-13, 4.4900000000000006E-13
DataValue, -0.279, 2.43E-13, 2.43E-13
DataValue, -0.278, 4.2500000000000006E-13, 4.2500000000000006E-13
DataValue, -0.277, 3.17E-13, 3.17E-13
DataValue, -0.276, 3.3200000000000005E-13, 3.3200000000000005E-13
DataValue, -0.275, 2.12E-13, 2.12E-13
DataValue, -0.274, 1.4E-13, 1.4E-13
DataValue, -0.273, 3.0000000000000003E-13, 3.0000000000000003E-13
DataValue, -0.272, 9.4E-14, 9.4E-14
DataValue, -0.271, 1.5600000000000002E-13, 1.5600000000000002E-13
DataValue, -0.27, 8.9000000000000012E-14, 8.9000000000000012E-14
DataValue, -0.269, 6.5E-14, 6.5E-14
DataValue, -0.268, 5.4000000000000003E-14, 5.4000000000000003E-14
DataValue, -0.267, 2.2E-14, 2.2E-14
DataValue, -0.266, -1.4E-14, 1.4E-14
DataValue, -0.265, 1.06E-13, 1.06E-13
DataValue, -0.264, -1.3000000000000001E-14, 1.3000000000000001E-14
DataValue, -0.263, 1.9200000000000002E-13, 1.9200000000000002E-13
