
SetupTitle, I/V Sweep read 0.3
PrimitiveTest, I/V Sweep
TestParameter, Context.MainFrame, B1500A
TestParameter, Channel.UnitType, SMU, SMU
TestParameter, Channel.Unit, SMU2:HR/AS, SMU1:HR/AS
TestParameter, Channel.IName, I1, I2
TestParameter, Channel.VName, V1, V2
TestParameter, Channel.Mode, V, V
TestParameter, Channel.Func, VAR1, CONST
TestParameter, Channel.Index, 
TestParameter, Channel.Time, 
TestParameter, Measurement.Port.Unit, SMU2:HR/AS, SMU1:HR/AS
TestParameter, Measurement.Port.SeriesResistor, NONE, NONE
TestParameter, Measurement.Port.Filter, ON, ON
TestParameter, Measurement.Port.OutputVoltageComparison, 0, 0
TestParameter, Measurement.Primary.Locus, Single
TestParameter, Measurement.Primary.Scale, LINEAR
TestParameter, Measurement.Primary.Start, -0.5
TestParameter, Measurement.Primary.Stop, 0.5
TestParameter, Measurement.Primary.Step, 0.001
TestParameter, Measurement.Primary.Compliance, 0.1
TestParameter, Measurement.Primary.PowerCompliance, 0
TestParameter, Measurement.Aborting.Condition, CONTINUE AT ANY
TestParameter, Measurement.PostOutput.Value, START
TestParameter, Measurement.PostOutput.Retention, OFF
TestParameter, Measurement.Bias.Source, -0.5, 0
TestParameter, Measurement.Bias.Compliance, 0.1, 0.1
TestParameter, Measurement.Monitor.Unit, SMU2:HR/AS, SMU1:HR/AS
TestParameter, Measurement.Monitor.Adc, HR ADC, HR ADC
TestParameter, Measurement.Monitor.Measurement, Compliance Side, Compliance Side
TestParameter, Measurement.Monitor.RangingMode, LIMITED, LIMITED
TestParameter, Measurement.Monitor.RangeBoundary, 1nA, 1nA
TestParameter, Measurement.Monitor.RangeRating, BY FULL RANGE, BY FULL RANGE
TestParameter, Measurement.Monitor.RangeRatingCoeff, 50, 50
TestParameter, Measurement.Timing.Hold, 0
TestParameter, Measurement.Timing.Delay, 0
TestParameter, Measurement.Adc.HighSpeed.Mode, AUTO
TestParameter, Measurement.Adc.HighSpeed.Coeff, 1
TestParameter, Measurement.Adc.HighResolution.AutoZero, OFF
TestParameter, Measurement.Adc.HighResolution.Mode, AUTO
TestParameter, Measurement.Adc.HighResolution.Coeff, 100
TestParameter, Measurement.WaitTime.Source.Coeff, 1
TestParameter, Measurement.WaitTime.Source.Offset, 0
TestParameter, Measurement.WaitTime.Monitor.Coeff, 1
TestParameter, Measurement.WaitTime.Monitor.Offset, 0
TestParameter, Function.Analysis.Name, absI
TestParameter, Function.Analysis.Unit, A
TestParameter, Function.Analysis.Definition, abs(I1)
TestParameter, Output.Graph.Enabled, true
TestParameter, Output.Graph.AutoScaling, false
TestParameter, Output.Graph.XAxis.Data, V1
TestParameter, Output.Graph.XAxis.Scale, Linear
TestParameter, Output.Graph.XAxis.Left, 0
TestParameter, Output.Graph.XAxis.Right, 1
TestParameter, Output.Graph.XAxis.RunTimeAutoScale, true
TestParameter, Output.Graph.YAxis.Data, I1, absI
TestParameter, Output.Graph.YAxis.Scale, Linear, Log
TestParameter, Output.Graph.YAxis.Bottom, -0.1, 0
TestParameter, Output.Graph.YAxis.Top, 0.1, 1
TestParameter, Output.Graph.YAxis.Group, , 
TestParameter, Output.Graph.YAxis.RunTimeAutoScale, true, true
TestParameter, AutoAnalysis.Interpolation, false
TestParameter, AutoAnalysis.Var2StepCount, 1
TestParameter, AutoAnalysis.Var2StepScript, 
TestParameter, AutoAnalysis.Line1.Enabled, false
TestParameter, AutoAnalysis.Line1.Type, 1
TestParameter, AutoAnalysis.Line1.Fix, True
TestParameter, AutoAnalysis.Line1.YAxis, 0
TestParameter, AutoAnalysis.Line1.Point1.Type, 0
TestParameter, AutoAnalysis.Line1.Point1.XY.X, 
TestParameter, AutoAnalysis.Line1.Point1.XY.Y, 
TestParameter, AutoAnalysis.Line1.Point1.Data.Var, 
TestParameter, AutoAnalysis.Line1.Point1.Data.Condition, 
TestParameter, AutoAnalysis.Line1.Point1.Data.Start, false
TestParameter, AutoAnalysis.Line1.Point1.Data.StartVar, 
TestParameter, AutoAnalysis.Line1.Point1.Data.StartCondition, 
TestParameter, AutoAnalysis.Line1.Point2.Type, 0
TestParameter, AutoAnalysis.Line1.Point2.XY.X, 
TestParameter, AutoAnalysis.Line1.Point2.XY.Y, 
TestParameter, AutoAnalysis.Line1.Point2.Data.Var, 
TestParameter, AutoAnalysis.Line1.Point2.Data.Condition, 
TestParameter, AutoAnalysis.Line1.Point2.Data.Start, false
TestParameter, AutoAnalysis.Line1.Point2.Data.StartVar, 
TestParameter, AutoAnalysis.Line1.Point2.Data.StartCondition, 
TestParameter, AutoAnalysis.Line1.GradientExpr, 0
TestParameter, AutoAnalysis.Line2.Enabled, false
TestParameter, AutoAnalysis.Line2.Type, 1
TestParameter, AutoAnalysis.Line2.Fix, True
TestParameter, AutoAnalysis.Line2.YAxis, 0
TestParameter, AutoAnalysis.Line2.Point1.Type, 0
TestParameter, AutoAnalysis.Line2.Point1.XY.X, 
TestParameter, AutoAnalysis.Line2.Point1.XY.Y, 
TestParameter, AutoAnalysis.Line2.Point1.Data.Var, 
TestParameter, AutoAnalysis.Line2.Point1.Data.Condition, 
TestParameter, AutoAnalysis.Line2.Point1.Data.Start, false
TestParameter, AutoAnalysis.Line2.Point1.Data.StartVar, 
TestParameter, AutoAnalysis.Line2.Point1.Data.StartCondition, 
TestParameter, AutoAnalysis.Line2.Point2.Type, 0
TestParameter, AutoAnalysis.Line2.Point2.XY.X, 
TestParameter, AutoAnalysis.Line2.Point2.XY.Y, 
TestParameter, AutoAnalysis.Line2.Point2.Data.Var, 
TestParameter, AutoAnalysis.Line2.Point2.Data.Condition, 
TestParameter, AutoAnalysis.Line2.Point2.Data.Start, false
TestParameter, AutoAnalysis.Line2.Point2.Data.StartVar, 
TestParameter, AutoAnalysis.Line2.Point2.Data.StartCondition, 
TestParameter, AutoAnalysis.Line2.GradientExpr, 0
TestParameter, AutoAnalysis.Marker.Enabled, false
TestParameter, AutoAnalysis.Marker.Data.Var, 
TestParameter, AutoAnalysis.Marker.Data.Condition, 
TestParameter, AutoAnalysis.Marker.Data.Start, false
TestParameter, AutoAnalysis.Marker.Data.StartVar, 
TestParameter, AutoAnalysis.Marker.Data.StartCondition, 
MetaData, TestRecord.EntryPoint, true
MetaData, TestRecord.RecordTime, 03/01/2021 13:41:25
MetaData, TestRecord.TestTarget, FlashIntA_1_40um_B1
MetaData, TestRecord.IterationIndex, 1
MetaData, TestRecord.Preservation, true
MetaData, TestRecord.Flag, 
MetaData, TestRecord.Remarks, 
MetaData, TestRecord.LinkKey, 917106b4-8a25-4736-a2e8-dcc2e5bee18d
MetaData, TestRecord.Parameters, 
Dimension1, 1001, 1001, 1001
Dimension2, 1, 1, 1
DataName, V1, I1, absI
DataValue, -0.5, -3.8723E-11, 3.8723E-11
DataValue, -0.499, -4.6557000000000005E-11, 4.6557000000000005E-11
DataValue, -0.498, -4.8269E-11, 4.8269E-11
DataValue, -0.497, -3.6989000000000004E-11, 3.6989000000000004E-11
DataValue, -0.496, -6.2436000000000011E-11, 6.2436000000000011E-11
DataValue, -0.49500000000000005, -5.8194000000000003E-11, 5.8194000000000003E-11
DataValue, -0.49400000000000005, -4.5606E-11, 4.5606E-11
DataValue, -0.49300000000000005, -5.0196E-11, 5.0196E-11
DataValue, -0.49200000000000005, -4.723E-11, 4.723E-11
DataValue, -0.49100000000000005, -4.0874000000000005E-11, 4.0874000000000005E-11
DataValue, -0.49000000000000005, -3.1811E-11, 3.1811E-11
DataValue, -0.48900000000000005, -2.1157E-11, 2.1157E-11
DataValue, -0.48800000000000004, -7.456E-12, 7.456E-12
DataValue, -0.48700000000000004, 2.7011E-11, 2.7011E-11
DataValue, -0.48600000000000004, 3.2310000000000003E-12, 3.2310000000000003E-12
DataValue, -0.48500000000000004, 2.3019000000000003E-11, 2.3019000000000003E-11
DataValue, -0.48400000000000004, 3.0853E-11, 3.0853E-11
DataValue, -0.48300000000000004, 5.0947E-11, 5.0947E-11
DataValue, -0.48200000000000004, 4.4391000000000003E-11, 4.4391000000000003E-11
DataValue, -0.48100000000000004, 1.1868E-11, 1.1868E-11
DataValue, -0.48000000000000004, 4.3659000000000005E-11, 4.3659000000000005E-11
DataValue, -0.47900000000000004, 6.8670000000000005E-12, 6.8670000000000005E-12
DataValue, -0.47800000000000004, 2.8476000000000003E-11, 2.8476000000000003E-11
DataValue, -0.47700000000000004, 2.8693000000000003E-11, 2.8693000000000003E-11
DataValue, -0.47600000000000003, 1.0465000000000001E-11, 1.0465000000000001E-11
DataValue, -0.47500000000000003, -8.265E-12, 8.265E-12
DataValue, -0.47400000000000003, -1.1988000000000001E-11, 1.1988000000000001E-11
DataValue, -0.47300000000000003, -2.2666000000000002E-11, 2.2666000000000002E-11
DataValue, -0.47200000000000003, -3.0945E-11, 3.0945E-11
DataValue, -0.47100000000000003, -8.9740000000000011E-12, 8.9740000000000011E-12
DataValue, -0.47000000000000003, -9.6826000000000008E-11, 9.6826000000000008E-11
DataValue, -0.46900000000000003, -3.7881000000000005E-11, 3.7881000000000005E-11
DataValue, -0.468, -6.1155000000000008E-11, 6.1155000000000008E-11
DataValue, -0.467, -5.4450000000000003E-11, 5.4450000000000003E-11
DataValue, -0.466, -6.6450000000000009E-12, 6.6450000000000009E-12
DataValue, -0.465, -4.2824E-11, 4.2824E-11
DataValue, -0.464, -1.2124000000000001E-11, 1.2124000000000001E-11
DataValue, -0.463, -1.7822E-11, 1.7822E-11
DataValue, -0.462, 1.8955E-11, 1.8955E-11
DataValue, -0.461, 6.2540000000000006E-12, 6.2540000000000006E-12
DataValue, -0.46, 1.6828E-11, 1.6828E-11
DataValue, -0.459, 3.0157E-11, 3.0157E-11
DataValue, -0.458, 6.8723000000000009E-11, 6.8723000000000009E-11
DataValue, -0.457, 2.8455000000000003E-11, 2.8455000000000003E-11
DataValue, -0.456, 3.6366000000000004E-11, 3.6366000000000004E-11
DataValue, -0.455, 4.9843000000000006E-11, 4.9843000000000006E-11
DataValue, -0.454, 4.954E-12, 4.954E-12
DataValue, -0.453, 3.6290000000000005E-11, 3.6290000000000005E-11
DataValue, -0.452, 5.9091000000000008E-11, 5.9091000000000008E-11
DataValue, -0.451, 4.0350000000000005E-12, 4.0350000000000005E-12
DataValue, -0.45, 7.6760000000000008E-12, 7.6760000000000008E-12
DataValue, -0.449, -8.5200000000000011E-13, 8.5200000000000011E-13
DataValue, -0.448, 1.6233E-11, 1.6233E-11
DataValue, -0.447, -3.2937000000000005E-11, 3.2937000000000005E-11
DataValue, -0.446, -4.5555000000000005E-11, 4.5555000000000005E-11
DataValue, -0.445, -1.7339000000000003E-11, 1.7339000000000003E-11
DataValue, -0.444, -6.1762E-11, 6.1762E-11
DataValue, -0.443, -6.3268E-11, 6.3268E-11
DataValue, -0.442, -2.8763000000000003E-11, 2.8763000000000003E-11
DataValue, -0.441, -3.6191E-11, 3.6191E-11
DataValue, -0.44, -2.3770000000000002E-11, 2.3770000000000002E-11
DataValue, -0.439, -4.1206000000000004E-11, 4.1206000000000004E-11
DataValue, -0.438, -1.5945000000000003E-11, 1.5945000000000003E-11
DataValue, -0.437, -3.691E-12, 3.691E-12
DataValue, -0.436, -1.7724E-11, 1.7724E-11
DataValue, -0.435, -2.056E-12, 2.056E-12
DataValue, -0.434, 4.3664E-11, 4.3664E-11
DataValue, -0.433, 1.4411E-11, 1.4411E-11
DataValue, -0.432, 2.7237E-11, 2.7237E-11
DataValue, -0.431, 2.7815000000000003E-11, 2.7815000000000003E-11
DataValue, -0.43, 4.6949E-11, 4.6949E-11
DataValue, -0.42900000000000005, 7.1414000000000011E-11, 7.1414000000000011E-11
DataValue, -0.42800000000000005, 2.5156E-11, 2.5156E-11
DataValue, -0.42700000000000005, 2.2739E-11, 2.2739E-11
DataValue, -0.42600000000000005, 1.611E-11, 1.611E-11
DataValue, -0.42500000000000004, 1.4425000000000001E-11, 1.4425000000000001E-11
DataValue, -0.42400000000000004, 4.288E-12, 4.288E-12
DataValue, -0.42300000000000004, -2.0286000000000003E-11, 2.0286000000000003E-11
DataValue, -0.42200000000000004, -2.0147000000000003E-11, 2.0147000000000003E-11
DataValue, -0.42100000000000004, -3.0742E-11, 3.0742E-11
DataValue, -0.42000000000000004, -5.1422000000000006E-11, 5.1422000000000006E-11
DataValue, -0.41900000000000004, -1.0304000000000001E-11, 1.0304000000000001E-11
DataValue, -0.41800000000000004, -5.1437000000000005E-11, 5.1437000000000005E-11
DataValue, -0.41700000000000004, -1.961E-11, 1.961E-11
DataValue, -0.41600000000000004, -7.2493E-11, 7.2493E-11
DataValue, -0.41500000000000004, -3.5673000000000004E-11, 3.5673000000000004E-11
DataValue, -0.41400000000000003, -3.0985000000000003E-11, 3.0985000000000003E-11
DataValue, -0.41300000000000003, -2.4888000000000003E-11, 2.4888000000000003E-11
DataValue, -0.41200000000000003, -2.8864000000000003E-11, 2.8864000000000003E-11
DataValue, -0.41100000000000003, -1.8180000000000001E-12, 1.8180000000000001E-12
DataValue, -0.41000000000000003, 3.2553E-11, 3.2553E-11
DataValue, -0.40900000000000003, 1.1338E-11, 1.1338E-11
DataValue, -0.40800000000000003, 6.1825E-11, 6.1825E-11
DataValue, -0.40700000000000003, 1.8322000000000002E-11, 1.8322000000000002E-11
DataValue, -0.406, 3.2940000000000005E-11, 3.2940000000000005E-11
DataValue, -0.405, 3.9494000000000006E-11, 3.9494000000000006E-11
DataValue, -0.404, 3.4032E-11, 3.4032E-11
DataValue, -0.403, 4.4057E-11, 4.4057E-11
DataValue, -0.402, 3.4137000000000004E-11, 3.4137000000000004E-11
DataValue, -0.401, 2.4606E-11, 2.4606E-11
DataValue, -0.4, 2.2736000000000002E-11, 2.2736000000000002E-11
DataValue, -0.399, 4.4050000000000007E-12, 4.4050000000000007E-12
DataValue, -0.398, 1.9900000000000002E-12, 1.9900000000000002E-12
DataValue, -0.397, -4.2610000000000005E-12, 4.2610000000000005E-12
DataValue, -0.396, -3.583E-11, 3.583E-11
DataValue, -0.395, -2.4108E-11, 2.4108E-11
DataValue, -0.394, -1.2729E-11, 1.2729E-11
DataValue, -0.393, -5.6146000000000006E-11, 5.6146000000000006E-11
DataValue, -0.392, -4.7282E-11, 4.7282E-11
DataValue, -0.391, -4.3282E-11, 4.3282E-11
DataValue, -0.39, -3.9834E-11, 3.9834E-11
DataValue, -0.389, -3.2566E-11, 3.2566E-11
DataValue, -0.388, -1.2749E-11, 1.2749E-11
DataValue, -0.387, -5.0274000000000007E-11, 5.0274000000000007E-11
DataValue, -0.386, -6.931E-12, 6.931E-12
DataValue, -0.385, 7.8150000000000009E-12, 7.8150000000000009E-12
DataValue, -0.384, 1.0316000000000001E-11, 1.0316000000000001E-11
DataValue, -0.383, 2.1026000000000002E-11, 2.1026000000000002E-11
DataValue, -0.382, 3.4295E-11, 3.4295E-11
DataValue, -0.381, -8.573E-12, 8.573E-12
DataValue, -0.38, 2.3135000000000003E-11, 2.3135000000000003E-11
DataValue, -0.379, 5.1578000000000007E-11, 5.1578000000000007E-11
DataValue, -0.378, 4.301E-11, 4.301E-11
DataValue, -0.377, 3.4581E-11, 3.4581E-11
DataValue, -0.376, 3.0086E-11, 3.0086E-11
DataValue, -0.375, 5.9308000000000009E-11, 5.9308000000000009E-11
DataValue, -0.374, 5.4650000000000006E-12, 5.4650000000000006E-12
DataValue, -0.373, 2.1051000000000003E-11, 2.1051000000000003E-11
DataValue, -0.372, -2.2472000000000002E-11, 2.2472000000000002E-11
DataValue, -0.371, -1.7126E-11, 1.7126E-11
DataValue, -0.37, -3.0038E-11, 3.0038E-11
DataValue, -0.369, -2.9591E-11, 2.9591E-11
DataValue, -0.368, -4.0097E-11, 4.0097E-11
DataValue, -0.367, -4.0269000000000005E-11, 4.0269000000000005E-11
DataValue, -0.366, -1.1579000000000002E-11, 1.1579000000000002E-11
DataValue, -0.365, -6.709900000000001E-11, 6.709900000000001E-11
DataValue, -0.364, -2.6642000000000002E-11, 2.6642000000000002E-11
DataValue, -0.36300000000000004, -2.6942E-11, 2.6942E-11
DataValue, -0.36200000000000004, -1.9426000000000002E-11, 1.9426000000000002E-11
DataValue, -0.36100000000000004, -5.992E-12, 5.992E-12
DataValue, -0.36000000000000004, -1.5891000000000002E-11, 1.5891000000000002E-11
DataValue, -0.35900000000000004, 1.1492000000000002E-11, 1.1492000000000002E-11
DataValue, -0.35800000000000004, 3.0332000000000004E-11, 3.0332000000000004E-11
DataValue, -0.35700000000000004, 4.8202E-11, 4.8202E-11
DataValue, -0.35600000000000004, 5.576E-11, 5.576E-11
DataValue, -0.35500000000000004, 1.8125000000000002E-11, 1.8125000000000002E-11
DataValue, -0.35400000000000004, 4.2739000000000004E-11, 4.2739000000000004E-11
DataValue, -0.35300000000000004, 4.7764000000000007E-11, 4.7764000000000007E-11
DataValue, -0.35200000000000004, 3.3199000000000003E-11, 3.3199000000000003E-11
DataValue, -0.35100000000000003, 3.7297E-11, 3.7297E-11
DataValue, -0.35000000000000003, 3.6000000000000004E-12, 3.6000000000000004E-12
DataValue, -0.34900000000000003, 1.5879000000000002E-11, 1.5879000000000002E-11
DataValue, -0.34800000000000003, 2.4960000000000003E-12, 2.4960000000000003E-12
DataValue, -0.34700000000000003, 1.7430000000000002E-12, 1.7430000000000002E-12
DataValue, -0.34600000000000003, 3.799E-12, 3.799E-12
DataValue, -0.34500000000000003, -2.3378000000000003E-11, 2.3378000000000003E-11
DataValue, -0.34400000000000003, -5.6102E-11, 5.6102E-11
DataValue, -0.343, -3.0031E-11, 3.0031E-11
DataValue, -0.342, -5.4381000000000006E-11, 5.4381000000000006E-11
DataValue, -0.341, -4.872E-11, 4.872E-11
DataValue, -0.34, -3.321E-11, 3.321E-11
DataValue, -0.339, -2.5379000000000002E-11, 2.5379000000000002E-11
DataValue, -0.338, -4.9637E-11, 4.9637E-11
DataValue, -0.337, -9.3520000000000013E-12, 9.3520000000000013E-12
DataValue, -0.336, -9.2380000000000008E-12, 9.2380000000000008E-12
DataValue, -0.335, -4.888E-12, 4.888E-12
DataValue, -0.334, 2.036E-11, 2.036E-11
DataValue, -0.333, 2.3393000000000003E-11, 2.3393000000000003E-11
DataValue, -0.332, 2.3531E-11, 2.3531E-11
DataValue, -0.331, 3.1568E-11, 3.1568E-11
DataValue, -0.33, 3.7014000000000005E-11, 3.7014000000000005E-11
DataValue, -0.329, 4.6649000000000006E-11, 4.6649000000000006E-11
DataValue, -0.328, 4.1159E-11, 4.1159E-11
DataValue, -0.327, 3.719E-11, 3.719E-11
DataValue, -0.326, 3.0185000000000004E-11, 3.0185000000000004E-11
DataValue, -0.325, 2.0933000000000002E-11, 2.0933000000000002E-11
DataValue, -0.324, 2.8874E-11, 2.8874E-11
DataValue, -0.323, 2.0054E-11, 2.0054E-11
DataValue, -0.322, -2.2421E-11, 2.2421E-11
DataValue, -0.321, 1.8873000000000002E-11, 1.8873000000000002E-11
DataValue, -0.32, -2.3063000000000002E-11, 2.3063000000000002E-11
DataValue, -0.319, -3.802E-11, 3.802E-11
DataValue, -0.318, -6.0831000000000007E-11, 6.0831000000000007E-11
DataValue, -0.317, -3.2622000000000004E-11, 3.2622000000000004E-11
DataValue, -0.316, -4.8073E-11, 4.8073E-11
DataValue, -0.315, -5.2145000000000004E-11, 5.2145000000000004E-11
DataValue, -0.314, -2.9451E-11, 2.9451E-11
DataValue, -0.313, -3.9043E-11, 3.9043E-11
DataValue, -0.312, -1.3895000000000001E-11, 1.3895000000000001E-11
DataValue, -0.311, -1.2737000000000001E-11, 1.2737000000000001E-11
DataValue, -0.31, -5.5540000000000008E-12, 5.5540000000000008E-12
DataValue, -0.309, 1.8436E-11, 1.8436E-11
DataValue, -0.308, 2.2408000000000002E-11, 2.2408000000000002E-11
DataValue, -0.307, 3.5043E-11, 3.5043E-11
DataValue, -0.306, 4.2002E-11, 4.2002E-11
DataValue, -0.305, 4.4255000000000006E-11, 4.4255000000000006E-11
DataValue, -0.304, 7.8915E-11, 7.8915E-11
DataValue, -0.303, 3.2248E-11, 3.2248E-11
DataValue, -0.302, 3.4916000000000005E-11, 3.4916000000000005E-11
DataValue, -0.301, 3.7033E-11, 3.7033E-11
DataValue, -0.3, 9.2710000000000012E-12, 9.2710000000000012E-12
DataValue, -0.299, 1.0671000000000001E-11, 1.0671000000000001E-11
DataValue, -0.298, 1.9740000000000003E-12, 1.9740000000000003E-12
DataValue, -0.29700000000000004, -4.9940000000000007E-12, 4.9940000000000007E-12
DataValue, -0.29600000000000004, -3.2554E-11, 3.2554E-11
DataValue, -0.29500000000000004, -3.0892E-11, 3.0892E-11
DataValue, -0.29400000000000004, -7.439100000000001E-11, 7.439100000000001E-11
DataValue, -0.29300000000000004, -2.9292E-11, 2.9292E-11
DataValue, -0.29200000000000004, -2.7908000000000003E-11, 2.7908000000000003E-11
DataValue, -0.29100000000000004, -3.9378000000000006E-11, 3.9378000000000006E-11
DataValue, -0.29000000000000004, -5.2457000000000006E-11, 5.2457000000000006E-11
DataValue, -0.28900000000000003, -4.1404E-11, 4.1404E-11
DataValue, -0.28800000000000003, -3.5131E-11, 3.5131E-11
DataValue, -0.28700000000000003, -1.1189E-11, 1.1189E-11
DataValue, -0.28600000000000003, -8.9650000000000015E-12, 8.9650000000000015E-12
DataValue, -0.28500000000000003, 3.0270000000000003E-12, 3.0270000000000003E-12
DataValue, -0.28400000000000003, -1.5490000000000002E-12, 1.5490000000000002E-12
DataValue, -0.28300000000000003, 3.2546000000000005E-11, 3.2546000000000005E-11
DataValue, -0.28200000000000003, 3.5834E-11, 3.5834E-11
DataValue, -0.281, 3.6233E-11, 3.6233E-11
DataValue, -0.28, 5.7704000000000007E-11, 5.7704000000000007E-11
DataValue, -0.279, 6.389E-11, 6.389E-11
