
SetupTitle, Break of oxide
PrimitiveTest, I/V Sweep
TestParameter, Context.MainFrame, B1500A
TestParameter, Channel.UnitType, SMU, SMU
TestParameter, Channel.Unit, SMU2:HR/AS, SMU1:HR/AS
TestParameter, Channel.IName, I1, I2
TestParameter, Channel.VName, V1, V2
TestParameter, Channel.Mode, V, V
TestParameter, Channel.Func, VAR1, CONST
TestParameter, Channel.Index, 
TestParameter, Channel.Time, 
TestParameter, Measurement.Port.Unit, SMU2:HR/AS, SMU1:HR/AS
TestParameter, Measurement.Port.SeriesResistor, NONE, NONE
TestParameter, Measurement.Port.Filter, ON, ON
TestParameter, Measurement.Port.OutputVoltageComparison, 0, 0
TestParameter, Measurement.Primary.Locus, Single
TestParameter, Measurement.Primary.Scale, LINEAR
TestParameter, Measurement.Primary.Start, 0
TestParameter, Measurement.Primary.Stop, 10
TestParameter, Measurement.Primary.Step, 0.05
TestParameter, Measurement.Primary.Compliance, 0.1
TestParameter, Measurement.Primary.PowerCompliance, 0
TestParameter, Measurement.Aborting.Condition, CONTINUE AT ANY
TestParameter, Measurement.PostOutput.Value, START
TestParameter, Measurement.PostOutput.Retention, OFF
TestParameter, Measurement.Bias.Source, 0, 0
TestParameter, Measurement.Bias.Compliance, 0.1, 0.1
TestParameter, Measurement.Monitor.Unit, SMU2:HR/AS, SMU1:HR/AS
TestParameter, Measurement.Monitor.Adc, HR ADC, HR ADC
TestParameter, Measurement.Monitor.Measurement, Compliance Side, Compliance Side
TestParameter, Measurement.Monitor.RangingMode, LIMITED, LIMITED
TestParameter, Measurement.Monitor.RangeBoundary, 1nA, 1nA
TestParameter, Measurement.Monitor.RangeRating, BY FULL RANGE, BY FULL RANGE
TestParameter, Measurement.Monitor.RangeRatingCoeff, 50, 50
TestParameter, Measurement.Timing.Hold, 1
TestParameter, Measurement.Timing.Delay, 0
TestParameter, Measurement.Adc.HighSpeed.Mode, AUTO
TestParameter, Measurement.Adc.HighSpeed.Coeff, 1
TestParameter, Measurement.Adc.HighResolution.AutoZero, OFF
TestParameter, Measurement.Adc.HighResolution.Mode, AUTO
TestParameter, Measurement.Adc.HighResolution.Coeff, 6
TestParameter, Measurement.WaitTime.Source.Coeff, 1
TestParameter, Measurement.WaitTime.Source.Offset, 0
TestParameter, Measurement.WaitTime.Monitor.Coeff, 1
TestParameter, Measurement.WaitTime.Monitor.Offset, 0
TestParameter, Function.Analysis.Name, absI
TestParameter, Function.Analysis.Unit, A
TestParameter, Function.Analysis.Definition, abs(I1)
TestParameter, Output.Graph.Enabled, true
TestParameter, Output.Graph.AutoScaling, false
TestParameter, Output.Graph.XAxis.Data, V1
TestParameter, Output.Graph.XAxis.Scale, Linear
TestParameter, Output.Graph.XAxis.Left, 0
TestParameter, Output.Graph.XAxis.Right, 3
TestParameter, Output.Graph.XAxis.RunTimeAutoScale, true
TestParameter, Output.Graph.YAxis.Data, I1, absI
TestParameter, Output.Graph.YAxis.Scale, Linear, Log
TestParameter, Output.Graph.YAxis.Bottom, 0.001, 0
TestParameter, Output.Graph.YAxis.Top, 0.01, 1
TestParameter, Output.Graph.YAxis.Group, , 
TestParameter, Output.Graph.YAxis.RunTimeAutoScale, true, true
TestParameter, AutoAnalysis.Interpolation, false
TestParameter, AutoAnalysis.Var2StepCount, 1
TestParameter, AutoAnalysis.Var2StepScript, 
TestParameter, AutoAnalysis.Line1.Enabled, false
TestParameter, AutoAnalysis.Line1.Type, 1
TestParameter, AutoAnalysis.Line1.Fix, True
TestParameter, AutoAnalysis.Line1.YAxis, 0
TestParameter, AutoAnalysis.Line1.Point1.Type, 0
TestParameter, AutoAnalysis.Line1.Point1.XY.X, 
TestParameter, AutoAnalysis.Line1.Point1.XY.Y, 
TestParameter, AutoAnalysis.Line1.Point1.Data.Var, 
TestParameter, AutoAnalysis.Line1.Point1.Data.Condition, 
TestParameter, AutoAnalysis.Line1.Point1.Data.Start, false
TestParameter, AutoAnalysis.Line1.Point1.Data.StartVar, 
TestParameter, AutoAnalysis.Line1.Point1.Data.StartCondition, 
TestParameter, AutoAnalysis.Line1.Point2.Type, 0
TestParameter, AutoAnalysis.Line1.Point2.XY.X, 
TestParameter, AutoAnalysis.Line1.Point2.XY.Y, 
TestParameter, AutoAnalysis.Line1.Point2.Data.Var, 
TestParameter, AutoAnalysis.Line1.Point2.Data.Condition, 
TestParameter, AutoAnalysis.Line1.Point2.Data.Start, false
TestParameter, AutoAnalysis.Line1.Point2.Data.StartVar, 
TestParameter, AutoAnalysis.Line1.Point2.Data.StartCondition, 
TestParameter, AutoAnalysis.Line1.GradientExpr, 0
TestParameter, AutoAnalysis.Line2.Enabled, false
TestParameter, AutoAnalysis.Line2.Type, 1
TestParameter, AutoAnalysis.Line2.Fix, True
TestParameter, AutoAnalysis.Line2.YAxis, 0
TestParameter, AutoAnalysis.Line2.Point1.Type, 0
TestParameter, AutoAnalysis.Line2.Point1.XY.X, 
TestParameter, AutoAnalysis.Line2.Point1.XY.Y, 
TestParameter, AutoAnalysis.Line2.Point1.Data.Var, 
TestParameter, AutoAnalysis.Line2.Point1.Data.Condition, 
TestParameter, AutoAnalysis.Line2.Point1.Data.Start, false
TestParameter, AutoAnalysis.Line2.Point1.Data.StartVar, 
TestParameter, AutoAnalysis.Line2.Point1.Data.StartCondition, 
TestParameter, AutoAnalysis.Line2.Point2.Type, 0
TestParameter, AutoAnalysis.Line2.Point2.XY.X, 
TestParameter, AutoAnalysis.Line2.Point2.XY.Y, 
TestParameter, AutoAnalysis.Line2.Point2.Data.Var, 
TestParameter, AutoAnalysis.Line2.Point2.Data.Condition, 
TestParameter, AutoAnalysis.Line2.Point2.Data.Start, false
TestParameter, AutoAnalysis.Line2.Point2.Data.StartVar, 
TestParameter, AutoAnalysis.Line2.Point2.Data.StartCondition, 
TestParameter, AutoAnalysis.Line2.GradientExpr, 0
TestParameter, AutoAnalysis.Marker.Enabled, false
TestParameter, AutoAnalysis.Marker.Data.Var, 
TestParameter, AutoAnalysis.Marker.Data.Condition, 
TestParameter, AutoAnalysis.Marker.Data.Start, false
TestParameter, AutoAnalysis.Marker.Data.StartVar, 
TestParameter, AutoAnalysis.Marker.Data.StartCondition, 
MetaData, TestRecord.EntryPoint, true
MetaData, TestRecord.RecordTime, 08/13/2021 11:03:10
MetaData, TestRecord.TestTarget, FlashIntD_1_25um_E5
MetaData, TestRecord.IterationIndex, 3
MetaData, TestRecord.Preservation, true
MetaData, TestRecord.Flag, 
MetaData, TestRecord.Remarks, 
MetaData, TestRecord.LinkKey, 10b26790-e1dd-4ae8-b0f9-ec32bf86397d
MetaData, TestRecord.Parameters, 
Dimension1, 201, 201, 201
Dimension2, 1, 1, 1
DataName, V1, I1, absI
DataValue, 0, 2.4022E-05, 2.4022E-05
DataValue, 0.05, 0.004517, 0.004517
DataValue, 0.1, 0.0088984, 0.0088984
DataValue, 0.15, 0.013292000000000002, 0.013292000000000002
DataValue, 0.2, 0.017596, 0.017596
DataValue, 0.25, 0.02179, 0.02179
DataValue, 0.3, 0.025868000000000002, 0.025868000000000002
DataValue, 0.35000000000000003, 0.029798, 0.029798
DataValue, 0.4, 0.033580000000000006, 0.033580000000000006
DataValue, 0.45, 0.03715, 0.03715
DataValue, 0.5, 0.040628000000000004, 0.040628000000000004
DataValue, 0.55, 0.043942, 0.043942
DataValue, 0.6, 0.047116000000000005, 0.047116000000000005
DataValue, 0.65, 0.050138, 0.050138
DataValue, 0.70000000000000007, 0.053140000000000007, 0.053140000000000007
DataValue, 0.75, 0.055966, 0.055966
DataValue, 0.8, 0.058562, 0.058562
DataValue, 0.85, 0.061148000000000008, 0.061148000000000008
DataValue, 0.9, 0.064014, 0.064014
DataValue, 0.95000000000000007, 0.066282000000000008, 0.066282000000000008
DataValue, 1, 0.068254000000000009, 0.068254000000000009
DataValue, 1.05, 0.070514000000000007, 0.070514000000000007
DataValue, 1.1, 0.071906000000000012, 0.071906000000000012
DataValue, 1.1500000000000001, 0.089168000000000011, 0.089168000000000011
DataValue, 1.2, 0.093326, 0.093326
DataValue, 1.25, 0.099938000000000013, 0.099938000000000013
DataValue, 1.3, 0.099992000000000011, 0.099992000000000011
DataValue, 1.35, 0.10001600000000001, 0.10001600000000001
DataValue, 1.4000000000000001, 0.10000800000000001, 0.10000800000000001
DataValue, 1.45, 0.099996000000000015, 0.099996000000000015
DataValue, 1.5, 0.1, 0.1
DataValue, 1.55, 0.10001600000000001, 0.10001600000000001
DataValue, 1.6, 0.099996000000000015, 0.099996000000000015
DataValue, 1.6500000000000001, 0.10000800000000001, 0.10000800000000001
DataValue, 1.7, 0.10000200000000001, 0.10000200000000001
DataValue, 1.75, 0.10000400000000001, 0.10000400000000001
DataValue, 1.8, 0.099980000000000013, 0.099980000000000013
DataValue, 1.85, 0.10000400000000001, 0.10000400000000001
DataValue, 1.9000000000000001, 0.099986, 0.099986
DataValue, 1.95, 0.10001600000000001, 0.10001600000000001
DataValue, 2, 0.10000600000000001, 0.10000600000000001
DataValue, 2.05, 0.099986, 0.099986
DataValue, 2.1, 0.10000400000000001, 0.10000400000000001
DataValue, 2.15, 0.10000400000000001, 0.10000400000000001
DataValue, 2.2, 0.10000400000000001, 0.10000400000000001
DataValue, 2.25, 0.10000400000000001, 0.10000400000000001
DataValue, 2.3000000000000003, 0.10000400000000001, 0.10000400000000001
DataValue, 2.35, 0.10000400000000001, 0.10000400000000001
DataValue, 2.4, 0.10000400000000001, 0.10000400000000001
DataValue, 2.45, 0.10000400000000001, 0.10000400000000001
DataValue, 2.5, 0.10000600000000001, 0.10000600000000001
DataValue, 2.5500000000000003, 0.10000400000000001, 0.10000400000000001
DataValue, 2.6, 0.10000400000000001, 0.10000400000000001
DataValue, 2.65, 0.10000200000000001, 0.10000200000000001
DataValue, 2.7, 0.10000400000000001, 0.10000400000000001
DataValue, 2.75, 0.10000200000000001, 0.10000200000000001
DataValue, 2.8000000000000003, 0.10000400000000001, 0.10000400000000001
DataValue, 2.85, 0.10001000000000002, 0.10001000000000002
DataValue, 2.9, 0.10000400000000001, 0.10000400000000001
DataValue, 2.95, 0.10000400000000001, 0.10000400000000001
DataValue, 3, 0.10000600000000001, 0.10000600000000001
DataValue, 3.0500000000000003, 0.10000400000000001, 0.10000400000000001
DataValue, 3.1, 0.10000400000000001, 0.10000400000000001
DataValue, 3.15, 0.10000400000000001, 0.10000400000000001
DataValue, 3.2, 0.1, 0.1
DataValue, 3.25, 0.10000400000000001, 0.10000400000000001
DataValue, 3.3000000000000003, 0.10000800000000001, 0.10000800000000001
DataValue, 3.35, 0.10000400000000001, 0.10000400000000001
DataValue, 3.4, 0.10000400000000001, 0.10000400000000001
DataValue, 3.45, 0.10000400000000001, 0.10000400000000001
DataValue, 3.5, 0.10000200000000001, 0.10000200000000001
DataValue, 3.5500000000000003, 0.10000400000000001, 0.10000400000000001
DataValue, 3.6, 0.10000400000000001, 0.10000400000000001
DataValue, 3.65, 0.099958, 0.099958
DataValue, 3.7, 0.10000800000000001, 0.10000800000000001
DataValue, 3.75, 0.10000400000000001, 0.10000400000000001
DataValue, 3.8000000000000003, 0.10000800000000001, 0.10000800000000001
DataValue, 3.85, 0.10000400000000001, 0.10000400000000001
DataValue, 3.9, 0.10000400000000001, 0.10000400000000001
DataValue, 3.95, 0.10000600000000001, 0.10000600000000001
DataValue, 4, 0.10000400000000001, 0.10000400000000001
DataValue, 4.05, 0.10000400000000001, 0.10000400000000001
DataValue, 4.1, 0.10000400000000001, 0.10000400000000001
DataValue, 4.15, 0.10000400000000001, 0.10000400000000001
DataValue, 4.2, 0.10000400000000001, 0.10000400000000001
DataValue, 4.25, 0.10000400000000001, 0.10000400000000001
DataValue, 4.3, 0.10000400000000001, 0.10000400000000001
DataValue, 4.3500000000000005, 0.10000400000000001, 0.10000400000000001
DataValue, 4.4, 0.10000400000000001, 0.10000400000000001
DataValue, 4.45, 0.10000600000000001, 0.10000600000000001
DataValue, 4.5, 0.10000200000000001, 0.10000200000000001
DataValue, 4.55, 0.10000400000000001, 0.10000400000000001
DataValue, 4.6000000000000005, 0.10000400000000001, 0.10000400000000001
DataValue, 4.65, 0.10000200000000001, 0.10000200000000001
DataValue, 4.7, 0.10000400000000001, 0.10000400000000001
DataValue, 4.75, 0.10000400000000001, 0.10000400000000001
DataValue, 4.8, 0.10000400000000001, 0.10000400000000001
DataValue, 4.8500000000000005, 0.10000400000000001, 0.10000400000000001
DataValue, 4.9, 0.10000400000000001, 0.10000400000000001
DataValue, 4.95, 0.10000400000000001, 0.10000400000000001
DataValue, 5, 0.10000400000000001, 0.10000400000000001
DataValue, 5.05, 0.10000400000000001, 0.10000400000000001
DataValue, 5.1000000000000005, 0.10000400000000001, 0.10000400000000001
DataValue, 5.15, 0.10000200000000001, 0.10000200000000001
DataValue, 5.2, 0.099974000000000007, 0.099974000000000007
DataValue, 5.25, 0.10000800000000001, 0.10000800000000001
DataValue, 5.3, 0.10000400000000001, 0.10000400000000001
DataValue, 5.3500000000000005, 0.10000400000000001, 0.10000400000000001
DataValue, 5.4, 0.10000200000000001, 0.10000200000000001
DataValue, 5.45, 0.10000400000000001, 0.10000400000000001
DataValue, 5.5, 0.10000400000000001, 0.10000400000000001
DataValue, 5.55, 0.10000600000000001, 0.10000600000000001
DataValue, 5.6000000000000005, 0.10000400000000001, 0.10000400000000001
DataValue, 5.65, 0.10000600000000001, 0.10000600000000001
DataValue, 5.7, 0.10000200000000001, 0.10000200000000001
DataValue, 5.75, 0.10000200000000001, 0.10000200000000001
DataValue, 5.8, 0.10000400000000001, 0.10000400000000001
DataValue, 5.8500000000000005, 0.10000400000000001, 0.10000400000000001
DataValue, 5.9, 0.10000400000000001, 0.10000400000000001
DataValue, 5.95, 0.10000200000000001, 0.10000200000000001
DataValue, 6, 0.10000200000000001, 0.10000200000000001
DataValue, 6.05, 0.10001000000000002, 0.10001000000000002
DataValue, 6.1000000000000005, 0.10000200000000001, 0.10000200000000001
DataValue, 6.15, 0.10000200000000001, 0.10000200000000001
DataValue, 6.2, 0.10000200000000001, 0.10000200000000001
DataValue, 6.25, 0.10000400000000001, 0.10000400000000001
DataValue, 6.3, 0.10000800000000001, 0.10000800000000001
DataValue, 6.3500000000000005, 0.10000600000000001, 0.10000600000000001
DataValue, 6.4, 0.10000600000000001, 0.10000600000000001
DataValue, 6.45, 0.10000400000000001, 0.10000400000000001
DataValue, 6.5, 0.10000200000000001, 0.10000200000000001
DataValue, 6.55, 0.10000400000000001, 0.10000400000000001
DataValue, 6.6000000000000005, 0.10000600000000001, 0.10000600000000001
DataValue, 6.65, 0.10000400000000001, 0.10000400000000001
DataValue, 6.7, 0.10000200000000001, 0.10000200000000001
DataValue, 6.75, 0.10000400000000001, 0.10000400000000001
DataValue, 6.8, 0.10000400000000001, 0.10000400000000001
DataValue, 6.8500000000000005, 0.10000200000000001, 0.10000200000000001
DataValue, 6.9, 0.10000400000000001, 0.10000400000000001
DataValue, 6.95, 0.10000400000000001, 0.10000400000000001
DataValue, 7, 0.10000400000000001, 0.10000400000000001
DataValue, 7.05, 0.10000400000000001, 0.10000400000000001
DataValue, 7.1000000000000005, 0.10000400000000001, 0.10000400000000001
DataValue, 7.15, 0.10000200000000001, 0.10000200000000001
DataValue, 7.2, 0.10000400000000001, 0.10000400000000001
DataValue, 7.25, 0.10000400000000001, 0.10000400000000001
DataValue, 7.3, 0.10000200000000001, 0.10000200000000001
DataValue, 7.3500000000000005, 0.10000400000000001, 0.10000400000000001
DataValue, 7.4, 0.10000400000000001, 0.10000400000000001
DataValue, 7.45, 0.10000600000000001, 0.10000600000000001
DataValue, 7.5, 0.10000400000000001, 0.10000400000000001
DataValue, 7.55, 0.10000200000000001, 0.10000200000000001
DataValue, 7.6000000000000005, 0.10000400000000001, 0.10000400000000001
DataValue, 7.65, 0.10000200000000001, 0.10000200000000001
DataValue, 7.7, 0.10000400000000001, 0.10000400000000001
DataValue, 7.75, 0.10000800000000001, 0.10000800000000001
DataValue, 7.8, 0.10000400000000001, 0.10000400000000001
DataValue, 7.8500000000000005, 0.10000200000000001, 0.10000200000000001
DataValue, 7.9, 0.10000800000000001, 0.10000800000000001
DataValue, 7.95, 0.10000400000000001, 0.10000400000000001
DataValue, 8, 0.10000600000000001, 0.10000600000000001
DataValue, 8.05, 0.10000400000000001, 0.10000400000000001
DataValue, 8.1, 0.10000400000000001, 0.10000400000000001
DataValue, 8.15, 0.10000600000000001, 0.10000600000000001
DataValue, 8.2, 0.10000200000000001, 0.10000200000000001
DataValue, 8.25, 0.10000200000000001, 0.10000200000000001
DataValue, 8.3, 0.10003200000000001, 0.10003200000000001
DataValue, 8.35, 0.10000400000000001, 0.10000400000000001
DataValue, 8.4, 0.10000400000000001, 0.10000400000000001
DataValue, 8.45, 0.10000200000000001, 0.10000200000000001
DataValue, 8.5, 0.10000400000000001, 0.10000400000000001
DataValue, 8.55, 0.10000800000000001, 0.10000800000000001
DataValue, 8.6, 0.10000400000000001, 0.10000400000000001
DataValue, 8.65, 0.10000400000000001, 0.10000400000000001
DataValue, 8.7000000000000011, 0.10000800000000001, 0.10000800000000001
DataValue, 8.75, 0.099992000000000011, 0.099992000000000011
DataValue, 8.8, 0.10001600000000001, 0.10001600000000001
DataValue, 8.85, 0.10000600000000001, 0.10000600000000001
DataValue, 8.9, 0.10000200000000001, 0.10000200000000001
DataValue, 8.9500000000000011, 0.10001000000000002, 0.10001000000000002
DataValue, 9, 0.10000800000000001, 0.10000800000000001
DataValue, 9.05, 0.10000400000000001, 0.10000400000000001
DataValue, 9.1, 0.10000400000000001, 0.10000400000000001
DataValue, 9.15, 0.10000400000000001, 0.10000400000000001
DataValue, 9.2000000000000011, 0.10000400000000001, 0.10000400000000001
DataValue, 9.25, 0.10000400000000001, 0.10000400000000001
DataValue, 9.3, 0.10000400000000001, 0.10000400000000001
DataValue, 9.35, 0.099998, 0.099998
DataValue, 9.4, 0.100014, 0.100014
DataValue, 9.4500000000000011, 0.10000400000000001, 0.10000400000000001
DataValue, 9.5, 0.10000400000000001, 0.10000400000000001
DataValue, 9.55, 0.10000200000000001, 0.10000200000000001
DataValue, 9.6, 0.10000200000000001, 0.10000200000000001
DataValue, 9.65, 0.10000400000000001, 0.10000400000000001
DataValue, 9.7000000000000011, 0.10000400000000001, 0.10000400000000001
DataValue, 9.75, 0.10000400000000001, 0.10000400000000001
DataValue, 9.8, 0.10000400000000001, 0.10000400000000001
DataValue, 9.85, 0.10000200000000001, 0.10000200000000001
DataValue, 9.9, 0.10000600000000001, 0.10000600000000001
DataValue, 9.9500000000000011, 0.10000200000000001, 0.10000200000000001
DataValue, 10, 0.10000600000000001, 0.10000600000000001