
SetupTitle, Break of oxide
PrimitiveTest, I/V Sweep
TestParameter, Context.MainFrame, B1500A
TestParameter, Channel.UnitType, SMU, SMU
TestParameter, Channel.Unit, SMU2:HR/AS, SMU1:HR/AS
TestParameter, Channel.IName, I1, I2
TestParameter, Channel.VName, V1, V2
TestParameter, Channel.Mode, V, V
TestParameter, Channel.Func, VAR1, CONST
TestParameter, Channel.Index, 
TestParameter, Channel.Time, 
TestParameter, Measurement.Port.Unit, SMU2:HR/AS, SMU1:HR/AS
TestParameter, Measurement.Port.SeriesResistor, NONE, NONE
TestParameter, Measurement.Port.Filter, ON, ON
TestParameter, Measurement.Port.OutputVoltageComparison, 0, 0
TestParameter, Measurement.Primary.Locus, Single
TestParameter, Measurement.Primary.Scale, LINEAR
TestParameter, Measurement.Primary.Start, 0
TestParameter, Measurement.Primary.Stop, 42
TestParameter, Measurement.Primary.Step, 0.21
TestParameter, Measurement.Primary.Compliance, 0.001
TestParameter, Measurement.Primary.PowerCompliance, 0
TestParameter, Measurement.Aborting.Condition, CONTINUE AT ANY
TestParameter, Measurement.PostOutput.Value, START
TestParameter, Measurement.PostOutput.Retention, OFF
TestParameter, Measurement.Bias.Source, 0, 0
TestParameter, Measurement.Bias.Compliance, 0.001, 0.1
TestParameter, Measurement.Monitor.Unit, SMU2:HR/AS, SMU1:HR/AS
TestParameter, Measurement.Monitor.Adc, HR ADC, HR ADC
TestParameter, Measurement.Monitor.Measurement, Compliance Side, Compliance Side
TestParameter, Measurement.Monitor.RangingMode, LIMITED, LIMITED
TestParameter, Measurement.Monitor.RangeBoundary, 1nA, 1nA
TestParameter, Measurement.Monitor.RangeRating, BY FULL RANGE, BY FULL RANGE
TestParameter, Measurement.Monitor.RangeRatingCoeff, 50, 50
TestParameter, Measurement.Timing.Hold, 1
TestParameter, Measurement.Timing.Delay, 0
TestParameter, Measurement.Adc.HighSpeed.Mode, AUTO
TestParameter, Measurement.Adc.HighSpeed.Coeff, 1
TestParameter, Measurement.Adc.HighResolution.AutoZero, OFF
TestParameter, Measurement.Adc.HighResolution.Mode, AUTO
TestParameter, Measurement.Adc.HighResolution.Coeff, 6
TestParameter, Measurement.WaitTime.Source.Coeff, 1
TestParameter, Measurement.WaitTime.Source.Offset, 0
TestParameter, Measurement.WaitTime.Monitor.Coeff, 1
TestParameter, Measurement.WaitTime.Monitor.Offset, 0
TestParameter, Function.Analysis.Name, absI
TestParameter, Function.Analysis.Unit, A
TestParameter, Function.Analysis.Definition, abs(I1)
TestParameter, Output.Graph.Enabled, true
TestParameter, Output.Graph.AutoScaling, false
TestParameter, Output.Graph.XAxis.Data, V1
TestParameter, Output.Graph.XAxis.Scale, Linear
TestParameter, Output.Graph.XAxis.Left, 0
TestParameter, Output.Graph.XAxis.Right, 3
TestParameter, Output.Graph.XAxis.RunTimeAutoScale, true
TestParameter, Output.Graph.YAxis.Data, I1, absI
TestParameter, Output.Graph.YAxis.Scale, Linear, Log
TestParameter, Output.Graph.YAxis.Bottom, 0.001, 0
TestParameter, Output.Graph.YAxis.Top, 0.01, 1
TestParameter, Output.Graph.YAxis.Group, , 
TestParameter, Output.Graph.YAxis.RunTimeAutoScale, true, true
TestParameter, AutoAnalysis.Interpolation, false
TestParameter, AutoAnalysis.Var2StepCount, 1
TestParameter, AutoAnalysis.Var2StepScript, 
TestParameter, AutoAnalysis.Line1.Enabled, false
TestParameter, AutoAnalysis.Line1.Type, 1
TestParameter, AutoAnalysis.Line1.Fix, True
TestParameter, AutoAnalysis.Line1.YAxis, 0
TestParameter, AutoAnalysis.Line1.Point1.Type, 0
TestParameter, AutoAnalysis.Line1.Point1.XY.X, 
TestParameter, AutoAnalysis.Line1.Point1.XY.Y, 
TestParameter, AutoAnalysis.Line1.Point1.Data.Var, 
TestParameter, AutoAnalysis.Line1.Point1.Data.Condition, 
TestParameter, AutoAnalysis.Line1.Point1.Data.Start, false
TestParameter, AutoAnalysis.Line1.Point1.Data.StartVar, 
TestParameter, AutoAnalysis.Line1.Point1.Data.StartCondition, 
TestParameter, AutoAnalysis.Line1.Point2.Type, 0
TestParameter, AutoAnalysis.Line1.Point2.XY.X, 
TestParameter, AutoAnalysis.Line1.Point2.XY.Y, 
TestParameter, AutoAnalysis.Line1.Point2.Data.Var, 
TestParameter, AutoAnalysis.Line1.Point2.Data.Condition, 
TestParameter, AutoAnalysis.Line1.Point2.Data.Start, false
TestParameter, AutoAnalysis.Line1.Point2.Data.StartVar, 
TestParameter, AutoAnalysis.Line1.Point2.Data.StartCondition, 
TestParameter, AutoAnalysis.Line1.GradientExpr, 0
TestParameter, AutoAnalysis.Line2.Enabled, false
TestParameter, AutoAnalysis.Line2.Type, 1
TestParameter, AutoAnalysis.Line2.Fix, True
TestParameter, AutoAnalysis.Line2.YAxis, 0
TestParameter, AutoAnalysis.Line2.Point1.Type, 0
TestParameter, AutoAnalysis.Line2.Point1.XY.X, 
TestParameter, AutoAnalysis.Line2.Point1.XY.Y, 
TestParameter, AutoAnalysis.Line2.Point1.Data.Var, 
TestParameter, AutoAnalysis.Line2.Point1.Data.Condition, 
TestParameter, AutoAnalysis.Line2.Point1.Data.Start, false
TestParameter, AutoAnalysis.Line2.Point1.Data.StartVar, 
TestParameter, AutoAnalysis.Line2.Point1.Data.StartCondition, 
TestParameter, AutoAnalysis.Line2.Point2.Type, 0
TestParameter, AutoAnalysis.Line2.Point2.XY.X, 
TestParameter, AutoAnalysis.Line2.Point2.XY.Y, 
TestParameter, AutoAnalysis.Line2.Point2.Data.Var, 
TestParameter, AutoAnalysis.Line2.Point2.Data.Condition, 
TestParameter, AutoAnalysis.Line2.Point2.Data.Start, false
TestParameter, AutoAnalysis.Line2.Point2.Data.StartVar, 
TestParameter, AutoAnalysis.Line2.Point2.Data.StartCondition, 
TestParameter, AutoAnalysis.Line2.GradientExpr, 0
TestParameter, AutoAnalysis.Marker.Enabled, false
TestParameter, AutoAnalysis.Marker.Data.Var, 
TestParameter, AutoAnalysis.Marker.Data.Condition, 
TestParameter, AutoAnalysis.Marker.Data.Start, false
TestParameter, AutoAnalysis.Marker.Data.StartVar, 
TestParameter, AutoAnalysis.Marker.Data.StartCondition, 
MetaData, TestRecord.EntryPoint, true
MetaData, TestRecord.RecordTime, 08/13/2021 12:06:58
MetaData, TestRecord.TestTarget, FlashIntD_1_25um_E5
MetaData, TestRecord.IterationIndex, 6
MetaData, TestRecord.Preservation, true
MetaData, TestRecord.Flag, 
MetaData, TestRecord.Remarks, 
MetaData, TestRecord.LinkKey, a97e7adb-3f4f-4599-9c18-85936ea8c174
MetaData, TestRecord.Parameters, 
Dimension1, 201, 201, 201
Dimension2, 1, 1, 1
DataName, V1, I1, absI
DataValue, 0, -3.1680000000000002E-12, 3.1680000000000002E-12
DataValue, 0.21, -1.664E-11, 1.664E-11
DataValue, 0.42, -3.5200000000000003E-12, 3.5200000000000003E-12
DataValue, 0.63, 3.0542E-11, 3.0542E-11
DataValue, 0.84, 4.5814000000000003E-11, 4.5814000000000003E-11
DataValue, 1.05, 3.6994E-11, 3.6994E-11
DataValue, 1.26, 4.7848000000000004E-11, 4.7848000000000004E-11
DataValue, 1.47, 2.2050600000000001E-10, 2.2050600000000001E-10
DataValue, 1.68, 5.4328800000000008E-10, 5.4328800000000008E-10
DataValue, 1.8900000000000001, 5.3798E-10, 5.3798E-10
DataValue, 2.1, 5.7951800000000007E-10, 5.7951800000000007E-10
DataValue, 2.31, 6.03908E-10, 6.03908E-10
DataValue, 2.52, 5.79022E-10, 5.79022E-10
DataValue, 2.73, 6.3449E-10, 6.3449E-10
DataValue, 2.94, 6.4031400000000007E-10, 6.4031400000000007E-10
DataValue, 3.15, 6.59714E-10, 6.59714E-10
DataValue, 3.36, 7.70048E-10, 7.70048E-10
DataValue, 3.5700000000000003, 8.6284E-10, 8.6284E-10
DataValue, 3.7800000000000002, 1.16416E-09, 1.16416E-09
DataValue, 3.99, 1.4609E-09, 1.4609E-09
DataValue, 4.2, 1.76284E-09, 1.76284E-09
DataValue, 4.41, 1.8906E-09, 1.8906E-09
DataValue, 4.62, 2.0061E-09, 2.0061E-09
DataValue, 4.83, 2.10768E-09, 2.10768E-09
DataValue, 5.04, 2.103E-09, 2.103E-09
DataValue, 5.25, 2.20918E-09, 2.20918E-09
DataValue, 5.46, 2.21408E-09, 2.21408E-09
DataValue, 5.67, 2.22726E-09, 2.22726E-09
DataValue, 5.88, 2.32664E-09, 2.32664E-09
DataValue, 6.09, 2.2752E-09, 2.2752E-09
DataValue, 6.3, 2.37044E-09, 2.37044E-09
DataValue, 6.51, 2.3932E-09, 2.3932E-09
DataValue, 6.72, 2.37126E-09, 2.37126E-09
DataValue, 6.93, 2.45288E-09, 2.45288E-09
DataValue, 7.1400000000000006, 2.41912E-09, 2.41912E-09
DataValue, 7.3500000000000005, 2.48752E-09, 2.48752E-09
DataValue, 7.5600000000000005, 2.53612E-09, 2.53612E-09
DataValue, 7.7700000000000005, 2.4793E-09, 2.4793E-09
DataValue, 7.98, 2.5671E-09, 2.5671E-09
DataValue, 8.19, 2.52224E-09, 2.52224E-09
DataValue, 8.4, 2.55774E-09, 2.55774E-09
DataValue, 8.61, 2.63548E-09, 2.63548E-09
DataValue, 8.82, 2.59458E-09, 2.59458E-09
DataValue, 9.03, 2.65624E-09, 2.65624E-09
DataValue, 9.24, 2.67998E-09, 2.67998E-09
DataValue, 9.4500000000000011, 2.61606E-09, 2.61606E-09
DataValue, 9.66, 2.74902E-09, 2.74902E-09
DataValue, 9.870000000000001, 2.69734E-09, 2.69734E-09
DataValue, 10.08, 2.73892E-09, 2.73892E-09
DataValue, 10.290000000000001, 2.7949799999999998E-09, 2.7949799999999998E-09
DataValue, 10.5, 2.7599E-09, 2.7599E-09
DataValue, 10.71, 2.85908E-09, 2.85908E-09
DataValue, 10.92, 2.81892E-09, 2.81892E-09
DataValue, 11.13, 2.82232E-09, 2.82232E-09
DataValue, 11.34, 2.91882E-09, 2.91882E-09
DataValue, 11.55, 2.829E-09, 2.829E-09
DataValue, 11.76, 2.90936E-09, 2.90936E-09
DataValue, 11.97, 2.91178E-09, 2.91178E-09
DataValue, 12.18, 2.86464E-09, 2.86464E-09
DataValue, 12.39, 2.95974E-09, 2.95974E-09
DataValue, 12.6, 2.87866E-09, 2.87866E-09
DataValue, 12.81, 2.95624E-09, 2.95624E-09
DataValue, 13.02, 2.96018E-09, 2.96018E-09
DataValue, 13.23, 2.90152E-09, 2.90152E-09
DataValue, 13.44, 3.04488E-09, 3.04488E-09
DataValue, 13.65, 2.96832E-09, 2.96832E-09
DataValue, 13.86, 3.01164E-09, 3.01164E-09
DataValue, 14.07, 3.0971E-09, 3.0971E-09
DataValue, 14.280000000000001, 3.03928E-09, 3.03928E-09
DataValue, 14.49, 3.133E-09, 3.133E-09
DataValue, 14.700000000000001, 3.11382E-09, 3.11382E-09
DataValue, 14.91, 3.09266E-09, 3.09266E-09
DataValue, 15.120000000000001, 3.1595E-09, 3.1595E-09
DataValue, 15.33, 3.0961E-09, 3.0961E-09
DataValue, 15.540000000000001, 3.1933E-09, 3.1933E-09
DataValue, 15.75, 3.20326E-09, 3.20326E-09
DataValue, 15.96, 3.12776E-09, 3.12776E-09
DataValue, 16.17, 3.3034E-09, 3.3034E-09
DataValue, 16.38, 3.24912E-09, 3.24912E-09
DataValue, 16.59, 3.24994E-09, 3.24994E-09
DataValue, 16.8, 3.3289E-09, 3.3289E-09
DataValue, 17.01, 3.28018E-09, 3.28018E-09
DataValue, 17.22, 3.38766E-09, 3.38766E-09
DataValue, 17.43, 3.3849E-09, 3.3849E-09
DataValue, 17.64, 3.38702E-09, 3.38702E-09
DataValue, 17.85, 3.45184E-09, 3.45184E-09
DataValue, 18.06, 3.39848E-09, 3.39848E-09
DataValue, 18.27, 3.48712E-09, 3.48712E-09
DataValue, 18.48, 3.48928E-09, 3.48928E-09
DataValue, 18.69, 3.47672E-09, 3.47672E-09
DataValue, 18.900000000000002, 3.6382E-09, 3.6382E-09
DataValue, 19.11, 3.52114E-09, 3.52114E-09
DataValue, 19.32, 3.59684E-09, 3.59684E-09
DataValue, 19.53, 3.65486E-09, 3.65486E-09
DataValue, 19.740000000000002, 3.58868E-09, 3.58868E-09
DataValue, 19.95, 3.70922E-09, 3.70922E-09
DataValue, 20.16, 3.66454E-09, 3.66454E-09
DataValue, 20.37, 3.67652E-09, 3.67652E-09
DataValue, 20.580000000000002, 3.78206E-09, 3.78206E-09
DataValue, 20.79, 3.71034E-09, 3.71034E-09
DataValue, 21, 3.79104E-09, 3.79104E-09
DataValue, 21.21, 3.76834E-09, 3.76834E-09
DataValue, 21.42, 3.72234E-09, 3.72234E-09
DataValue, 21.63, 3.7857E-09, 3.7857E-09
DataValue, 21.84, 3.76974E-09, 3.76974E-09
DataValue, 22.05, 3.78616E-09, 3.78616E-09
DataValue, 22.26, 3.87642E-09, 3.87642E-09
DataValue, 22.47, 3.82448E-09, 3.82448E-09
DataValue, 22.68, 3.9123E-09, 3.9123E-09
DataValue, 22.89, 3.8953E-09, 3.8953E-09
DataValue, 23.1, 3.9808E-09, 3.9808E-09
DataValue, 23.31, 4.04342E-09, 4.04342E-09
DataValue, 23.52, 3.9471E-09, 3.9471E-09
DataValue, 23.73, 4.05464E-09, 4.05464E-09
DataValue, 23.94, 4.07254E-09, 4.07254E-09
DataValue, 24.150000000000002, 4.03702E-09, 4.03702E-09
DataValue, 24.36, 4.12542E-09, 4.12542E-09
DataValue, 24.57, 4.08308E-09, 4.08308E-09
DataValue, 24.78, 4.0864E-09, 4.0864E-09
DataValue, 24.990000000000002, 4.19048E-09, 4.19048E-09
DataValue, 25.2, 4.15554E-09, 4.15554E-09
DataValue, 25.41, 4.26454E-09, 4.26454E-09
DataValue, 25.62, 4.24874E-09, 4.24874E-09
DataValue, 25.830000000000002, 4.29732E-09, 4.29732E-09
DataValue, 26.04, 4.4221E-09, 4.4221E-09
DataValue, 26.25, 4.39722E-09, 4.39722E-09
DataValue, 26.46, 4.46552E-09, 4.46552E-09
DataValue, 26.67, 4.4675E-09, 4.4675E-09
DataValue, 26.88, 4.48588E-09, 4.48588E-09
DataValue, 27.09, 4.57666E-09, 4.57666E-09
DataValue, 27.3, 4.51836E-09, 4.51836E-09
DataValue, 27.51, 4.61658E-09, 4.61658E-09
DataValue, 27.72, 4.67388E-09, 4.67388E-09
DataValue, 27.93, 4.63692E-09, 4.63692E-09
DataValue, 28.14, 4.87276E-09, 4.87276E-09
DataValue, 28.35, 4.85588E-09, 4.85588E-09
DataValue, 28.560000000000002, 4.85558E-09, 4.85558E-09
DataValue, 28.77, 5.00208E-09, 5.00208E-09
DataValue, 28.98, 4.9492E-09, 4.9492E-09
DataValue, 29.19, 4.43174E-09, 4.43174E-09
DataValue, 29.400000000000002, 5.02566E-09, 5.02566E-09
DataValue, 29.61, 4.55022E-09, 4.55022E-09
DataValue, 29.82, 5.16374E-09, 5.16374E-09
DataValue, 30.03, 4.65564E-09, 4.65564E-09
DataValue, 30.240000000000002, 5.2775E-09, 5.2775E-09
DataValue, 30.45, 4.73424E-09, 4.73424E-09
DataValue, 30.66, 4.85214E-09, 4.85214E-09
DataValue, 30.87, 4.95018E-09, 4.95018E-09
DataValue, 31.080000000000002, 4.9077E-09, 4.9077E-09
DataValue, 31.29, 5.06854E-09, 5.06854E-09
DataValue, 31.5, 5.06816E-09, 5.06816E-09
DataValue, 31.71, 5.20048E-09, 5.20048E-09
DataValue, 31.92, 5.23582E-09, 5.23582E-09
DataValue, 32.13, 5.29416E-09, 5.29416E-09
DataValue, 32.34, 5.4184E-09, 5.4184E-09
DataValue, 32.55, 5.4209E-09, 5.4209E-09
DataValue, 32.76, 5.57174E-09, 5.57174E-09
DataValue, 32.97, 5.579E-09, 5.579E-09
DataValue, 33.18, 5.57624E-09, 5.57624E-09
DataValue, 33.39, 5.65888E-09, 5.65888E-09
DataValue, 33.6, 5.78898E-09, 5.78898E-09
DataValue, 33.81, 5.60638E-09, 5.60638E-09
DataValue, 34.02, 5.83196E-09, 5.83196E-09
DataValue, 34.230000000000004, 5.74662E-09, 5.74662E-09
DataValue, 34.44, 5.95494E-09, 5.95494E-09
DataValue, 34.65, 5.9326E-09, 5.9326E-09
DataValue, 34.86, 6.15574E-09, 6.15574E-09
DataValue, 35.07, 6.11358E-09, 6.11358E-09
DataValue, 35.28, 6.18714E-09, 6.18714E-09
DataValue, 35.49, 6.35064E-09, 6.35064E-09
DataValue, 35.7, 6.63396E-09, 6.63396E-09
DataValue, 35.910000000000004, 6.75488E-09, 6.75488E-09
DataValue, 36.12, 5.4155E-09, 5.4155E-09
DataValue, 36.33, 6.68958E-09, 6.68958E-09
DataValue, 36.54, 6.91916E-09, 6.91916E-09
DataValue, 36.75, 7.0642E-09, 7.0642E-09
DataValue, 36.96, 7.03278E-09, 7.03278E-09
DataValue, 37.17, 7.26192E-09, 7.26192E-09
DataValue, 37.38, 7.39468E-09, 7.39468E-09
DataValue, 37.59, 7.30704E-09, 7.30704E-09
DataValue, 37.800000000000004, 7.67038E-09, 7.67038E-09
DataValue, 38.01, 7.82184E-09, 7.82184E-09
DataValue, 38.22, 7.81914E-09, 7.81914E-09
DataValue, 38.43, 7.85104E-09, 7.85104E-09
DataValue, 38.64, 8.15272E-09, 8.15272E-09
DataValue, 38.85, 8.9208999999999988E-09, 8.9208999999999988E-09
DataValue, 39.06, 1.1362299999999999E-08, 1.1362299999999999E-08
DataValue, 39.27, 1.1819899999999999E-08, 1.1819899999999999E-08
DataValue, 39.480000000000004, 1.20494E-08, 1.20494E-08
DataValue, 39.69, 1.22323E-08, 1.22323E-08
DataValue, 39.9, 1.2598199999999999E-08, 1.2598199999999999E-08
DataValue, 40.11, 1.2909299999999998E-08, 1.2909299999999998E-08
DataValue, 40.32, 1.3336499999999998E-08, 1.3336499999999998E-08
DataValue, 40.53, 1.3493699999999999E-08, 1.3493699999999999E-08
DataValue, 40.74, 1.3744799999999999E-08, 1.3744799999999999E-08
DataValue, 40.95, 1.4120399999999999E-08, 1.4120399999999999E-08
DataValue, 41.160000000000004, 1.4735799999999998E-08, 1.4735799999999998E-08
DataValue, 41.37, 1.4984199999999998E-08, 1.4984199999999998E-08
DataValue, 41.58, 1.55479E-08, 1.55479E-08
DataValue, 41.79, 1.61125E-08, 1.61125E-08
DataValue, 42, 1.6538599999999998E-08, 1.6538599999999998E-08