
SetupTitle, Break of oxide
PrimitiveTest, I/V Sweep
TestParameter, Context.MainFrame, B1500A
TestParameter, Channel.UnitType, SMU, SMU
TestParameter, Channel.Unit, SMU2:HR/AS, SMU1:HR/AS
TestParameter, Channel.IName, I1, I2
TestParameter, Channel.VName, V1, V2
TestParameter, Channel.Mode, V, V
TestParameter, Channel.Func, VAR1, CONST
TestParameter, Channel.Index, 
TestParameter, Channel.Time, 
TestParameter, Measurement.Port.Unit, SMU2:HR/AS, SMU1:HR/AS
TestParameter, Measurement.Port.SeriesResistor, NONE, NONE
TestParameter, Measurement.Port.Filter, ON, ON
TestParameter, Measurement.Port.OutputVoltageComparison, 0, 0
TestParameter, Measurement.Primary.Locus, Single
TestParameter, Measurement.Primary.Scale, LINEAR
TestParameter, Measurement.Primary.Start, 0
TestParameter, Measurement.Primary.Stop, 10
TestParameter, Measurement.Primary.Step, 0.05
TestParameter, Measurement.Primary.Compliance, 0.1
TestParameter, Measurement.Primary.PowerCompliance, 0
TestParameter, Measurement.Aborting.Condition, CONTINUE AT ANY
TestParameter, Measurement.PostOutput.Value, START
TestParameter, Measurement.PostOutput.Retention, OFF
TestParameter, Measurement.Bias.Source, 0, 0
TestParameter, Measurement.Bias.Compliance, 0.1, 0.1
TestParameter, Measurement.Monitor.Unit, SMU2:HR/AS, SMU1:HR/AS
TestParameter, Measurement.Monitor.Adc, HR ADC, HR ADC
TestParameter, Measurement.Monitor.Measurement, Compliance Side, Compliance Side
TestParameter, Measurement.Monitor.RangingMode, LIMITED, LIMITED
TestParameter, Measurement.Monitor.RangeBoundary, 1nA, 1nA
TestParameter, Measurement.Monitor.RangeRating, BY FULL RANGE, BY FULL RANGE
TestParameter, Measurement.Monitor.RangeRatingCoeff, 50, 50
TestParameter, Measurement.Timing.Hold, 1
TestParameter, Measurement.Timing.Delay, 0
TestParameter, Measurement.Adc.HighSpeed.Mode, AUTO
TestParameter, Measurement.Adc.HighSpeed.Coeff, 1
TestParameter, Measurement.Adc.HighResolution.AutoZero, OFF
TestParameter, Measurement.Adc.HighResolution.Mode, AUTO
TestParameter, Measurement.Adc.HighResolution.Coeff, 6
TestParameter, Measurement.WaitTime.Source.Coeff, 1
TestParameter, Measurement.WaitTime.Source.Offset, 0
TestParameter, Measurement.WaitTime.Monitor.Coeff, 1
TestParameter, Measurement.WaitTime.Monitor.Offset, 0
TestParameter, Function.Analysis.Name, absI
TestParameter, Function.Analysis.Unit, A
TestParameter, Function.Analysis.Definition, abs(I1)
TestParameter, Output.Graph.Enabled, true
TestParameter, Output.Graph.AutoScaling, false
TestParameter, Output.Graph.XAxis.Data, V1
TestParameter, Output.Graph.XAxis.Scale, Linear
TestParameter, Output.Graph.XAxis.Left, 0
TestParameter, Output.Graph.XAxis.Right, 3
TestParameter, Output.Graph.XAxis.RunTimeAutoScale, true
TestParameter, Output.Graph.YAxis.Data, I1, absI
TestParameter, Output.Graph.YAxis.Scale, Linear, Log
TestParameter, Output.Graph.YAxis.Bottom, 0.001, 0
TestParameter, Output.Graph.YAxis.Top, 0.01, 1
TestParameter, Output.Graph.YAxis.Group, , 
TestParameter, Output.Graph.YAxis.RunTimeAutoScale, true, true
TestParameter, AutoAnalysis.Interpolation, false
TestParameter, AutoAnalysis.Var2StepCount, 1
TestParameter, AutoAnalysis.Var2StepScript, 
TestParameter, AutoAnalysis.Line1.Enabled, false
TestParameter, AutoAnalysis.Line1.Type, 1
TestParameter, AutoAnalysis.Line1.Fix, True
TestParameter, AutoAnalysis.Line1.YAxis, 0
TestParameter, AutoAnalysis.Line1.Point1.Type, 0
TestParameter, AutoAnalysis.Line1.Point1.XY.X, 
TestParameter, AutoAnalysis.Line1.Point1.XY.Y, 
TestParameter, AutoAnalysis.Line1.Point1.Data.Var, 
TestParameter, AutoAnalysis.Line1.Point1.Data.Condition, 
TestParameter, AutoAnalysis.Line1.Point1.Data.Start, false
TestParameter, AutoAnalysis.Line1.Point1.Data.StartVar, 
TestParameter, AutoAnalysis.Line1.Point1.Data.StartCondition, 
TestParameter, AutoAnalysis.Line1.Point2.Type, 0
TestParameter, AutoAnalysis.Line1.Point2.XY.X, 
TestParameter, AutoAnalysis.Line1.Point2.XY.Y, 
TestParameter, AutoAnalysis.Line1.Point2.Data.Var, 
TestParameter, AutoAnalysis.Line1.Point2.Data.Condition, 
TestParameter, AutoAnalysis.Line1.Point2.Data.Start, false
TestParameter, AutoAnalysis.Line1.Point2.Data.StartVar, 
TestParameter, AutoAnalysis.Line1.Point2.Data.StartCondition, 
TestParameter, AutoAnalysis.Line1.GradientExpr, 0
TestParameter, AutoAnalysis.Line2.Enabled, false
TestParameter, AutoAnalysis.Line2.Type, 1
TestParameter, AutoAnalysis.Line2.Fix, True
TestParameter, AutoAnalysis.Line2.YAxis, 0
TestParameter, AutoAnalysis.Line2.Point1.Type, 0
TestParameter, AutoAnalysis.Line2.Point1.XY.X, 
TestParameter, AutoAnalysis.Line2.Point1.XY.Y, 
TestParameter, AutoAnalysis.Line2.Point1.Data.Var, 
TestParameter, AutoAnalysis.Line2.Point1.Data.Condition, 
TestParameter, AutoAnalysis.Line2.Point1.Data.Start, false
TestParameter, AutoAnalysis.Line2.Point1.Data.StartVar, 
TestParameter, AutoAnalysis.Line2.Point1.Data.StartCondition, 
TestParameter, AutoAnalysis.Line2.Point2.Type, 0
TestParameter, AutoAnalysis.Line2.Point2.XY.X, 
TestParameter, AutoAnalysis.Line2.Point2.XY.Y, 
TestParameter, AutoAnalysis.Line2.Point2.Data.Var, 
TestParameter, AutoAnalysis.Line2.Point2.Data.Condition, 
TestParameter, AutoAnalysis.Line2.Point2.Data.Start, false
TestParameter, AutoAnalysis.Line2.Point2.Data.StartVar, 
TestParameter, AutoAnalysis.Line2.Point2.Data.StartCondition, 
TestParameter, AutoAnalysis.Line2.GradientExpr, 0
TestParameter, AutoAnalysis.Marker.Enabled, false
TestParameter, AutoAnalysis.Marker.Data.Var, 
TestParameter, AutoAnalysis.Marker.Data.Condition, 
TestParameter, AutoAnalysis.Marker.Data.Start, false
TestParameter, AutoAnalysis.Marker.Data.StartVar, 
TestParameter, AutoAnalysis.Marker.Data.StartCondition, 
MetaData, TestRecord.EntryPoint, true
MetaData, TestRecord.RecordTime, 08/13/2021 12:00:11
MetaData, TestRecord.TestTarget, FlashIntD_1_25um_E5
MetaData, TestRecord.IterationIndex, 1
MetaData, TestRecord.Preservation, true
MetaData, TestRecord.Flag, 
MetaData, TestRecord.Remarks, 
MetaData, TestRecord.LinkKey, 2d762e11-9aed-4ed8-94cc-1bd8183556ac
MetaData, TestRecord.Parameters, 
Dimension1, 201, 201, 201
Dimension2, 1, 1, 1
DataName, V1, I1, absI
DataValue, 0, 9.43E-12, 9.43E-12
DataValue, 0.05, 1.7160000000000002E-11, 1.7160000000000002E-11
DataValue, 0.1, -1.177E-11, 1.177E-11
DataValue, 0.15, 5.02E-12, 5.02E-12
DataValue, 0.2, 2.9660000000000004E-11, 2.9660000000000004E-11
DataValue, 0.25, -1.1560000000000002E-11, 1.1560000000000002E-11
DataValue, 0.3, -5.55E-12, 5.55E-12
DataValue, 0.35000000000000003, 2.7410000000000002E-11, 2.7410000000000002E-11
DataValue, 0.4, 1.0340000000000002E-11, 1.0340000000000002E-11
DataValue, 0.45, -7.7800000000000012E-12, 7.7800000000000012E-12
DataValue, 0.5, 3.296E-11, 3.296E-11
DataValue, 0.55, 2.482E-11, 2.482E-11
DataValue, 0.6, -6.8300000000000006E-12, 6.8300000000000006E-12
DataValue, 0.65, 2.1170000000000003E-11, 2.1170000000000003E-11
DataValue, 0.70000000000000007, 3.8880000000000006E-11, 3.8880000000000006E-11
DataValue, 0.75, 3.4400000000000003E-12, 3.4400000000000003E-12
DataValue, 0.8, 1.1310000000000001E-11, 1.1310000000000001E-11
DataValue, 0.85, 4.48E-11, 4.48E-11
DataValue, 0.9, 1.126E-11, 1.126E-11
DataValue, 0.95000000000000007, -8.13E-12, 8.13E-12
DataValue, 1, 3.817E-11, 3.817E-11
DataValue, 1.05, 3.1840000000000003E-11, 3.1840000000000003E-11
DataValue, 1.1, -1.3800000000000002E-12, 1.3800000000000002E-12
DataValue, 1.1500000000000001, 4.6820000000000006E-11, 4.6820000000000006E-11
DataValue, 1.2, 5.7150000000000004E-11, 5.7150000000000004E-11
DataValue, 1.25, 1.529E-11, 1.529E-11
DataValue, 1.3, 3.664E-11, 3.664E-11
DataValue, 1.35, 8.021E-11, 8.021E-11
DataValue, 1.4000000000000001, 3.6660000000000006E-11, 3.6660000000000006E-11
DataValue, 1.45, 4.6770000000000004E-11, 4.6770000000000004E-11
DataValue, 1.5, 9.8850000000000013E-11, 9.8850000000000013E-11
DataValue, 1.55, 9.744E-11, 9.744E-11
DataValue, 1.6, 8.962000000000001E-11, 8.962000000000001E-11
DataValue, 1.6500000000000001, 1.5452E-10, 1.5452E-10
DataValue, 1.7, 1.6174E-10, 1.6174E-10
DataValue, 1.75, 1.5597E-10, 1.5597E-10
DataValue, 1.8, 1.6525000000000002E-10, 1.6525000000000002E-10
DataValue, 1.85, 1.9613000000000003E-10, 1.9613000000000003E-10
DataValue, 1.9000000000000001, 1.6002E-10, 1.6002E-10
DataValue, 1.95, 1.9585000000000003E-10, 1.9585000000000003E-10
DataValue, 2, 2.3721E-10, 2.3721E-10
DataValue, 2.05, 1.7755000000000002E-10, 1.7755000000000002E-10
DataValue, 2.1, 2.145E-10, 2.145E-10
DataValue, 2.15, 1.7207E-10, 1.7207E-10
DataValue, 2.2, 2.1946E-10, 2.1946E-10
DataValue, 2.25, 2.3418E-10, 2.3418E-10
DataValue, 2.3000000000000003, 1.9291E-10, 1.9291E-10
DataValue, 2.35, 2.2210000000000001E-10, 2.2210000000000001E-10
DataValue, 2.4, 1.6639E-10, 1.6639E-10
DataValue, 2.45, 2.2689000000000003E-10, 2.2689000000000003E-10
DataValue, 2.5, 1.8928000000000002E-10, 1.8928000000000002E-10
DataValue, 2.5500000000000003, 1.7275000000000002E-10, 1.7275000000000002E-10
DataValue, 2.6, 2.2863000000000002E-10, 2.2863000000000002E-10
DataValue, 2.65, 1.8503E-10, 1.8503E-10
DataValue, 2.7, 2.0113E-10, 2.0113E-10
DataValue, 2.75, 1.8226000000000003E-10, 1.8226000000000003E-10
DataValue, 2.8000000000000003, 1.8985000000000002E-10, 1.8985000000000002E-10
DataValue, 2.85, 1.9238E-10, 1.9238E-10
DataValue, 2.9, 2.2423E-10, 2.2423E-10
DataValue, 2.95, 1.5526000000000002E-10, 1.5526000000000002E-10
DataValue, 3, 1.9663000000000002E-10, 1.9663000000000002E-10
DataValue, 3.0500000000000003, 1.9878E-10, 1.9878E-10
DataValue, 3.1, 2.2288E-10, 2.2288E-10
DataValue, 3.15, 2.2438E-10, 2.2438E-10
DataValue, 3.2, 2.0555E-10, 2.0555E-10
DataValue, 3.25, 1.6818E-10, 1.6818E-10
DataValue, 3.3000000000000003, 2.161E-10, 2.161E-10
DataValue, 3.35, 1.7958000000000002E-10, 1.7958000000000002E-10
DataValue, 3.4, 1.9135000000000002E-10, 1.9135000000000002E-10
DataValue, 3.45, 2.1386000000000003E-10, 2.1386000000000003E-10
DataValue, 3.5, 1.6274000000000002E-10, 1.6274000000000002E-10
DataValue, 3.5500000000000003, 2.5165E-10, 2.5165E-10
DataValue, 3.6, 1.8749000000000002E-10, 1.8749000000000002E-10
DataValue, 3.65, 2.2484000000000002E-10, 2.2484000000000002E-10
DataValue, 3.7, 2.6191000000000003E-10, 2.6191000000000003E-10
DataValue, 3.75, 2.6466000000000005E-10, 2.6466000000000005E-10
DataValue, 3.8000000000000003, 1.8288000000000002E-10, 1.8288000000000002E-10
DataValue, 3.85, 2.0483E-10, 2.0483E-10
DataValue, 3.9, 1.9067000000000003E-10, 1.9067000000000003E-10
DataValue, 3.95, 2.5526E-10, 2.5526E-10
DataValue, 4, 2.065E-10, 2.065E-10
DataValue, 4.05, 1.8399E-10, 1.8399E-10
DataValue, 4.1, 2.6979E-10, 2.6979E-10
DataValue, 4.15, 1.7409000000000002E-10, 1.7409000000000002E-10
DataValue, 4.2, 2.2315000000000003E-10, 2.2315000000000003E-10
DataValue, 4.25, 1.8457000000000002E-10, 1.8457000000000002E-10
DataValue, 4.3, 1.8961E-10, 1.8961E-10
DataValue, 4.3500000000000005, 2.2419000000000003E-10, 2.2419000000000003E-10
DataValue, 4.4, 2.3092000000000002E-10, 2.3092000000000002E-10
DataValue, 4.45, 1.856E-10, 1.856E-10
DataValue, 4.5, 2.6441E-10, 2.6441E-10
DataValue, 4.55, 1.8016E-10, 1.8016E-10
DataValue, 4.6000000000000005, 2.5422000000000003E-10, 2.5422000000000003E-10
DataValue, 4.65, 1.9608E-10, 1.9608E-10
DataValue, 4.7, 2.3485E-10, 2.3485E-10
DataValue, 4.75, 2.5779E-10, 2.5779E-10
DataValue, 4.8, 2.1319000000000002E-10, 2.1319000000000002E-10
DataValue, 4.8500000000000005, 1.9767000000000003E-10, 1.9767000000000003E-10
DataValue, 4.9, 2.5507000000000003E-10, 2.5507000000000003E-10
DataValue, 4.95, 2.0623000000000002E-10, 2.0623000000000002E-10
DataValue, 5, 2.3525000000000004E-10, 2.3525000000000004E-10
DataValue, 5.05, 2.6087E-10, 2.6087E-10
DataValue, 5.1000000000000005, 1.8824000000000001E-10, 1.8824000000000001E-10
DataValue, 5.15, 2.2635000000000003E-10, 2.2635000000000003E-10
DataValue, 5.2, 2.3035E-10, 2.3035E-10
DataValue, 5.25, 1.9541000000000003E-10, 1.9541000000000003E-10
DataValue, 5.3, 2.6746E-10, 2.6746E-10
DataValue, 5.3500000000000005, 2.1116000000000002E-10, 2.1116000000000002E-10
DataValue, 5.4, 2.5372000000000003E-10, 2.5372000000000003E-10
DataValue, 5.45, 2.2476E-10, 2.2476E-10
DataValue, 5.5, 2.0522000000000002E-10, 2.0522000000000002E-10
DataValue, 5.55, 2.6924000000000004E-10, 2.6924000000000004E-10
DataValue, 5.6000000000000005, 2.0236E-10, 2.0236E-10
DataValue, 5.65, 2.5167E-10, 2.5167E-10
DataValue, 5.7, 2.2417E-10, 2.2417E-10
DataValue, 5.75, 2.0642000000000002E-10, 2.0642000000000002E-10
DataValue, 5.8, 2.6961E-10, 2.6961E-10
DataValue, 5.8500000000000005, 2.6006000000000003E-10, 2.6006000000000003E-10
DataValue, 5.9, 3.2586E-10, 3.2586E-10
DataValue, 5.95, 2.8283000000000005E-10, 2.8283000000000005E-10
DataValue, 6, 2.9515E-10, 2.9515E-10
DataValue, 6.05, 3.3066E-10, 3.3066E-10
DataValue, 6.1000000000000005, 2.7212000000000004E-10, 2.7212000000000004E-10
DataValue, 6.15, 3.3811000000000003E-10, 3.3811000000000003E-10
DataValue, 6.2, 2.7534E-10, 2.7534E-10
DataValue, 6.25, 2.6007E-10, 2.6007E-10
DataValue, 6.3, 3.2144000000000003E-10, 3.2144000000000003E-10
DataValue, 6.3500000000000005, 2.6731000000000003E-10, 2.6731000000000003E-10
DataValue, 6.4, 3.0349E-10, 3.0349E-10
DataValue, 6.45, 2.5242000000000004E-10, 2.5242000000000004E-10
DataValue, 6.5, 2.6328000000000005E-10, 2.6328000000000005E-10
DataValue, 6.55, 3.1920000000000005E-10, 3.1920000000000005E-10
DataValue, 6.6000000000000005, 2.5266000000000004E-10, 2.5266000000000004E-10
DataValue, 6.65, 3.1675E-10, 3.1675E-10
DataValue, 6.7, 2.4832000000000003E-10, 2.4832000000000003E-10
DataValue, 6.75, 3.2644E-10, 3.2644E-10
DataValue, 6.8, 2.4327000000000003E-10, 2.4327000000000003E-10
DataValue, 6.8500000000000005, 2.9329000000000003E-10, 2.9329000000000003E-10
DataValue, 6.9, 2.7973E-10, 2.7973E-10
DataValue, 6.95, 2.4449E-10, 2.4449E-10
DataValue, 7, 3.1238E-10, 3.1238E-10
DataValue, 7.05, 2.4428E-10, 2.4428E-10
DataValue, 7.1000000000000005, 3.2082000000000004E-10, 3.2082000000000004E-10
DataValue, 7.15, 2.6239E-10, 2.6239E-10
DataValue, 7.2, 2.5474000000000004E-10, 2.5474000000000004E-10
DataValue, 7.25, 3.1165E-10, 3.1165E-10
DataValue, 7.3, 2.6510000000000005E-10, 2.6510000000000005E-10
DataValue, 7.3500000000000005, 3.0970000000000003E-10, 3.0970000000000003E-10
DataValue, 7.4, 2.7010000000000003E-10, 2.7010000000000003E-10
DataValue, 7.45, 2.6953E-10, 2.6953E-10
DataValue, 7.5, 3.1548000000000003E-10, 3.1548000000000003E-10
DataValue, 7.55, 2.6086E-10, 2.6086E-10
DataValue, 7.6000000000000005, 3.2332000000000003E-10, 3.2332000000000003E-10
DataValue, 7.65, 2.8328000000000003E-10, 2.8328000000000003E-10
DataValue, 7.7, 3.088E-10, 3.088E-10
DataValue, 7.75, 4.9847E-10, 4.9847E-10
DataValue, 7.8, 2.7053E-10, 2.7053E-10
DataValue, 7.8500000000000005, 3.3124000000000004E-10, 3.3124000000000004E-10
DataValue, 7.9, 2.8378000000000003E-10, 2.8378000000000003E-10
DataValue, 7.95, 3.0211E-10, 3.0211E-10
DataValue, 8, 3.4333000000000004E-10, 3.4333000000000004E-10
DataValue, 8.05, 2.9363E-10, 2.9363E-10
DataValue, 8.1, 3.3687000000000005E-10, 3.3687000000000005E-10
DataValue, 8.15, 3.0409000000000003E-10, 3.0409000000000003E-10
DataValue, 8.2, 3.0188000000000005E-10, 3.0188000000000005E-10
DataValue, 8.25, 3.0411000000000005E-10, 3.0411000000000005E-10
DataValue, 8.3, 2.9146000000000005E-10, 2.9146000000000005E-10
DataValue, 8.35, 3.3323000000000005E-10, 3.3323000000000005E-10
DataValue, 8.4, 2.839E-10, 2.839E-10
DataValue, 8.45, 3.3048000000000003E-10, 3.3048000000000003E-10
DataValue, 8.5, 3.1893E-10, 3.1893E-10
DataValue, 8.55, 3.4471000000000004E-10, 3.4471000000000004E-10
DataValue, 8.6, 3.1418000000000005E-10, 3.1418000000000005E-10
DataValue, 8.65, 3.2712E-10, 3.2712E-10
DataValue, 8.7000000000000011, 2.7944E-10, 2.7944E-10
DataValue, 8.75, 3.2674E-10, 3.2674E-10
DataValue, 8.8, 2.9264000000000004E-10, 2.9264000000000004E-10
DataValue, 8.85, 3.1970000000000004E-10, 3.1970000000000004E-10
DataValue, 8.9, 3.5528000000000004E-10, 3.5528000000000004E-10
DataValue, 8.9500000000000011, 3.0085E-10, 3.0085E-10
DataValue, 9, 3.6668E-10, 3.6668E-10
DataValue, 9.05, 3.9405000000000005E-10, 3.9405000000000005E-10
DataValue, 9.1, 3.3742E-10, 3.3742E-10
DataValue, 9.15, 3.4461E-10, 3.4461E-10
DataValue, 9.2000000000000011, 2.7583E-10, 2.7583E-10
DataValue, 9.25, 2.5598000000000003E-10, 2.5598000000000003E-10
DataValue, 9.3, 3.7173E-10, 3.7173E-10
DataValue, 9.35, 3.4578E-10, 3.4578E-10
DataValue, 9.4, 3.7573E-10, 3.7573E-10
DataValue, 9.4500000000000011, 4.0291E-10, 4.0291E-10
DataValue, 9.5, 3.491E-10, 3.491E-10
DataValue, 9.55, 4.3004000000000005E-10, 4.3004000000000005E-10
DataValue, 9.6, 3.8219000000000005E-10, 3.8219000000000005E-10
DataValue, 9.65, 4.0546E-10, 4.0546E-10
DataValue, 9.7000000000000011, 4.6346E-10, 4.6346E-10
DataValue, 9.75, 4.0235E-10, 4.0235E-10
DataValue, 9.8, 4.6716000000000007E-10, 4.6716000000000007E-10
DataValue, 9.85, 3.9722000000000005E-10, 3.9722000000000005E-10
DataValue, 9.9, 4.5790000000000004E-10, 4.5790000000000004E-10
DataValue, 9.9500000000000011, 4.1191000000000003E-10, 4.1191000000000003E-10
DataValue, 10, 4.4886000000000004E-10, 4.4886000000000004E-10