
SetupTitle, Break of oxide
PrimitiveTest, I/V Sweep
TestParameter, Context.MainFrame, B1500A
TestParameter, Channel.UnitType, SMU, SMU
TestParameter, Channel.Unit, SMU2:HR/AS, SMU1:HR/AS
TestParameter, Channel.IName, I1, I2
TestParameter, Channel.VName, V1, V2
TestParameter, Channel.Mode, V, V
TestParameter, Channel.Func, VAR1, CONST
TestParameter, Channel.Index, 
TestParameter, Channel.Time, 
TestParameter, Measurement.Port.Unit, SMU2:HR/AS, SMU1:HR/AS
TestParameter, Measurement.Port.SeriesResistor, NONE, NONE
TestParameter, Measurement.Port.Filter, ON, ON
TestParameter, Measurement.Port.OutputVoltageComparison, 0, 0
TestParameter, Measurement.Primary.Locus, Single
TestParameter, Measurement.Primary.Scale, LINEAR
TestParameter, Measurement.Primary.Start, 0
TestParameter, Measurement.Primary.Stop, 10
TestParameter, Measurement.Primary.Step, 0.05
TestParameter, Measurement.Primary.Compliance, 0.1
TestParameter, Measurement.Primary.PowerCompliance, 0
TestParameter, Measurement.Aborting.Condition, CONTINUE AT ANY
TestParameter, Measurement.PostOutput.Value, START
TestParameter, Measurement.PostOutput.Retention, OFF
TestParameter, Measurement.Bias.Source, 0, 0
TestParameter, Measurement.Bias.Compliance, 0.1, 0.1
TestParameter, Measurement.Monitor.Unit, SMU2:HR/AS, SMU1:HR/AS
TestParameter, Measurement.Monitor.Adc, HR ADC, HR ADC
TestParameter, Measurement.Monitor.Measurement, Compliance Side, Compliance Side
TestParameter, Measurement.Monitor.RangingMode, LIMITED, LIMITED
TestParameter, Measurement.Monitor.RangeBoundary, 1nA, 1nA
TestParameter, Measurement.Monitor.RangeRating, BY FULL RANGE, BY FULL RANGE
TestParameter, Measurement.Monitor.RangeRatingCoeff, 50, 50
TestParameter, Measurement.Timing.Hold, 1
TestParameter, Measurement.Timing.Delay, 0
TestParameter, Measurement.Adc.HighSpeed.Mode, AUTO
TestParameter, Measurement.Adc.HighSpeed.Coeff, 1
TestParameter, Measurement.Adc.HighResolution.AutoZero, OFF
TestParameter, Measurement.Adc.HighResolution.Mode, AUTO
TestParameter, Measurement.Adc.HighResolution.Coeff, 6
TestParameter, Measurement.WaitTime.Source.Coeff, 1
TestParameter, Measurement.WaitTime.Source.Offset, 0
TestParameter, Measurement.WaitTime.Monitor.Coeff, 1
TestParameter, Measurement.WaitTime.Monitor.Offset, 0
TestParameter, Function.Analysis.Name, absI
TestParameter, Function.Analysis.Unit, A
TestParameter, Function.Analysis.Definition, abs(I1)
TestParameter, Output.Graph.Enabled, true
TestParameter, Output.Graph.AutoScaling, false
TestParameter, Output.Graph.XAxis.Data, V1
TestParameter, Output.Graph.XAxis.Scale, Linear
TestParameter, Output.Graph.XAxis.Left, 0
TestParameter, Output.Graph.XAxis.Right, 3
TestParameter, Output.Graph.XAxis.RunTimeAutoScale, true
TestParameter, Output.Graph.YAxis.Data, I1, absI
TestParameter, Output.Graph.YAxis.Scale, Linear, Log
TestParameter, Output.Graph.YAxis.Bottom, 0.001, 0
TestParameter, Output.Graph.YAxis.Top, 0.01, 1
TestParameter, Output.Graph.YAxis.Group, , 
TestParameter, Output.Graph.YAxis.RunTimeAutoScale, true, true
TestParameter, AutoAnalysis.Interpolation, false
TestParameter, AutoAnalysis.Var2StepCount, 1
TestParameter, AutoAnalysis.Var2StepScript, 
TestParameter, AutoAnalysis.Line1.Enabled, false
TestParameter, AutoAnalysis.Line1.Type, 1
TestParameter, AutoAnalysis.Line1.Fix, True
TestParameter, AutoAnalysis.Line1.YAxis, 0
TestParameter, AutoAnalysis.Line1.Point1.Type, 0
TestParameter, AutoAnalysis.Line1.Point1.XY.X, 
TestParameter, AutoAnalysis.Line1.Point1.XY.Y, 
TestParameter, AutoAnalysis.Line1.Point1.Data.Var, 
TestParameter, AutoAnalysis.Line1.Point1.Data.Condition, 
TestParameter, AutoAnalysis.Line1.Point1.Data.Start, false
TestParameter, AutoAnalysis.Line1.Point1.Data.StartVar, 
TestParameter, AutoAnalysis.Line1.Point1.Data.StartCondition, 
TestParameter, AutoAnalysis.Line1.Point2.Type, 0
TestParameter, AutoAnalysis.Line1.Point2.XY.X, 
TestParameter, AutoAnalysis.Line1.Point2.XY.Y, 
TestParameter, AutoAnalysis.Line1.Point2.Data.Var, 
TestParameter, AutoAnalysis.Line1.Point2.Data.Condition, 
TestParameter, AutoAnalysis.Line1.Point2.Data.Start, false
TestParameter, AutoAnalysis.Line1.Point2.Data.StartVar, 
TestParameter, AutoAnalysis.Line1.Point2.Data.StartCondition, 
TestParameter, AutoAnalysis.Line1.GradientExpr, 0
TestParameter, AutoAnalysis.Line2.Enabled, false
TestParameter, AutoAnalysis.Line2.Type, 1
TestParameter, AutoAnalysis.Line2.Fix, True
TestParameter, AutoAnalysis.Line2.YAxis, 0
TestParameter, AutoAnalysis.Line2.Point1.Type, 0
TestParameter, AutoAnalysis.Line2.Point1.XY.X, 
TestParameter, AutoAnalysis.Line2.Point1.XY.Y, 
TestParameter, AutoAnalysis.Line2.Point1.Data.Var, 
TestParameter, AutoAnalysis.Line2.Point1.Data.Condition, 
TestParameter, AutoAnalysis.Line2.Point1.Data.Start, false
TestParameter, AutoAnalysis.Line2.Point1.Data.StartVar, 
TestParameter, AutoAnalysis.Line2.Point1.Data.StartCondition, 
TestParameter, AutoAnalysis.Line2.Point2.Type, 0
TestParameter, AutoAnalysis.Line2.Point2.XY.X, 
TestParameter, AutoAnalysis.Line2.Point2.XY.Y, 
TestParameter, AutoAnalysis.Line2.Point2.Data.Var, 
TestParameter, AutoAnalysis.Line2.Point2.Data.Condition, 
TestParameter, AutoAnalysis.Line2.Point2.Data.Start, false
TestParameter, AutoAnalysis.Line2.Point2.Data.StartVar, 
TestParameter, AutoAnalysis.Line2.Point2.Data.StartCondition, 
TestParameter, AutoAnalysis.Line2.GradientExpr, 0
TestParameter, AutoAnalysis.Marker.Enabled, false
TestParameter, AutoAnalysis.Marker.Data.Var, 
TestParameter, AutoAnalysis.Marker.Data.Condition, 
TestParameter, AutoAnalysis.Marker.Data.Start, false
TestParameter, AutoAnalysis.Marker.Data.StartVar, 
TestParameter, AutoAnalysis.Marker.Data.StartCondition, 
MetaData, TestRecord.EntryPoint, true
MetaData, TestRecord.RecordTime, 08/13/2021 11:38:49
MetaData, TestRecord.TestTarget, FlashIntD_1_25um_E5
MetaData, TestRecord.IterationIndex, 2
MetaData, TestRecord.Preservation, true
MetaData, TestRecord.Flag, 
MetaData, TestRecord.Remarks, 
MetaData, TestRecord.LinkKey, 133529a1-3032-4cf3-a7c8-6287af3f4d66
MetaData, TestRecord.Parameters, 
Dimension1, 201, 201, 201
Dimension2, 1, 1, 1
DataName, V1, I1, absI
DataValue, 0, -5.6800000000000008E-12, 5.6800000000000008E-12
DataValue, 0.05, -1.3640000000000001E-11, 1.3640000000000001E-11
DataValue, 0.1, 1.988E-11, 1.988E-11
DataValue, 0.15, 1.568E-11, 1.568E-11
DataValue, 0.2, -1.783E-11, 1.783E-11
DataValue, 0.25, 3.273E-11, 3.273E-11
DataValue, 0.3, 3.5590000000000003E-11, 3.5590000000000003E-11
DataValue, 0.35000000000000003, -2.7800000000000003E-12, 2.7800000000000003E-12
DataValue, 0.4, 1.5870000000000002E-11, 1.5870000000000002E-11
DataValue, 0.45, 6.994E-11, 6.994E-11
DataValue, 0.5, 6.8700000000000004E-12, 6.8700000000000004E-12
DataValue, 0.55, 2.247E-11, 2.247E-11
DataValue, 0.6, 8.3520000000000012E-11, 8.3520000000000012E-11
DataValue, 0.65, 5.8960000000000009E-11, 5.8960000000000009E-11
DataValue, 0.70000000000000007, 6.689E-11, 6.689E-11
DataValue, 0.75, 7.386E-11, 7.386E-11
DataValue, 0.8, 8.1130000000000008E-11, 8.1130000000000008E-11
DataValue, 0.85, 1.0383E-10, 1.0383E-10
DataValue, 0.9, 1.1777E-10, 1.1777E-10
DataValue, 0.95000000000000007, 1.0709E-10, 1.0709E-10
DataValue, 1, 9.062E-11, 9.062E-11
DataValue, 1.05, 1.2657E-10, 1.2657E-10
DataValue, 1.1, 1.6827E-10, 1.6827E-10
DataValue, 1.1500000000000001, 1.0908000000000001E-10, 1.0908000000000001E-10
DataValue, 1.2, 2.2479E-10, 2.2479E-10
DataValue, 1.25, 1.8274E-10, 1.8274E-10
DataValue, 1.3, 2.1853000000000002E-10, 2.1853000000000002E-10
DataValue, 1.35, 2.8902E-10, 2.8902E-10
DataValue, 1.4000000000000001, 2.3626E-10, 2.3626E-10
DataValue, 1.45, 3.2340000000000004E-10, 3.2340000000000004E-10
DataValue, 1.5, 2.4888E-10, 2.4888E-10
DataValue, 1.55, 3.3066E-10, 3.3066E-10
DataValue, 1.6, 2.7036000000000004E-10, 2.7036000000000004E-10
DataValue, 1.6500000000000001, 3.159E-10, 3.159E-10
DataValue, 1.7, 2.8897000000000004E-10, 2.8897000000000004E-10
DataValue, 1.75, 2.8775E-10, 2.8775E-10
DataValue, 1.8, 3.307E-10, 3.307E-10
DataValue, 1.85, 2.436E-10, 2.436E-10
DataValue, 1.9000000000000001, 3.1866E-10, 3.1866E-10
DataValue, 1.95, 2.4717000000000004E-10, 2.4717000000000004E-10
DataValue, 2, 3.3966000000000005E-10, 3.3966000000000005E-10
DataValue, 2.05, 2.3889000000000004E-10, 2.3889000000000004E-10
DataValue, 2.1, 3.2282000000000003E-10, 3.2282000000000003E-10
DataValue, 2.15, 3.0136000000000003E-10, 3.0136000000000003E-10
DataValue, 2.2, 2.5691E-10, 2.5691E-10
DataValue, 2.25, 3.2653E-10, 3.2653E-10
DataValue, 2.3000000000000003, 2.5683000000000003E-10, 2.5683000000000003E-10
DataValue, 2.35, 3.0835000000000003E-10, 3.0835000000000003E-10
DataValue, 2.4, 2.7451E-10, 2.7451E-10
DataValue, 2.45, 2.7698E-10, 2.7698E-10
DataValue, 2.5, 3.1898E-10, 3.1898E-10
DataValue, 2.5500000000000003, 2.3795000000000004E-10, 2.3795000000000004E-10
DataValue, 2.6, 3.2353E-10, 3.2353E-10
DataValue, 2.65, 2.3277000000000001E-10, 2.3277000000000001E-10
DataValue, 2.7, 3.1383000000000004E-10, 3.1383000000000004E-10
DataValue, 2.75, 2.6368E-10, 2.6368E-10
DataValue, 2.8000000000000003, 2.8108000000000003E-10, 2.8108000000000003E-10
DataValue, 2.85, 2.9642000000000005E-10, 2.9642000000000005E-10
DataValue, 2.9, 2.3878000000000003E-10, 2.3878000000000003E-10
DataValue, 2.95, 3.1562000000000004E-10, 3.1562000000000004E-10
DataValue, 3, 2.2195000000000002E-10, 2.2195000000000002E-10
DataValue, 3.0500000000000003, 3.2474E-10, 3.2474E-10
DataValue, 3.1, 2.355E-10, 2.355E-10
DataValue, 3.15, 3.0744000000000003E-10, 3.0744000000000003E-10
DataValue, 3.2, 2.5518000000000004E-10, 2.5518000000000004E-10
DataValue, 3.25, 2.6842000000000004E-10, 2.6842000000000004E-10
DataValue, 3.3000000000000003, 3.0605000000000004E-10, 3.0605000000000004E-10
DataValue, 3.35, 2.2919E-10, 2.2919E-10
DataValue, 3.4, 3.0561000000000004E-10, 3.0561000000000004E-10
DataValue, 3.45, 2.3216000000000003E-10, 2.3216000000000003E-10
DataValue, 3.5, 3.2270000000000003E-10, 3.2270000000000003E-10
DataValue, 3.5500000000000003, 2.2508E-10, 2.2508E-10
DataValue, 3.6, 3.0631E-10, 3.0631E-10
DataValue, 3.65, 2.5515000000000004E-10, 2.5515000000000004E-10
DataValue, 3.7, 2.6695000000000004E-10, 2.6695000000000004E-10
DataValue, 3.75, 3.0380000000000003E-10, 3.0380000000000003E-10
DataValue, 3.8000000000000003, 2.3365E-10, 2.3365E-10
DataValue, 3.85, 3.0892E-10, 3.0892E-10
DataValue, 3.9, 2.2298000000000002E-10, 2.2298000000000002E-10
DataValue, 3.95, 3.1630000000000003E-10, 3.1630000000000003E-10
DataValue, 4, 2.3810000000000004E-10, 2.3810000000000004E-10
DataValue, 4.05, 2.9683E-10, 2.9683E-10
DataValue, 4.1, 2.535E-10, 2.535E-10
DataValue, 4.15, 2.5365E-10, 2.5365E-10
DataValue, 4.2, 3.0346E-10, 3.0346E-10
DataValue, 4.25, 2.2196000000000003E-10, 2.2196000000000003E-10
DataValue, 4.3, 2.8649E-10, 2.8649E-10
DataValue, 4.3500000000000005, 2.6149000000000005E-10, 2.6149000000000005E-10
DataValue, 4.4, 2.4857E-10, 2.4857E-10
DataValue, 4.45, 3.0350000000000004E-10, 3.0350000000000004E-10
DataValue, 4.5, 2.3165000000000002E-10, 2.3165000000000002E-10
DataValue, 4.55, 3.0297000000000004E-10, 3.0297000000000004E-10
DataValue, 4.6000000000000005, 2.1089E-10, 2.1089E-10
DataValue, 4.65, 3.1823000000000005E-10, 3.1823000000000005E-10
DataValue, 4.7, 2.3941E-10, 2.3941E-10
DataValue, 4.75, 2.9156E-10, 2.9156E-10
DataValue, 4.8, 1.1604E-09, 1.1604E-09
DataValue, 4.8500000000000005, 1.5746E-09, 1.5746E-09
DataValue, 4.9, 1.6207E-09, 1.6207E-09
DataValue, 4.95, 1.7851E-09, 1.7851E-09
DataValue, 5, 1.7086E-09, 1.7086E-09
DataValue, 5.05, 1.8248E-09, 1.8248E-09
DataValue, 5.1000000000000005, 1.7354E-09, 1.7354E-09
DataValue, 5.15, 1.8342E-09, 1.8342E-09
DataValue, 5.2, 1.7448E-09, 1.7448E-09
DataValue, 5.25, 1.8523E-09, 1.8523E-09
DataValue, 5.3, 1.7474E-09, 1.7474E-09
DataValue, 5.3500000000000005, 1.8517E-09, 1.8517E-09
DataValue, 5.4, 1.7482E-09, 1.7482E-09
DataValue, 5.45, 1.8671E-09, 1.8671E-09
DataValue, 5.5, 1.7542E-09, 1.7542E-09
DataValue, 5.55, 1.873E-09, 1.873E-09
DataValue, 5.6000000000000005, 1.7695E-09, 1.7695E-09
DataValue, 5.65, 1.8666E-09, 1.8666E-09
DataValue, 5.7, 1.778E-09, 1.778E-09
DataValue, 5.75, 1.8742E-09, 1.8742E-09
DataValue, 5.8, 1.7643E-09, 1.7643E-09
DataValue, 5.8500000000000005, 1.8789E-09, 1.8789E-09
DataValue, 5.9, 1.7811E-09, 1.7811E-09
DataValue, 5.95, 1.8836E-09, 1.8836E-09
DataValue, 6, 1.7792E-09, 1.7792E-09
DataValue, 6.05, 1.8752E-09, 1.8752E-09
DataValue, 6.1000000000000005, 1.7853E-09, 1.7853E-09
DataValue, 6.15, 1.8829E-09, 1.8829E-09
DataValue, 6.2, 1.793E-09, 1.793E-09
DataValue, 6.25, 1.8881E-09, 1.8881E-09
DataValue, 6.3, 1.8012E-09, 1.8012E-09
DataValue, 6.3500000000000005, 1.889E-09, 1.889E-09
DataValue, 6.4, 1.8009E-09, 1.8009E-09
DataValue, 6.45, 1.8944E-09, 1.8944E-09
DataValue, 6.5, 1.809E-09, 1.809E-09
DataValue, 6.55, 1.8947E-09, 1.8947E-09
DataValue, 6.6000000000000005, 1.8019E-09, 1.8019E-09
DataValue, 6.65, 1.9019E-09, 1.9019E-09
DataValue, 6.7, 1.8148E-09, 1.8148E-09
DataValue, 6.75, 1.915E-09, 1.915E-09
DataValue, 6.8, 1.8049E-09, 1.8049E-09
DataValue, 6.8500000000000005, 1.9076E-09, 1.9076E-09
DataValue, 6.9, 1.8064E-09, 1.8064E-09
DataValue, 6.95, 1.9285E-09, 1.9285E-09
DataValue, 7, 1.8106E-09, 1.8106E-09
DataValue, 7.05, 1.9122E-09, 1.9122E-09
DataValue, 7.1000000000000005, 1.8041E-09, 1.8041E-09
DataValue, 7.15, 1.9218E-09, 1.9218E-09
DataValue, 7.2, 1.8141E-09, 1.8141E-09
DataValue, 7.25, 1.8843E-09, 1.8843E-09
DataValue, 7.3, 1.8613E-09, 1.8613E-09
DataValue, 7.3500000000000005, 1.8896E-09, 1.8896E-09
DataValue, 7.4, 1.8594E-09, 1.8594E-09
DataValue, 7.45, 1.884E-09, 1.884E-09
DataValue, 7.5, 1.8647E-09, 1.8647E-09
DataValue, 7.55, 1.9024E-09, 1.9024E-09
DataValue, 7.6000000000000005, 1.8613E-09, 1.8613E-09
DataValue, 7.65, 1.8952E-09, 1.8952E-09
DataValue, 7.7, 1.8633E-09, 1.8633E-09
DataValue, 7.75, 1.9066E-09, 1.9066E-09
DataValue, 7.8, 1.8721E-09, 1.8721E-09
DataValue, 7.8500000000000005, 1.9026E-09, 1.9026E-09
DataValue, 7.9, 1.8669E-09, 1.8669E-09
DataValue, 7.95, 1.8993E-09, 1.8993E-09
DataValue, 8, 1.8778E-09, 1.8778E-09
DataValue, 8.05, 1.9096E-09, 1.9096E-09
DataValue, 8.1, 1.8775E-09, 1.8775E-09
DataValue, 8.15, 1.9085E-09, 1.9085E-09
DataValue, 8.2, 1.878E-09, 1.878E-09
DataValue, 8.25, 1.9114E-09, 1.9114E-09
DataValue, 8.3, 1.8833E-09, 1.8833E-09
DataValue, 8.35, 1.9193E-09, 1.9193E-09
DataValue, 8.4, 1.8756E-09, 1.8756E-09
DataValue, 8.45, 1.9161E-09, 1.9161E-09
DataValue, 8.5, 1.8894E-09, 1.8894E-09
DataValue, 8.55, 1.9235E-09, 1.9235E-09
DataValue, 8.6, 1.8874E-09, 1.8874E-09
DataValue, 8.65, 1.9183E-09, 1.9183E-09
DataValue, 8.7000000000000011, 1.8889E-09, 1.8889E-09
DataValue, 8.75, 1.9247E-09, 1.9247E-09
DataValue, 8.8, 1.9003E-09, 1.9003E-09
DataValue, 8.85, 1.9248E-09, 1.9248E-09
DataValue, 8.9, 1.8951E-09, 1.8951E-09
DataValue, 8.9500000000000011, 1.9304E-09, 1.9304E-09
DataValue, 9, 1.8944E-09, 1.8944E-09
DataValue, 9.05, 1.9285E-09, 1.9285E-09
DataValue, 9.1, 1.9051E-09, 1.9051E-09
DataValue, 9.15, 1.9229E-09, 1.9229E-09
DataValue, 9.2000000000000011, 1.9138E-09, 1.9138E-09
DataValue, 9.25, 1.926E-09, 1.926E-09
DataValue, 9.3, 1.918E-09, 1.918E-09
DataValue, 9.35, 1.9278E-09, 1.9278E-09
DataValue, 9.4, 1.9236E-09, 1.9236E-09
DataValue, 9.4500000000000011, 1.9255E-09, 1.9255E-09
DataValue, 9.5, 1.9287999999999998E-09, 1.9287999999999998E-09
DataValue, 9.55, 1.9322E-09, 1.9322E-09
DataValue, 9.6, 1.9302E-09, 1.9302E-09
DataValue, 9.65, 1.9314E-09, 1.9314E-09
DataValue, 9.7000000000000011, 1.9271E-09, 1.9271E-09
DataValue, 9.75, 1.9252E-09, 1.9252E-09
DataValue, 9.8, 1.9348E-09, 1.9348E-09
DataValue, 9.85, 1.9366E-09, 1.9366E-09
DataValue, 9.9, 1.9327E-09, 1.9327E-09
DataValue, 9.9500000000000011, 1.9305E-09, 1.9305E-09
DataValue, 10, 1.9436E-09, 1.9436E-09