
SetupTitle, Endurance Measure 1kHz After 200 000 Cycles(1)(1)
ApplicationTest, WGFMU Pattern Editor, Public
TestParameter, Name, ExecutionMode, Enable1, Channel1, OperationMode1, VForceRange1, InitMeasRange1, Enable2, Channel2, OperationMode2, VForceRange2, InitMeasRange2, RepeatCount, WaveformCh1, WaveformCh2, MeasurementEvent, Output_to_File_for_PatternValidation, Output_Enable, Output_Filename, DataDisplay_for_RunVector, DataDisplay_PatternValidation, DataDisplay_Mode, LogToFile, LogFile, WarningLevel, IForceRange1, IForceRange2, Result_Update_Interval_s
TestParameter, Value, Run Vector, Enable, WGFMU1:RS	RSWGFMU, Fast IV Imeas, Auto, 10uA (Imeas), Enable, WGFMU2:RS	RSWGFMU, PG Vmeas, Auto, 5V (Vmeas), 1, , Disable, C:\WGFMUPatternEditor_Pattern.csv, , Disable, x(time)_y(meas), Disable, C:\WGFMUPatternEditor_Log.log, 2, 10mA, 10mA, 10
MetaData, TestRecord.EntryPoint, true
MetaData, TestRecord.RecordTime, 11/19/2021 16:10:42
MetaData, TestRecord.TestTarget, FlashNumD_5_25um_D4
MetaData, TestRecord.IterationIndex, 4
MetaData, TestRecord.Preservation, true
MetaData, TestRecord.Flag, 
MetaData, TestRecord.Remarks, 
MetaData, TestRecord.LinkKey, 1619fecf-8786-4680-8384-40a143131415
MetaData, TestRecord.Parameters, 
Dimension1, 500, 500, 500, 500, 500
Dimension2, 1, 1, 1, 1, 1
DataName, Time, MeasResult1_value, MeasResult2_value, MeasResult1_time, MeasResult2_time
DataValue, 5E-06, -2.2459856600000003E-07, 0.053919456899166, 5E-06, 5E-06
DataValue, 1.5E-05, -2.3711132300000002E-07, 0.113716341555119, 1.5E-05, 1.5E-05
DataValue, 2.5E-05, -2.50902815E-07, 0.17322617769241303, 2.5E-05, 2.5E-05
DataValue, 3.5000000000000004E-05, -2.51485091E-07, 0.23362956941127802, 3.5000000000000004E-05, 3.5000000000000004E-05
DataValue, 4.5E-05, -2.77847477E-07, 0.29411360621452304, 4.5E-05, 4.5E-05
DataValue, 5.5E-05, -2.8708595300000005E-07, 0.353278309106827, 5.5E-05, 5.5E-05
DataValue, 6.5000000000000008E-05, -2.63196256E-07, 0.41329988837242104, 6.5000000000000008E-05, 6.5000000000000008E-05
DataValue, 7.5000000000000007E-05, -2.9132576200000003E-07, 0.47357296943664506, 7.5000000000000007E-05, 7.5000000000000007E-05
DataValue, 8.5E-05, -3.0869352900000004E-07, 0.53305745124816906, 8.5E-05, 8.5E-05
DataValue, 9.5E-05, -2.9139934600000004E-07, 0.59294623136520408, 9.5E-05, 9.5E-05
DataValue, 0.000105, -2.90819173E-07, 0.65357083082199108, 0.000105, 0.000105
DataValue, 0.000115, -3.35844902E-07, 0.71305990219116211, 0.000115, 0.000115
DataValue, 0.000125, -2.9253445200000004E-07, 0.772632420063019, 0.000125, 0.000125
DataValue, 0.000135, -3.1714094500000003E-07, 0.83318901062011708, 0.000135, 0.000135
DataValue, 0.000145, -3.3673126200000005E-07, 0.8930278420448301, 0.000145, 0.000145
DataValue, 0.000155, -3.29066523E-07, 0.95292615890502907, 0.000155, 0.000155
DataValue, 0.000165, -3.26898601E-07, 1.0131995677948, 0.000165, 0.000165
DataValue, 0.000175, -3.60660209E-07, 1.0734046697616582, 0.000175, 0.000175
DataValue, 0.00018500000000000002, -3.64733239E-07, 1.1329091787338261, 0.00018500000000000002, 0.00018500000000000002
DataValue, 0.00019500000000000002, -3.35325694E-07, 1.193262577056885, 0.00019500000000000002, 0.00019500000000000002
DataValue, 0.00020500000000000002, -4.1625219200000005E-07, 1.2535188198089602, 0.00020500000000000002, 0.00020500000000000002
DataValue, 0.00021500000000000002, -3.9645164000000005E-07, 1.3133029937744141, 0.00021500000000000002, 0.00021500000000000002
DataValue, 0.00022500000000000002, -4.0380248800000003E-07, 1.3732678890228272, 0.00022500000000000002, 0.00022500000000000002
DataValue, 0.00023500000000000002, -4.5552462800000005E-07, 1.4333246946334841, 0.00023500000000000002, 0.00023500000000000002
DataValue, 0.000245, -4.7776563900000008E-07, 1.4935734272003172, 0.000245, 0.000245
DataValue, 0.000255, -4.79581786E-07, 1.5532717704772951, 0.000255, 0.000255
DataValue, 0.000265, -5.1937411200000006E-07, 1.6130098104476931, 0.000265, 0.000265
DataValue, 0.000275, -5.58700492E-07, 1.6734064817428591, 0.000275, 0.000275
DataValue, 0.00028500000000000004, -5.46998422E-07, 1.7333647012710571, 0.00028500000000000004, 0.00028500000000000004
DataValue, 0.000295, -5.7860472700000005E-07, 1.7929439544677732, 0.000295, 0.000295
DataValue, 0.00030500000000000004, -5.90055265E-07, 1.8530317544937132, 0.00030500000000000004, 0.00030500000000000004
DataValue, 0.000315, -5.8076636800000009E-07, 1.9135298728942871, 0.000315, 0.000315
DataValue, 0.00032500000000000004, -5.59111129E-07, 1.9729667901992802, 0.00032500000000000004, 0.00032500000000000004
DataValue, 0.000335, -5.74302589E-07, 2.0329232215881352, 0.000335, 0.000335
DataValue, 0.00034500000000000004, -5.4120454300000007E-07, 2.0935277938842773, 0.00034500000000000004, 0.00034500000000000004
DataValue, 0.000355, -5.21418713E-07, 2.1530864238739014, 0.000355, 0.000355
DataValue, 0.00036500000000000004, -5.0153408900000008E-07, 2.2129321098327641, 0.00036500000000000004, 0.00036500000000000004
DataValue, 0.000375, -4.7667046500000004E-07, 2.2732868194580083, 0.000375, 0.000375
DataValue, 0.00038500000000000003, -4.65534526E-07, 2.3329882621765141, 0.00038500000000000003, 0.00038500000000000003
DataValue, 0.000395, -4.3427508000000004E-07, 2.3924484252929692, 0.000395, 0.000395
DataValue, 0.00040500000000000003, -4.5231340100000006E-07, 2.4524493217468262, 0.00040500000000000003, 0.00040500000000000003
DataValue, 0.000415, -4.09899116E-07, 2.5126490592956543, 0.000415, 0.000415
DataValue, 0.00042500000000000003, -4.26057511E-07, 2.5722627639770512, 0.00042500000000000003, 0.00042500000000000003
DataValue, 0.000435, -4.2262627200000005E-07, 2.6324477195739751, 0.000435, 0.000435
DataValue, 0.00044500000000000003, -4.2099648600000004E-07, 2.6930737495422363, 0.00044500000000000003, 0.00044500000000000003
DataValue, 0.00045500000000000006, -4.2752893100000006E-07, 2.7526915073394784, 0.00045500000000000006, 0.00045500000000000006
DataValue, 0.000465, -4.3632596200000006E-07, 2.8128750324249272, 0.000465, 0.000465
DataValue, 0.00047500000000000005, -4.5960959500000004E-07, 2.8726317882537842, 0.00047500000000000005, 0.00047500000000000005
DataValue, 0.000485, -4.7223164800000004E-07, 2.9328470230102544, 0.000485, 0.000485
DataValue, 0.000495, -5.09257006E-07, 2.9924864768981934, 0.000495, 0.000495
DataValue, 0.000505, 1.3501049E-08, 2.9925639629364014, 0.000505, 0.000505
DataValue, 0.000515, 7.044744900000001E-08, 2.9330778121948242, 0.000515, 0.000515
DataValue, 0.00052500000000000008, 1.1615213000000002E-07, 2.8730370998382573, 0.00052500000000000008, 0.00052500000000000008
DataValue, 0.000535, 1.24191743E-07, 2.8128633499145512, 0.000535, 0.000535
DataValue, 0.000545, 1.6118066500000002E-07, 2.7530267238616943, 0.000545, 0.000545
DataValue, 0.000555, 1.7016128600000002E-07, 2.6931865215301514, 0.000555, 0.000555
DataValue, 0.00056500000000000007, 1.65670613E-07, 2.6328985691070561, 0.00056500000000000007, 0.00056500000000000007
DataValue, 0.000575, 1.8141771800000003E-07, 2.5729541778564453, 0.000575, 0.000575
DataValue, 0.000585, 1.80218152E-07, 2.5133323669433594, 0.000585, 0.000585
DataValue, 0.000595, 1.9927735200000002E-07, 2.4531338214874272, 0.000595, 0.000595
DataValue, 0.00060500000000000007, 1.81924307E-07, 2.3931150436401372, 0.00060500000000000007, 0.00060500000000000007
DataValue, 0.000615, 2.0088612000000003E-07, 2.3338766098022461, 0.000615, 0.000615
DataValue, 0.000625, 1.92526997E-07, 2.2741436958312993, 0.000625, 0.000625
DataValue, 0.000635, 2.0250469400000003E-07, 2.2136077880859384, 0.000635, 0.000635
DataValue, 0.00064500000000000007, 2.0327473700000002E-07, 2.1538465023040771, 0.00064500000000000007, 0.00064500000000000007
DataValue, 0.00065500000000000009, 1.97267809E-07, 2.0943684577941903, 0.00065500000000000009, 0.00065500000000000009
DataValue, 0.000665, 1.9718511600000003E-07, 2.0336790084838872, 0.000665, 0.000665
DataValue, 0.000675, 2.0849550700000003E-07, 1.9736144542694092, 0.000675, 0.000675
DataValue, 0.00068500000000000006, 2.0596675700000003E-07, 1.9141169786453252, 0.00068500000000000006, 0.00068500000000000006
DataValue, 0.00069500000000000009, 1.9398511600000002E-07, 1.8538702726364142, 0.00069500000000000009, 0.00069500000000000009
DataValue, 0.000705, 2.0758531600000002E-07, 1.7935701608657841, 0.000705, 0.000705
DataValue, 0.000715, 1.9967603700000002E-07, 1.734155058860779, 0.000715, 0.000715
DataValue, 0.00072500000000000006, 2.1406802400000002E-07, 1.6742947101593022, 0.00072500000000000006, 0.00072500000000000006
DataValue, 0.00073500000000000008, 1.92086276E-07, 1.6138927936553962, 0.00073500000000000008, 0.00073500000000000008
DataValue, 0.000745, 1.99959814E-07, 1.5540782213211062, 0.000745, 0.000745
DataValue, 0.000755, 2.0255724600000002E-07, 1.4941489696502692, 0.000755, 0.000755
DataValue, 0.00076500000000000005, 2.03263525E-07, 1.4336994886398322, 0.00076500000000000005, 0.00076500000000000005
DataValue, 0.00077500000000000008, 2.07795523E-07, 1.3737461566925051, 0.00077500000000000008, 0.00077500000000000008
DataValue, 0.000785, 1.90408144E-07, 1.3139535188674931, 0.000785, 0.000785
DataValue, 0.000795, 1.9994159600000002E-07, 1.2537494897842412, 0.000795, 0.000795
DataValue, 0.000805, 1.8906773400000002E-07, 1.1937310695648191, 0.000805, 0.000805
DataValue, 0.00081500000000000008, 2.08819927E-07, 1.1340517997741701, 0.00081500000000000008, 0.00081500000000000008
DataValue, 0.0008250000000000001, 1.9007951800000002E-07, 1.0743919610977171, 0.0008250000000000001, 0.0008250000000000001
DataValue, 0.000835, 1.8822622400000003E-07, 1.01372230052948, 0.000835, 0.000835
DataValue, 0.000845, 2.0207657800000002E-07, 0.953593254089355, 0.000845, 0.000845
DataValue, 0.00085500000000000007, 1.94486802E-07, 0.893998146057129, 0.00085500000000000007, 0.00085500000000000007
DataValue, 0.0008650000000000001, 2.0370986E-07, 0.833961427211761, 0.0008650000000000001, 0.0008650000000000001
DataValue, 0.000875, 1.86981111E-07, 0.773602783679962, 0.000875, 0.000875
DataValue, 0.000885, 1.9320806600000002E-07, 0.713736116886139, 0.000885, 0.000885
DataValue, 0.00089500000000000007, 1.96495648E-07, 0.6541611552238461, 0.00089500000000000007, 0.00089500000000000007
DataValue, 0.0009050000000000001, 2.0678935200000002E-07, 0.593823611736298, 0.0009050000000000001, 0.0009050000000000001
DataValue, 0.000915, 1.8954770600000002E-07, 0.53380626440048207, 0.000915, 0.000915
DataValue, 0.000925, 1.8668473E-07, 0.47446438670158403, 0.000925, 0.000925
DataValue, 0.00093500000000000007, 1.86159923E-07, 0.414128631353378, 0.00093500000000000007, 0.00093500000000000007
DataValue, 0.00094500000000000009, 2.0606204000000002E-07, 0.35386013984680204, 0.00094500000000000009, 0.00094500000000000009
DataValue, 0.000955, 2.0417020600000001E-07, 0.294629961252213, 0.000955, 0.000955
DataValue, 0.000965, 1.9413997200000002E-07, 0.23460130393505102, 0.000965, 0.000965
DataValue, 0.00097500000000000006, 1.9727130500000002E-07, 0.17405034601688402, 0.00097500000000000006, 0.00097500000000000006
DataValue, 0.000985, 2.05122433E-07, 0.11419745534658402, 0.000985, 0.000985
DataValue, 0.000995, 2.1552193600000002E-07, 0.054630912840366, 0.000995, 0.000995
DataValue, 0.001005, 2.02457741E-07, -0.005894339177758, 0.001005, 0.001005
DataValue, 0.001015, 2.27270945E-07, -0.06578420847654301, 0.001015, 0.001015
DataValue, 0.001025, 2.10083954E-07, -0.12576425075531, 0.001025, 0.001025
DataValue, 0.0010350000000000001, 2.2809774700000002E-07, -0.185914397239685, 0.0010350000000000001, 0.0010350000000000001
DataValue, 0.0010450000000000001, 2.55256111E-07, -0.24574968218803403, 0.0010450000000000001, 0.0010450000000000001
DataValue, 0.0010550000000000002, 2.3680019000000003E-07, -0.305531769990921, 0.0010550000000000002, 0.0010550000000000002
DataValue, 0.001065, 2.5168265E-07, -0.36533606052398704, 0.001065, 0.001065
DataValue, 0.001075, 2.68255832E-07, -0.42579931020736705, 0.001075, 0.001075
DataValue, 0.001085, 2.8382777400000005E-07, -0.48598256707191506, 0.001085, 0.001085
DataValue, 0.001095, 2.7850117600000004E-07, -0.545553028583527, 0.001095, 0.001095
DataValue, 0.001105, 3.0429322400000003E-07, -0.605674266815185, 0.001105, 0.001105
DataValue, 0.001115, 3.04519546E-07, -0.665840625762939, 0.001115, 0.001115
DataValue, 0.0011250000000000001, 3.25970177E-07, -0.725791096687317, 0.0011250000000000001, 0.0011250000000000001
DataValue, 0.0011350000000000002, 3.33590776E-07, -0.786079287528992, 0.0011350000000000002, 0.0011350000000000002
DataValue, 0.001145, 3.36252668E-07, -0.846029758453369, 0.001145, 0.001145
DataValue, 0.001155, 3.45449109E-07, -0.90613901615142811, 0.001155, 0.001155
DataValue, 0.001165, 3.52151801E-07, -0.96552562713623, 0.001165, 0.001165
DataValue, 0.001175, 3.7167907900000005E-07, -1.026328444480896, 0.001175, 0.001175
DataValue, 0.001185, 3.5614709800000003E-07, -1.0864207744598391, 0.001185, 0.001185
DataValue, 0.001195, 3.59010784E-07, -1.1461472511291502, 0.001195, 0.001195
DataValue, 0.0012050000000000001, 3.51837201E-07, -1.2063583135604861, 0.0012050000000000001, 0.0012050000000000001
DataValue, 0.0012150000000000002, 3.61022416E-07, -1.26643979549408, 0.0012150000000000002, 0.0012150000000000002
DataValue, 0.0012250000000000002, 3.4451019800000004E-07, -1.3260334730148322, 0.0012250000000000002, 0.0012250000000000002
DataValue, 0.001235, 3.3850045600000003E-07, -1.38598358631134, 0.001235, 0.001235
DataValue, 0.001245, 3.33065287E-07, -1.44668173789978, 0.001245, 0.001245
DataValue, 0.001255, 3.2007537200000004E-07, -1.5063536167144782, 0.001255, 0.001255
DataValue, 0.001265, 3.13078374E-07, -1.5662906169891362, 0.001265, 0.001265
DataValue, 0.001275, 2.9440033700000005E-07, -1.6265634298324592, 0.001275, 0.001275
DataValue, 0.0012850000000000001, 2.98571479E-07, -1.686109185218811, 0.0012850000000000001, 0.0012850000000000001
DataValue, 0.0012950000000000001, 2.80166716E-07, -1.7459975481033332, 0.0012950000000000001, 0.0012950000000000001
DataValue, 0.0013050000000000002, 2.81289203E-07, -1.8060896396636961, 0.0013050000000000002, 0.0013050000000000002
DataValue, 0.001315, 2.70797898E-07, -1.8663969039916992, 0.001315, 0.001315
DataValue, 0.001325, 2.5310993100000004E-07, -1.9263607263565061, 0.001325, 0.001325
DataValue, 0.001335, 2.4456514300000004E-07, -1.9860153198242192, 0.001335, 0.001335
DataValue, 0.001345, 2.68130407E-07, -2.0462503433227544, 0.001345, 0.001345
DataValue, 0.001355, 2.435022E-07, -2.1061751842498784, 0.001355, 0.001355
DataValue, 0.0013650000000000001, 2.3389657100000003E-07, -2.165620088577271, 0.0013650000000000001, 0.0013650000000000001
DataValue, 0.0013750000000000001, 2.4717866200000004E-07, -2.2258367538452153, 0.0013750000000000001, 0.0013750000000000001
DataValue, 0.0013850000000000002, 2.2950331400000001E-07, -2.2862377166748051, 0.0013850000000000002, 0.0013850000000000002
DataValue, 0.0013950000000000002, 2.4169935400000004E-07, -2.3460910320281982, 0.0013950000000000002, 0.0013950000000000002
DataValue, 0.001405, 2.24890726E-07, -2.4052383899688721, 0.001405, 0.001405
DataValue, 0.001415, 2.3158573000000002E-07, -2.4657454490661621, 0.001415, 0.001415
DataValue, 0.001425, 2.28959578E-07, -2.5257885456085214, 0.001425, 0.001425
DataValue, 0.001435, 2.3383000800000003E-07, -2.585174560546875, 0.001435, 0.001435
DataValue, 0.001445, 2.41859794E-07, -2.6452505588531494, 0.001445, 0.001445
DataValue, 0.0014550000000000001, 2.2529852100000002E-07, -2.7056553363800053, 0.0014550000000000001, 0.0014550000000000001
DataValue, 0.0014650000000000002, 2.3027475E-07, -2.7654035091400151, 0.0014650000000000002, 0.0014650000000000002
DataValue, 0.0014750000000000002, 2.3908370400000004E-07, -2.8253419399261483, 0.0014750000000000002, 0.0014750000000000002
DataValue, 0.001485, 2.43604489E-07, -2.8855385780334473, 0.001485, 0.001485
DataValue, 0.001495, 2.2626196E-07, -2.9451742172241211, 0.001495, 0.001495
DataValue, 0.001505, -2.1617779600000002E-07, -2.9456391334533691, 0.001505, 0.001505
DataValue, 0.001515, -2.59020908E-07, -2.8861370086669922, 0.001515, 0.001515
DataValue, 0.001525, -2.6953529200000004E-07, -2.8256876468658452, 0.001525, 0.001525
DataValue, 0.0015350000000000001, -2.89146641E-07, -2.7657375335693364, 0.0015350000000000001, 0.0015350000000000001
DataValue, 0.0015450000000000002, -2.76579954E-07, -2.7060821056365971, 0.0015450000000000002, 0.0015450000000000002
DataValue, 0.0015550000000000002, -2.87223969E-07, -2.6460041999816903, 0.0015550000000000002, 0.0015550000000000002
DataValue, 0.0015650000000000002, -2.8647005500000004E-07, -2.5858902931213383, 0.0015650000000000002, 0.0015650000000000002
DataValue, 0.001575, -2.82085182E-07, -2.526340007781982, 0.001575, 0.001575
DataValue, 0.001585, -2.94152301E-07, -2.4665203094482422, 0.001585, 0.001585
DataValue, 0.001595, -2.8889792200000003E-07, -2.4058835506439213, 0.001595, 0.001595
DataValue, 0.001605, -2.9708044700000004E-07, -2.3464605808258061, 0.001605, 0.001605
DataValue, 0.0016150000000000001, -2.8336884800000003E-07, -2.2867591381073002, 0.0016150000000000001, 0.0016150000000000001
DataValue, 0.0016250000000000001, -2.9640008800000004E-07, -2.2265317440032963, 0.0016250000000000001, 0.0016250000000000001
DataValue, 0.0016350000000000002, -2.9444308300000005E-07, -2.1667661666870122, 0.0016350000000000002, 0.0016350000000000002
DataValue, 0.0016450000000000002, -2.8416832300000004E-07, -2.107114315032959, 0.0016450000000000002, 0.0016450000000000002
DataValue, 0.001655, -2.9676655800000004E-07, -2.0470459461212163, 0.001655, 0.001655
DataValue, 0.001665, -2.9573865800000003E-07, -1.9867098331451421, 0.001665, 0.001665
DataValue, 0.001675, -2.91878592E-07, -1.92697811126709, 0.001675, 0.001675
DataValue, 0.001685, -2.9049965600000004E-07, -1.8670843839645392, 0.001685, 0.001685
DataValue, 0.0016950000000000001, -3.00297984E-07, -1.8068507909774783, 0.0016950000000000001, 0.0016950000000000001
DataValue, 0.0017050000000000001, -2.81591923E-07, -1.7467114925384522, 0.0017050000000000001, 0.0017050000000000001
DataValue, 0.0017150000000000002, -2.94915338E-07, -1.6867092847824101, 0.0017150000000000002, 0.0017150000000000002
DataValue, 0.0017250000000000002, -2.97865228E-07, -1.6269667148590092, 0.0017250000000000002, 0.0017250000000000002
DataValue, 0.0017350000000000002, -2.9779724300000004E-07, -1.5666517019271851, 0.0017350000000000002, 0.0017350000000000002
DataValue, 0.001745, -2.8308085100000003E-07, -1.5068879127502441, 0.001745, 0.001745
DataValue, 0.001755, -2.87598851E-07, -1.4472410678863532, 0.001755, 0.001755
DataValue, 0.001765, -3.00521492E-07, -1.386491060256958, 0.001765, 0.001765
DataValue, 0.001775, -2.8655554700000004E-07, -1.3265776634216311, 0.001775, 0.001775
DataValue, 0.0017850000000000001, -2.93899376E-07, -1.266890287399292, 0.0017850000000000001, 0.0017850000000000001
DataValue, 0.0017950000000000002, -2.8783148300000004E-07, -1.2067291736602781, 0.0017950000000000002, 0.0017950000000000002
DataValue, 0.0018050000000000002, -2.9714772200000003E-07, -1.1465156078338621, 0.0018050000000000002, 0.0018050000000000002
DataValue, 0.0018150000000000002, -2.8185468200000004E-07, -1.0869195461273191, 0.0018150000000000002, 0.0018150000000000002
DataValue, 0.001825, -2.96353846E-07, -1.0269144773483281, 0.001825, 0.001825
DataValue, 0.001835, -2.89222328E-07, -0.96627402305603, 0.001835, 0.001835
DataValue, 0.001845, -2.84433867E-07, -0.90686601400375411, 0.001845, 0.001845
DataValue, 0.001855, -2.9506739500000003E-07, -0.8471321463584901, 0.001855, 0.001855
DataValue, 0.0018650000000000001, -2.80559107E-07, -0.78660827875137307, 0.0018650000000000001, 0.0018650000000000001
DataValue, 0.0018750000000000002, -2.9564265E-07, -0.726736724376678, 0.0018750000000000002, 0.0018750000000000002
