
SetupTitle, Break of oxide
PrimitiveTest, I/V Sweep
TestParameter, Context.MainFrame, B1500A
TestParameter, Channel.UnitType, SMU, SMU
TestParameter, Channel.Unit, SMU2:HR/AS, SMU1:HR/AS
TestParameter, Channel.IName, I1, I2
TestParameter, Channel.VName, V1, V2
TestParameter, Channel.Mode, V, V
TestParameter, Channel.Func, VAR1, CONST
TestParameter, Channel.Index, 
TestParameter, Channel.Time, 
TestParameter, Measurement.Port.Unit, SMU2:HR/AS, SMU1:HR/AS
TestParameter, Measurement.Port.SeriesResistor, NONE, NONE
TestParameter, Measurement.Port.Filter, ON, ON
TestParameter, Measurement.Port.OutputVoltageComparison, 0, 0
TestParameter, Measurement.Primary.Locus, Single
TestParameter, Measurement.Primary.Scale, LINEAR
TestParameter, Measurement.Primary.Start, 0
TestParameter, Measurement.Primary.Stop, 10
TestParameter, Measurement.Primary.Step, 0.05
TestParameter, Measurement.Primary.Compliance, 0.1
TestParameter, Measurement.Primary.PowerCompliance, 0
TestParameter, Measurement.Aborting.Condition, CONTINUE AT ANY
TestParameter, Measurement.PostOutput.Value, START
TestParameter, Measurement.PostOutput.Retention, OFF
TestParameter, Measurement.Bias.Source, 0, 0
TestParameter, Measurement.Bias.Compliance, 0.1, 0.1
TestParameter, Measurement.Monitor.Unit, SMU2:HR/AS, SMU1:HR/AS
TestParameter, Measurement.Monitor.Adc, HR ADC, HR ADC
TestParameter, Measurement.Monitor.Measurement, Compliance Side, Compliance Side
TestParameter, Measurement.Monitor.RangingMode, LIMITED, LIMITED
TestParameter, Measurement.Monitor.RangeBoundary, 1nA, 1nA
TestParameter, Measurement.Monitor.RangeRating, BY FULL RANGE, BY FULL RANGE
TestParameter, Measurement.Monitor.RangeRatingCoeff, 50, 50
TestParameter, Measurement.Timing.Hold, 1
TestParameter, Measurement.Timing.Delay, 0
TestParameter, Measurement.Adc.HighSpeed.Mode, AUTO
TestParameter, Measurement.Adc.HighSpeed.Coeff, 1
TestParameter, Measurement.Adc.HighResolution.AutoZero, OFF
TestParameter, Measurement.Adc.HighResolution.Mode, AUTO
TestParameter, Measurement.Adc.HighResolution.Coeff, 6
TestParameter, Measurement.WaitTime.Source.Coeff, 1
TestParameter, Measurement.WaitTime.Source.Offset, 0
TestParameter, Measurement.WaitTime.Monitor.Coeff, 1
TestParameter, Measurement.WaitTime.Monitor.Offset, 0
TestParameter, Function.Analysis.Name, absI
TestParameter, Function.Analysis.Unit, A
TestParameter, Function.Analysis.Definition, abs(I1)
TestParameter, Output.Graph.Enabled, true
TestParameter, Output.Graph.AutoScaling, false
TestParameter, Output.Graph.XAxis.Data, V1
TestParameter, Output.Graph.XAxis.Scale, Linear
TestParameter, Output.Graph.XAxis.Left, 0
TestParameter, Output.Graph.XAxis.Right, 3
TestParameter, Output.Graph.XAxis.RunTimeAutoScale, true
TestParameter, Output.Graph.YAxis.Data, I1, absI
TestParameter, Output.Graph.YAxis.Scale, Linear, Log
TestParameter, Output.Graph.YAxis.Bottom, 0.001, 0
TestParameter, Output.Graph.YAxis.Top, 0.01, 1
TestParameter, Output.Graph.YAxis.Group, , 
TestParameter, Output.Graph.YAxis.RunTimeAutoScale, true, true
TestParameter, AutoAnalysis.Interpolation, false
TestParameter, AutoAnalysis.Var2StepCount, 1
TestParameter, AutoAnalysis.Var2StepScript, 
TestParameter, AutoAnalysis.Line1.Enabled, false
TestParameter, AutoAnalysis.Line1.Type, 1
TestParameter, AutoAnalysis.Line1.Fix, True
TestParameter, AutoAnalysis.Line1.YAxis, 0
TestParameter, AutoAnalysis.Line1.Point1.Type, 0
TestParameter, AutoAnalysis.Line1.Point1.XY.X, 
TestParameter, AutoAnalysis.Line1.Point1.XY.Y, 
TestParameter, AutoAnalysis.Line1.Point1.Data.Var, 
TestParameter, AutoAnalysis.Line1.Point1.Data.Condition, 
TestParameter, AutoAnalysis.Line1.Point1.Data.Start, false
TestParameter, AutoAnalysis.Line1.Point1.Data.StartVar, 
TestParameter, AutoAnalysis.Line1.Point1.Data.StartCondition, 
TestParameter, AutoAnalysis.Line1.Point2.Type, 0
TestParameter, AutoAnalysis.Line1.Point2.XY.X, 
TestParameter, AutoAnalysis.Line1.Point2.XY.Y, 
TestParameter, AutoAnalysis.Line1.Point2.Data.Var, 
TestParameter, AutoAnalysis.Line1.Point2.Data.Condition, 
TestParameter, AutoAnalysis.Line1.Point2.Data.Start, false
TestParameter, AutoAnalysis.Line1.Point2.Data.StartVar, 
TestParameter, AutoAnalysis.Line1.Point2.Data.StartCondition, 
TestParameter, AutoAnalysis.Line1.GradientExpr, 0
TestParameter, AutoAnalysis.Line2.Enabled, false
TestParameter, AutoAnalysis.Line2.Type, 1
TestParameter, AutoAnalysis.Line2.Fix, True
TestParameter, AutoAnalysis.Line2.YAxis, 0
TestParameter, AutoAnalysis.Line2.Point1.Type, 0
TestParameter, AutoAnalysis.Line2.Point1.XY.X, 
TestParameter, AutoAnalysis.Line2.Point1.XY.Y, 
TestParameter, AutoAnalysis.Line2.Point1.Data.Var, 
TestParameter, AutoAnalysis.Line2.Point1.Data.Condition, 
TestParameter, AutoAnalysis.Line2.Point1.Data.Start, false
TestParameter, AutoAnalysis.Line2.Point1.Data.StartVar, 
TestParameter, AutoAnalysis.Line2.Point1.Data.StartCondition, 
TestParameter, AutoAnalysis.Line2.Point2.Type, 0
TestParameter, AutoAnalysis.Line2.Point2.XY.X, 
TestParameter, AutoAnalysis.Line2.Point2.XY.Y, 
TestParameter, AutoAnalysis.Line2.Point2.Data.Var, 
TestParameter, AutoAnalysis.Line2.Point2.Data.Condition, 
TestParameter, AutoAnalysis.Line2.Point2.Data.Start, false
TestParameter, AutoAnalysis.Line2.Point2.Data.StartVar, 
TestParameter, AutoAnalysis.Line2.Point2.Data.StartCondition, 
TestParameter, AutoAnalysis.Line2.GradientExpr, 0
TestParameter, AutoAnalysis.Marker.Enabled, false
TestParameter, AutoAnalysis.Marker.Data.Var, 
TestParameter, AutoAnalysis.Marker.Data.Condition, 
TestParameter, AutoAnalysis.Marker.Data.Start, false
TestParameter, AutoAnalysis.Marker.Data.StartVar, 
TestParameter, AutoAnalysis.Marker.Data.StartCondition, 
MetaData, TestRecord.EntryPoint, true
MetaData, TestRecord.RecordTime, 05/25/2021 13:50:03
MetaData, TestRecord.TestTarget, FlashIntC_1_25um_D4
MetaData, TestRecord.IterationIndex, 2
MetaData, TestRecord.Preservation, true
MetaData, TestRecord.Flag, 
MetaData, TestRecord.Remarks, 
MetaData, TestRecord.LinkKey, 5a16c910-89e9-4f2f-808f-4f9d72012bae
MetaData, TestRecord.Parameters, 
Dimension1, 201, 201, 201
Dimension2, 1, 1, 1
DataName, V1, I1, absI
DataValue, 0, 1.1500000000000002E-12, 1.1500000000000002E-12
DataValue, 0.05, -3.9000000000000005E-13, 3.9000000000000005E-13
DataValue, 0.1, 1.3E-13, 1.3E-13
DataValue, 0.15, 8.8000000000000009E-13, 8.8000000000000009E-13
DataValue, 0.2, 2.7E-13, 2.7E-13
DataValue, 0.25, -6.3E-13, 6.3E-13
DataValue, 0.3, 1.3000000000000001E-12, 1.3000000000000001E-12
DataValue, 0.35000000000000003, 3.2000000000000005E-13, 3.2000000000000005E-13
DataValue, 0.4, 4.7E-13, 4.7E-13
DataValue, 0.45, 7E-13, 7E-13
DataValue, 0.5, 1.5400000000000001E-12, 1.5400000000000001E-12
DataValue, 0.55, -3.0000000000000005E-14, 3.0000000000000005E-14
DataValue, 0.6, 1.4700000000000002E-12, 1.4700000000000002E-12
DataValue, 0.65, 2.7E-13, 2.7E-13
DataValue, 0.70000000000000007, -1.5000000000000002E-13, 1.5000000000000002E-13
DataValue, 0.75, 2.5E-13, 2.5E-13
DataValue, 0.8, 1.3000000000000001E-12, 1.3000000000000001E-12
DataValue, 0.85, 1.7600000000000002E-12, 1.7600000000000002E-12
DataValue, 0.9, -2.3000000000000003E-13, 2.3000000000000003E-13
DataValue, 0.95000000000000007, 8.5000000000000011E-13, 8.5000000000000011E-13
DataValue, 1, 1.0100000000000001E-12, 1.0100000000000001E-12
DataValue, 1.05, 7.100000000000001E-13, 7.100000000000001E-13
DataValue, 1.1, 1.1500000000000002E-12, 1.1500000000000002E-12
DataValue, 1.1500000000000001, 9.6000000000000015E-13, 9.6000000000000015E-13
DataValue, 1.2, 3.0000000000000005E-14, 3.0000000000000005E-14
DataValue, 1.25, 8.9E-13, 8.9E-13
DataValue, 1.3, 8.9E-13, 8.9E-13
DataValue, 1.35, 5.9E-13, 5.9E-13
DataValue, 1.4000000000000001, 1.3E-13, 1.3E-13
DataValue, 1.45, 1.69E-12, 1.69E-12
DataValue, 1.5, 7.4000000000000008E-13, 7.4000000000000008E-13
DataValue, 1.55, -4.1E-13, 4.1E-13
DataValue, 1.6, 1.78E-12, 1.78E-12
DataValue, 1.6500000000000001, 1.26E-12, 1.26E-12
DataValue, 1.7, 5.5000000000000008E-13, 5.5000000000000008E-13
DataValue, 1.75, 1.3300000000000002E-12, 1.3300000000000002E-12
DataValue, 1.8, 6.9000000000000009E-13, 6.9000000000000009E-13
DataValue, 1.85, -1.8000000000000002E-13, 1.8000000000000002E-13
DataValue, 1.9000000000000001, 9.8E-13, 9.8E-13
DataValue, 1.95, 1.6200000000000002E-12, 1.6200000000000002E-12
DataValue, 2, 1.51E-12, 1.51E-12
DataValue, 2.05, 6.400000000000001E-13, 6.400000000000001E-13
DataValue, 2.1, 1.6200000000000002E-12, 1.6200000000000002E-12
DataValue, 2.15, 1.45E-12, 1.45E-12
DataValue, 2.2, 1.02E-12, 1.02E-12
DataValue, 2.25, 1.09E-12, 1.09E-12
DataValue, 2.3000000000000003, 1.31E-12, 1.31E-12
DataValue, 2.35, 4.4000000000000004E-13, 4.4000000000000004E-13
DataValue, 2.4, 1.03E-12, 1.03E-12
DataValue, 2.45, 2.06E-12, 2.06E-12
DataValue, 2.5, 1.0000000000000002E-14, 1.0000000000000002E-14
DataValue, 2.5500000000000003, 9.7000000000000011E-13, 9.7000000000000011E-13
DataValue, 2.6, 1.7000000000000002E-12, 1.7000000000000002E-12
DataValue, 2.65, 1.26E-12, 1.26E-12
DataValue, 2.7, -6.2000000000000008E-13, 6.2000000000000008E-13
DataValue, 2.75, 1.1900000000000002E-12, 1.1900000000000002E-12
DataValue, 2.8000000000000003, 1.31E-12, 1.31E-12
DataValue, 2.85, 1.17E-12, 1.17E-12
DataValue, 2.9, 1.6100000000000002E-12, 1.6100000000000002E-12
DataValue, 2.95, 1.7700000000000001E-12, 1.7700000000000001E-12
DataValue, 3, 5.9E-13, 5.9E-13
DataValue, 3.0500000000000003, 1.1900000000000002E-12, 1.1900000000000002E-12
DataValue, 3.1, 1.83E-12, 1.83E-12
DataValue, 3.15, 1.23E-12, 1.23E-12
DataValue, 3.2, 5.7E-13, 5.7E-13
DataValue, 3.25, 1.5400000000000001E-12, 1.5400000000000001E-12
DataValue, 3.3000000000000003, 2.8E-13, 2.8E-13
DataValue, 3.35, 1.23E-12, 1.23E-12
DataValue, 3.4, 1.69E-12, 1.69E-12
DataValue, 3.45, 1.4E-12, 1.4E-12
DataValue, 3.5, 5.9E-13, 5.9E-13
DataValue, 3.5500000000000003, 1.4200000000000002E-12, 1.4200000000000002E-12
DataValue, 3.6, 2.2500000000000003E-12, 2.2500000000000003E-12
DataValue, 3.65, 1.64E-12, 1.64E-12
DataValue, 3.7, 1.46E-12, 1.46E-12
DataValue, 3.75, 1.7200000000000001E-12, 1.7200000000000001E-12
DataValue, 3.8000000000000003, 8.7E-13, 8.7E-13
DataValue, 3.85, 1.6000000000000003E-13, 1.6000000000000003E-13
DataValue, 3.9, 1.0600000000000001E-12, 1.0600000000000001E-12
DataValue, 3.95, 2.1000000000000003E-12, 2.1000000000000003E-12
DataValue, 4, 1.2400000000000002E-12, 1.2400000000000002E-12
DataValue, 4.05, 2.0200000000000003E-12, 2.0200000000000003E-12
DataValue, 4.1, 1.8100000000000002E-12, 1.8100000000000002E-12
DataValue, 4.15, 1.07E-12, 1.07E-12
DataValue, 4.2, 8.5000000000000011E-13, 8.5000000000000011E-13
DataValue, 4.25, 2.6500000000000002E-12, 2.6500000000000002E-12
DataValue, 4.3, 1.14E-12, 1.14E-12
DataValue, 4.3500000000000005, 9.4E-13, 9.4E-13
DataValue, 4.4, 2.5000000000000003E-12, 2.5000000000000003E-12
DataValue, 4.45, 1.6300000000000001E-12, 1.6300000000000001E-12
DataValue, 4.5, 3.7000000000000004E-13, 3.7000000000000004E-13
DataValue, 4.55, 2.44E-12, 2.44E-12
DataValue, 4.6000000000000005, 2.0200000000000003E-12, 2.0200000000000003E-12
DataValue, 4.65, 2.64E-12, 2.64E-12
DataValue, 4.7, 1.7200000000000001E-12, 1.7200000000000001E-12
DataValue, 4.75, 2.3200000000000002E-12, 2.3200000000000002E-12
DataValue, 4.8, 3.5E-13, 3.5E-13
DataValue, 4.8500000000000005, 2.16E-12, 2.16E-12
DataValue, 4.9, 2.3300000000000004E-12, 2.3300000000000004E-12
DataValue, 4.95, 1.8100000000000002E-12, 1.8100000000000002E-12
DataValue, 5, 1.41E-12, 1.41E-12
DataValue, 5.05, 2.41E-12, 2.41E-12
DataValue, 5.1000000000000005, 1.9E-12, 1.9E-12
DataValue, 5.15, 1.74E-12, 1.74E-12
DataValue, 5.2, 2.1200000000000003E-12, 2.1200000000000003E-12
DataValue, 5.25, 2.36E-12, 2.36E-12
DataValue, 5.3, 9.9E-13, 9.9E-13
DataValue, 5.3500000000000005, 3.2600000000000002E-12, 3.2600000000000002E-12
DataValue, 5.4, 2.7800000000000003E-12, 2.7800000000000003E-12
DataValue, 5.45, 1.5200000000000002E-12, 1.5200000000000002E-12
DataValue, 5.5, 1.6300000000000001E-12, 1.6300000000000001E-12
DataValue, 5.55, 3.28E-12, 3.28E-12
DataValue, 5.6000000000000005, 2.5800000000000003E-12, 2.5800000000000003E-12
DataValue, 5.65, 1.7600000000000002E-12, 1.7600000000000002E-12
DataValue, 5.7, 5.2500000000000004E-12, 5.2500000000000004E-12
DataValue, 5.75, 3.8400000000000006E-12, 3.8400000000000006E-12
DataValue, 5.8, 1.458E-11, 1.458E-11
DataValue, 5.8500000000000005, 6.3790000000000007E-11, 6.3790000000000007E-11
DataValue, 5.9, 1.5703E-09, 1.5703E-09
DataValue, 5.95, 1.2039E-09, 1.2039E-09
DataValue, 6, 5.0560999999999992E-08, 5.0560999999999992E-08
DataValue, 6.05, 2.0700000000000003E-12, 2.0700000000000003E-12
DataValue, 6.1000000000000005, 2.3300000000000004E-12, 2.3300000000000004E-12
DataValue, 6.15, 1.8200000000000003E-12, 1.8200000000000003E-12
DataValue, 6.2, 3.0400000000000004E-12, 3.0400000000000004E-12
DataValue, 6.25, 1.2400000000000002E-12, 1.2400000000000002E-12
DataValue, 6.3, 1.4400000000000001E-12, 1.4400000000000001E-12
DataValue, 6.3500000000000005, 2.64E-12, 2.64E-12
DataValue, 6.4, 1.8200000000000003E-12, 1.8200000000000003E-12
DataValue, 6.45, 2.28E-12, 2.28E-12
DataValue, 6.5, 2.7800000000000003E-12, 2.7800000000000003E-12
DataValue, 6.55, 2.8800000000000002E-12, 2.8800000000000002E-12
DataValue, 6.6000000000000005, 1.1900000000000002E-12, 1.1900000000000002E-12
DataValue, 6.65, 3.6900000000000006E-12, 3.6900000000000006E-12
DataValue, 6.7, 4.06E-12, 4.06E-12
DataValue, 6.75, 2.6000000000000002E-12, 2.6000000000000002E-12
DataValue, 6.8, 3.07E-12, 3.07E-12
DataValue, 6.8500000000000005, 3.58E-12, 3.58E-12
DataValue, 6.9, 2.6000000000000002E-12, 2.6000000000000002E-12
DataValue, 6.95, 2.47E-12, 2.47E-12
DataValue, 7, 3.4000000000000005E-12, 3.4000000000000005E-12
DataValue, 7.05, 3.0100000000000003E-12, 3.0100000000000003E-12
DataValue, 7.1000000000000005, 3.1700000000000004E-12, 3.1700000000000004E-12
DataValue, 7.15, 2.95E-12, 2.95E-12
DataValue, 7.2, 3.33E-12, 3.33E-12
DataValue, 7.25, 3.6900000000000006E-12, 3.6900000000000006E-12
DataValue, 7.3, 4.58E-12, 4.58E-12
DataValue, 7.3500000000000005, 6.9900000000000007E-12, 6.9900000000000007E-12
DataValue, 7.4, 5.7E-12, 5.7E-12
DataValue, 7.45, 1.1510000000000001E-11, 1.1510000000000001E-11
DataValue, 7.5, 1.7250000000000002E-11, 1.7250000000000002E-11
DataValue, 7.55, 1.14E-11, 1.14E-11
DataValue, 7.6000000000000005, 2.64E-11, 2.64E-11
DataValue, 7.65, 3.7270000000000004E-11, 3.7270000000000004E-11
DataValue, 7.7, 4.701E-11, 4.701E-11
DataValue, 7.75, 3.8440000000000005E-11, 3.8440000000000005E-11
DataValue, 7.8, 6.4120000000000007E-11, 6.4120000000000007E-11
DataValue, 7.8500000000000005, 9.628E-11, 9.628E-11
DataValue, 7.9, 5.1400000000000005E-11, 5.1400000000000005E-11
DataValue, 7.95, 9.823E-11, 9.823E-11
DataValue, 8, 2.1639000000000002E-10, 2.1639000000000002E-10
DataValue, 8.05, 2.2848000000000002E-10, 2.2848000000000002E-10
DataValue, 8.1, 4.1134000000000005E-10, 4.1134000000000005E-10
DataValue, 8.15, 7.9765E-10, 7.9765E-10
DataValue, 8.2, 1.0445E-09, 1.0445E-09
DataValue, 8.25, 1.29E-09, 1.29E-09
DataValue, 8.3, 1.31E-11, 1.31E-11
DataValue, 8.35, 9.14E-12, 9.14E-12
DataValue, 8.4, 1.086E-11, 1.086E-11
DataValue, 8.45, 7.49E-12, 7.49E-12
DataValue, 8.5, 9.47E-12, 9.47E-12
DataValue, 8.55, 1.548E-11, 1.548E-11
DataValue, 8.6, 1.004E-11, 1.004E-11
DataValue, 8.65, 4.6600000000000007E-12, 4.6600000000000007E-12
DataValue, 8.7000000000000011, 4.8600000000000007E-12, 4.8600000000000007E-12
DataValue, 8.75, 7.1900000000000007E-12, 7.1900000000000007E-12
DataValue, 8.8, 1.0610000000000001E-11, 1.0610000000000001E-11
DataValue, 8.85, 2.0060000000000003E-11, 2.0060000000000003E-11
DataValue, 8.9, 9.0590000000000007E-11, 9.0590000000000007E-11
DataValue, 8.9500000000000011, 4.6845000000000007E-10, 4.6845000000000007E-10
DataValue, 9, 5.7428E-10, 5.7428E-10
DataValue, 9.05, 1.5576E-09, 1.5576E-09
DataValue, 9.1, 2.2318E-09, 2.2318E-09
DataValue, 9.15, 1.4983E-09, 1.4983E-09
DataValue, 9.2000000000000011, 1.4087E-09, 1.4087E-09
DataValue, 9.25, 4.0040000000000005E-11, 4.0040000000000005E-11
DataValue, 9.3, 1.71E-11, 1.71E-11
DataValue, 9.35, 1.1020000000000001E-11, 1.1020000000000001E-11
DataValue, 9.4, 9.4100000000000013E-12, 9.4100000000000013E-12
DataValue, 9.4500000000000011, 1.261E-11, 1.261E-11
DataValue, 9.5, 4.4260000000000004E-11, 4.4260000000000004E-11
DataValue, 9.55, 2.4196E-10, 2.4196E-10
DataValue, 9.6, 1.1112000000000001E-10, 1.1112000000000001E-10
DataValue, 9.65, 1.4562E-10, 1.4562E-10
DataValue, 9.7000000000000011, 1.4327000000000001E-10, 1.4327000000000001E-10
DataValue, 9.75, 5.0144000000000008E-10, 5.0144000000000008E-10
DataValue, 9.8, 1.7841E-10, 1.7841E-10
DataValue, 9.85, 1.2116E-10, 1.2116E-10
DataValue, 9.9, 4.1863999999999995E-09, 4.1863999999999995E-09
DataValue, 9.9500000000000011, 9.978E-10, 9.978E-10
DataValue, 10, 3.5647499999999995E-08, 3.5647499999999995E-08