
SetupTitle, Break of oxide
PrimitiveTest, I/V Sweep
TestParameter, Context.MainFrame, B1500A
TestParameter, Channel.UnitType, SMU, SMU
TestParameter, Channel.Unit, SMU2:HR/AS, SMU1:HR/AS
TestParameter, Channel.IName, I1, I2
TestParameter, Channel.VName, V1, V2
TestParameter, Channel.Mode, V, V
TestParameter, Channel.Func, VAR1, CONST
TestParameter, Channel.Index, 
TestParameter, Channel.Time, 
TestParameter, Measurement.Port.Unit, SMU2:HR/AS, SMU1:HR/AS
TestParameter, Measurement.Port.SeriesResistor, NONE, NONE
TestParameter, Measurement.Port.Filter, ON, ON
TestParameter, Measurement.Port.OutputVoltageComparison, 0, 0
TestParameter, Measurement.Primary.Locus, Single
TestParameter, Measurement.Primary.Scale, LINEAR
TestParameter, Measurement.Primary.Start, 0
TestParameter, Measurement.Primary.Stop, 10
TestParameter, Measurement.Primary.Step, 0.05
TestParameter, Measurement.Primary.Compliance, 0.1
TestParameter, Measurement.Primary.PowerCompliance, 0
TestParameter, Measurement.Aborting.Condition, CONTINUE AT ANY
TestParameter, Measurement.PostOutput.Value, START
TestParameter, Measurement.PostOutput.Retention, OFF
TestParameter, Measurement.Bias.Source, 0, 0
TestParameter, Measurement.Bias.Compliance, 0.1, 0.1
TestParameter, Measurement.Monitor.Unit, SMU2:HR/AS, SMU1:HR/AS
TestParameter, Measurement.Monitor.Adc, HR ADC, HR ADC
TestParameter, Measurement.Monitor.Measurement, Compliance Side, Compliance Side
TestParameter, Measurement.Monitor.RangingMode, LIMITED, LIMITED
TestParameter, Measurement.Monitor.RangeBoundary, 1nA, 1nA
TestParameter, Measurement.Monitor.RangeRating, BY FULL RANGE, BY FULL RANGE
TestParameter, Measurement.Monitor.RangeRatingCoeff, 50, 50
TestParameter, Measurement.Timing.Hold, 1
TestParameter, Measurement.Timing.Delay, 0
TestParameter, Measurement.Adc.HighSpeed.Mode, AUTO
TestParameter, Measurement.Adc.HighSpeed.Coeff, 1
TestParameter, Measurement.Adc.HighResolution.AutoZero, OFF
TestParameter, Measurement.Adc.HighResolution.Mode, AUTO
TestParameter, Measurement.Adc.HighResolution.Coeff, 6
TestParameter, Measurement.WaitTime.Source.Coeff, 1
TestParameter, Measurement.WaitTime.Source.Offset, 0
TestParameter, Measurement.WaitTime.Monitor.Coeff, 1
TestParameter, Measurement.WaitTime.Monitor.Offset, 0
TestParameter, Function.Analysis.Name, absI
TestParameter, Function.Analysis.Unit, A
TestParameter, Function.Analysis.Definition, abs(I1)
TestParameter, Output.Graph.Enabled, true
TestParameter, Output.Graph.AutoScaling, false
TestParameter, Output.Graph.XAxis.Data, V1
TestParameter, Output.Graph.XAxis.Scale, Linear
TestParameter, Output.Graph.XAxis.Left, 0
TestParameter, Output.Graph.XAxis.Right, 3
TestParameter, Output.Graph.XAxis.RunTimeAutoScale, true
TestParameter, Output.Graph.YAxis.Data, I1, absI
TestParameter, Output.Graph.YAxis.Scale, Linear, Log
TestParameter, Output.Graph.YAxis.Bottom, 0.001, 0
TestParameter, Output.Graph.YAxis.Top, 0.01, 1
TestParameter, Output.Graph.YAxis.Group, , 
TestParameter, Output.Graph.YAxis.RunTimeAutoScale, true, true
TestParameter, AutoAnalysis.Interpolation, false
TestParameter, AutoAnalysis.Var2StepCount, 1
TestParameter, AutoAnalysis.Var2StepScript, 
TestParameter, AutoAnalysis.Line1.Enabled, false
TestParameter, AutoAnalysis.Line1.Type, 1
TestParameter, AutoAnalysis.Line1.Fix, True
TestParameter, AutoAnalysis.Line1.YAxis, 0
TestParameter, AutoAnalysis.Line1.Point1.Type, 0
TestParameter, AutoAnalysis.Line1.Point1.XY.X, 
TestParameter, AutoAnalysis.Line1.Point1.XY.Y, 
TestParameter, AutoAnalysis.Line1.Point1.Data.Var, 
TestParameter, AutoAnalysis.Line1.Point1.Data.Condition, 
TestParameter, AutoAnalysis.Line1.Point1.Data.Start, false
TestParameter, AutoAnalysis.Line1.Point1.Data.StartVar, 
TestParameter, AutoAnalysis.Line1.Point1.Data.StartCondition, 
TestParameter, AutoAnalysis.Line1.Point2.Type, 0
TestParameter, AutoAnalysis.Line1.Point2.XY.X, 
TestParameter, AutoAnalysis.Line1.Point2.XY.Y, 
TestParameter, AutoAnalysis.Line1.Point2.Data.Var, 
TestParameter, AutoAnalysis.Line1.Point2.Data.Condition, 
TestParameter, AutoAnalysis.Line1.Point2.Data.Start, false
TestParameter, AutoAnalysis.Line1.Point2.Data.StartVar, 
TestParameter, AutoAnalysis.Line1.Point2.Data.StartCondition, 
TestParameter, AutoAnalysis.Line1.GradientExpr, 0
TestParameter, AutoAnalysis.Line2.Enabled, false
TestParameter, AutoAnalysis.Line2.Type, 1
TestParameter, AutoAnalysis.Line2.Fix, True
TestParameter, AutoAnalysis.Line2.YAxis, 0
TestParameter, AutoAnalysis.Line2.Point1.Type, 0
TestParameter, AutoAnalysis.Line2.Point1.XY.X, 
TestParameter, AutoAnalysis.Line2.Point1.XY.Y, 
TestParameter, AutoAnalysis.Line2.Point1.Data.Var, 
TestParameter, AutoAnalysis.Line2.Point1.Data.Condition, 
TestParameter, AutoAnalysis.Line2.Point1.Data.Start, false
TestParameter, AutoAnalysis.Line2.Point1.Data.StartVar, 
TestParameter, AutoAnalysis.Line2.Point1.Data.StartCondition, 
TestParameter, AutoAnalysis.Line2.Point2.Type, 0
TestParameter, AutoAnalysis.Line2.Point2.XY.X, 
TestParameter, AutoAnalysis.Line2.Point2.XY.Y, 
TestParameter, AutoAnalysis.Line2.Point2.Data.Var, 
TestParameter, AutoAnalysis.Line2.Point2.Data.Condition, 
TestParameter, AutoAnalysis.Line2.Point2.Data.Start, false
TestParameter, AutoAnalysis.Line2.Point2.Data.StartVar, 
TestParameter, AutoAnalysis.Line2.Point2.Data.StartCondition, 
TestParameter, AutoAnalysis.Line2.GradientExpr, 0
TestParameter, AutoAnalysis.Marker.Enabled, false
TestParameter, AutoAnalysis.Marker.Data.Var, 
TestParameter, AutoAnalysis.Marker.Data.Condition, 
TestParameter, AutoAnalysis.Marker.Data.Start, false
TestParameter, AutoAnalysis.Marker.Data.StartVar, 
TestParameter, AutoAnalysis.Marker.Data.StartCondition, 
MetaData, TestRecord.EntryPoint, true
MetaData, TestRecord.RecordTime, 05/19/2021 11:53:46
MetaData, TestRecord.TestTarget, FlashIntC_1_25um_D10
MetaData, TestRecord.IterationIndex, 1
MetaData, TestRecord.Preservation, true
MetaData, TestRecord.Flag, 
MetaData, TestRecord.Remarks, 
MetaData, TestRecord.LinkKey, 2f5ca9f4-4c92-4065-91ed-278ad965f8f8
MetaData, TestRecord.Parameters, 
Dimension1, 201, 201, 201
Dimension2, 1, 1, 1
DataName, V1, I1, absI
DataValue, 0, 2.7497E-09, 2.7497E-09
DataValue, 0.05, 2.9836E-07, 2.9836E-07
DataValue, 0.1, 6.139E-07, 6.139E-07
DataValue, 0.15, 9.5226E-07, 9.5226E-07
DataValue, 0.2, 1.3381000000000002E-06, 1.3381000000000002E-06
DataValue, 0.25, 1.7793000000000003E-06, 1.7793000000000003E-06
DataValue, 0.3, 2.2481E-06, 2.2481E-06
DataValue, 0.35000000000000003, 2.8465E-06, 2.8465E-06
DataValue, 0.4, 3.5107000000000005E-06, 3.5107000000000005E-06
DataValue, 0.45, 4.286E-06, 4.286E-06
DataValue, 0.5, 5.1345000000000006E-06, 5.1345000000000006E-06
DataValue, 0.55, 6.0997E-06, 6.0997E-06
DataValue, 0.6, 7.3373000000000009E-06, 7.3373000000000009E-06
DataValue, 0.65, 8.7301000000000013E-06, 8.7301000000000013E-06
DataValue, 0.70000000000000007, 1.01962E-05, 1.01962E-05
DataValue, 0.75, 1.2386E-05, 1.2386E-05
DataValue, 0.8, 1.4292E-05, 1.4292E-05
DataValue, 0.85, 1.648E-05, 1.648E-05
DataValue, 0.9, 1.8972E-05, 1.8972E-05
DataValue, 0.95000000000000007, 2.1714E-05, 2.1714E-05
DataValue, 1, 2.5076000000000002E-05, 2.5076000000000002E-05
DataValue, 1.05, 2.8924E-05, 2.8924E-05
DataValue, 1.1, 3.3542E-05, 3.3542E-05
DataValue, 1.1500000000000001, 3.8616000000000004E-05, 3.8616000000000004E-05
DataValue, 1.2, 4.3716E-05, 4.3716E-05
DataValue, 1.25, 5.1208E-05, 5.1208E-05
DataValue, 1.3, 5.916E-05, 5.916E-05
DataValue, 1.35, 6.884E-05, 6.884E-05
DataValue, 1.4000000000000001, 8.053E-05, 8.053E-05
DataValue, 1.45, 9.1798E-05, 9.1798E-05
DataValue, 1.5, 0.00010893, 0.00010893
DataValue, 1.55, 0.0001406, 0.0001406
DataValue, 1.6, 0.00015628000000000002, 0.00015628000000000002
DataValue, 1.6500000000000001, 0.0001765, 0.0001765
DataValue, 1.7, 0.0002035, 0.0002035
DataValue, 1.75, 0.00023850000000000002, 0.00023850000000000002
DataValue, 1.8, 0.00028002, 0.00028002
DataValue, 1.85, 0.00032694, 0.00032694
DataValue, 1.9000000000000001, 0.00038384000000000004, 0.00038384000000000004
DataValue, 1.95, 0.00044776, 0.00044776
DataValue, 2, 0.00051384, 0.00051384
DataValue, 2.05, 0.00058074, 0.00058074
DataValue, 2.1, 0.0006537, 0.0006537
DataValue, 2.15, 0.00072412000000000008, 0.00072412000000000008
DataValue, 2.2, 0.00080906, 0.00080906
DataValue, 2.25, 0.00087988000000000009, 0.00087988000000000009
DataValue, 2.3000000000000003, 0.00095668, 0.00095668
DataValue, 2.35, 0.00103026, 0.00103026
DataValue, 2.4, 0.0010926, 0.0010926
DataValue, 2.45, 0.001113, 0.001113
DataValue, 2.5, 0.001197, 0.001197
DataValue, 2.5500000000000003, 0.001281, 0.001281
DataValue, 2.6, 0.001354, 0.001354
DataValue, 2.65, 0.0014658, 0.0014658
DataValue, 2.7, 0.0045924, 0.0045924
DataValue, 2.75, 0.006261, 0.006261
DataValue, 2.8000000000000003, 0.0067204000000000005, 0.0067204000000000005
DataValue, 2.85, 0.0077826, 0.0077826
DataValue, 2.9, 0.0097588, 0.0097588
DataValue, 2.95, 0.013858, 0.013858
DataValue, 3, 0.096194, 0.096194
DataValue, 3.0500000000000003, 0.090812, 0.090812
DataValue, 3.1, 0.098854000000000011, 0.098854000000000011
DataValue, 3.15, 0.099990000000000009, 0.099990000000000009
DataValue, 3.2, 0.100056, 0.100056
DataValue, 3.25, 0.100054, 0.100054
DataValue, 3.3000000000000003, 0.10000600000000001, 0.10000600000000001
DataValue, 3.35, 0.10000200000000001, 0.10000200000000001
DataValue, 3.4, 0.099992000000000011, 0.099992000000000011
DataValue, 3.45, 0.10000400000000001, 0.10000400000000001
DataValue, 3.5, 0.100012, 0.100012
DataValue, 3.5500000000000003, 0.1, 0.1
DataValue, 3.6, 0.10000600000000001, 0.10000600000000001
DataValue, 3.65, 0.10000600000000001, 0.10000600000000001
DataValue, 3.7, 0.099982000000000015, 0.099982000000000015
DataValue, 3.75, 0.10003600000000001, 0.10003600000000001
DataValue, 3.8000000000000003, 0.099964000000000011, 0.099964000000000011
DataValue, 3.85, 0.1, 0.1
DataValue, 3.9, 0.099996000000000015, 0.099996000000000015
DataValue, 3.95, 0.099998, 0.099998
DataValue, 4, 0.10000200000000001, 0.10000200000000001
DataValue, 4.05, 0.10000200000000001, 0.10000200000000001
DataValue, 4.1, 0.10000200000000001, 0.10000200000000001
DataValue, 4.15, 0.10000400000000001, 0.10000400000000001
DataValue, 4.2, 0.10000600000000001, 0.10000600000000001
DataValue, 4.25, 0.100014, 0.100014
DataValue, 4.3, 0.10000800000000001, 0.10000800000000001
DataValue, 4.3500000000000005, 0.099996000000000015, 0.099996000000000015
DataValue, 4.4, 0.1, 0.1
DataValue, 4.45, 0.10003400000000001, 0.10003400000000001
DataValue, 4.5, 0.10000600000000001, 0.10000600000000001
DataValue, 4.55, 0.10000200000000001, 0.10000200000000001
DataValue, 4.6000000000000005, 0.10000200000000001, 0.10000200000000001
DataValue, 4.65, 0.1, 0.1
DataValue, 4.7, 0.10000600000000001, 0.10000600000000001
DataValue, 4.75, 0.099996000000000015, 0.099996000000000015
DataValue, 4.8, 0.10000200000000001, 0.10000200000000001
DataValue, 4.8500000000000005, 0.10000200000000001, 0.10000200000000001
DataValue, 4.9, 0.1, 0.1
DataValue, 4.95, 0.1, 0.1
DataValue, 5, 0.10000400000000001, 0.10000400000000001
DataValue, 5.05, 0.10000200000000001, 0.10000200000000001
DataValue, 5.1000000000000005, 0.10000200000000001, 0.10000200000000001
DataValue, 5.15, 0.099986, 0.099986
DataValue, 5.2, 0.10000600000000001, 0.10000600000000001
DataValue, 5.25, 0.1, 0.1
DataValue, 5.3, 0.10000400000000001, 0.10000400000000001
DataValue, 5.3500000000000005, 0.099998, 0.099998
DataValue, 5.4, 0.10000400000000001, 0.10000400000000001
DataValue, 5.45, 0.1, 0.1
DataValue, 5.5, 0.10000200000000001, 0.10000200000000001
DataValue, 5.55, 0.10001600000000001, 0.10001600000000001
DataValue, 5.6000000000000005, 0.10000200000000001, 0.10000200000000001
DataValue, 5.65, 0.10000200000000001, 0.10000200000000001
DataValue, 5.7, 0.10000200000000001, 0.10000200000000001
DataValue, 5.75, 0.10000600000000001, 0.10000600000000001
DataValue, 5.8, 0.10000200000000001, 0.10000200000000001
DataValue, 5.8500000000000005, 0.1, 0.1
DataValue, 5.9, 0.10000600000000001, 0.10000600000000001
DataValue, 5.95, 0.099972, 0.099972
DataValue, 6, 0.10000600000000001, 0.10000600000000001
DataValue, 6.05, 0.10000600000000001, 0.10000600000000001
DataValue, 6.1000000000000005, 0.099988000000000007, 0.099988000000000007
DataValue, 6.15, 0.10000200000000001, 0.10000200000000001
DataValue, 6.2, 0.099996000000000015, 0.099996000000000015
DataValue, 6.25, 0.1, 0.1
DataValue, 6.3, 0.10000200000000001, 0.10000200000000001
DataValue, 6.3500000000000005, 0.10003000000000001, 0.10003000000000001
DataValue, 6.4, 0.099994000000000013, 0.099994000000000013
DataValue, 6.45, 0.10000400000000001, 0.10000400000000001
DataValue, 6.5, 0.10000200000000001, 0.10000200000000001
DataValue, 6.55, 0.10000200000000001, 0.10000200000000001
DataValue, 6.6000000000000005, 0.10000600000000001, 0.10000600000000001
DataValue, 6.65, 0.10000200000000001, 0.10000200000000001
DataValue, 6.7, 0.10000200000000001, 0.10000200000000001
DataValue, 6.75, 0.10000400000000001, 0.10000400000000001
DataValue, 6.8, 0.10000200000000001, 0.10000200000000001
DataValue, 6.8500000000000005, 0.10000200000000001, 0.10000200000000001
DataValue, 6.9, 0.1, 0.1
DataValue, 6.95, 0.100014, 0.100014
DataValue, 7, 0.10000200000000001, 0.10000200000000001
DataValue, 7.05, 0.10000200000000001, 0.10000200000000001
DataValue, 7.1000000000000005, 0.099998, 0.099998
DataValue, 7.15, 0.100012, 0.100012
DataValue, 7.2, 0.10000200000000001, 0.10000200000000001
DataValue, 7.25, 0.10000200000000001, 0.10000200000000001
DataValue, 7.3, 0.10001600000000001, 0.10001600000000001
DataValue, 7.3500000000000005, 0.10000200000000001, 0.10000200000000001
DataValue, 7.4, 0.10000200000000001, 0.10000200000000001
DataValue, 7.45, 0.10000200000000001, 0.10000200000000001
DataValue, 7.5, 0.10000200000000001, 0.10000200000000001
DataValue, 7.55, 0.10000200000000001, 0.10000200000000001
DataValue, 7.6000000000000005, 0.10000200000000001, 0.10000200000000001
DataValue, 7.65, 0.10000400000000001, 0.10000400000000001
DataValue, 7.7, 0.10000400000000001, 0.10000400000000001
DataValue, 7.75, 0.099980000000000013, 0.099980000000000013
DataValue, 7.8, 0.10000200000000001, 0.10000200000000001
DataValue, 7.8500000000000005, 0.10000200000000001, 0.10000200000000001
DataValue, 7.9, 0.10000200000000001, 0.10000200000000001
DataValue, 7.95, 0.1, 0.1
DataValue, 8, 0.10000200000000001, 0.10000200000000001
DataValue, 8.05, 0.100012, 0.100012
DataValue, 8.1, 0.10002000000000001, 0.10002000000000001
DataValue, 8.15, 0.099998, 0.099998
DataValue, 8.2, 0.10000200000000001, 0.10000200000000001
DataValue, 8.25, 0.10000200000000001, 0.10000200000000001
DataValue, 8.3, 0.099996000000000015, 0.099996000000000015
DataValue, 8.35, 0.1, 0.1
DataValue, 8.4, 0.10000200000000001, 0.10000200000000001
DataValue, 8.45, 0.10000200000000001, 0.10000200000000001
DataValue, 8.5, 0.10000200000000001, 0.10000200000000001
DataValue, 8.55, 0.1, 0.1
DataValue, 8.6, 0.10000400000000001, 0.10000400000000001
DataValue, 8.65, 0.10000200000000001, 0.10000200000000001
DataValue, 8.7000000000000011, 0.10000600000000001, 0.10000600000000001
DataValue, 8.75, 0.10000200000000001, 0.10000200000000001
DataValue, 8.8, 0.10000400000000001, 0.10000400000000001
DataValue, 8.85, 0.10000400000000001, 0.10000400000000001
DataValue, 8.9, 0.10000200000000001, 0.10000200000000001
DataValue, 8.9500000000000011, 0.10000600000000001, 0.10000600000000001
DataValue, 9, 0.10000200000000001, 0.10000200000000001
DataValue, 9.05, 0.1, 0.1
DataValue, 9.1, 0.10000200000000001, 0.10000200000000001
DataValue, 9.15, 0.10000600000000001, 0.10000600000000001
DataValue, 9.2000000000000011, 0.10000400000000001, 0.10000400000000001
DataValue, 9.25, 0.1, 0.1
DataValue, 9.3, 0.10000200000000001, 0.10000200000000001
DataValue, 9.35, 0.10000200000000001, 0.10000200000000001
DataValue, 9.4, 0.10000200000000001, 0.10000200000000001
DataValue, 9.4500000000000011, 0.10000200000000001, 0.10000200000000001
DataValue, 9.5, 0.10000200000000001, 0.10000200000000001
DataValue, 9.55, 0.10000200000000001, 0.10000200000000001
DataValue, 9.6, 0.10000200000000001, 0.10000200000000001
DataValue, 9.65, 0.10000200000000001, 0.10000200000000001
DataValue, 9.7000000000000011, 0.10000200000000001, 0.10000200000000001
DataValue, 9.75, 0.10000200000000001, 0.10000200000000001
DataValue, 9.8, 0.1, 0.1
DataValue, 9.85, 0.1, 0.1
DataValue, 9.9, 0.10000200000000001, 0.10000200000000001
DataValue, 9.9500000000000011, 0.099994000000000013, 0.099994000000000013
DataValue, 10, 0.10000200000000001, 0.10000200000000001