
SetupTitle, Endurance Measure 1kHz After 60 000 Cycles(1)
ApplicationTest, WGFMU Pattern Editor, Public
TestParameter, Name, ExecutionMode, Enable1, Channel1, OperationMode1, VForceRange1, InitMeasRange1, Enable2, Channel2, OperationMode2, VForceRange2, InitMeasRange2, RepeatCount, WaveformCh1, WaveformCh2, MeasurementEvent, Output_to_File_for_PatternValidation, Output_Enable, Output_Filename, DataDisplay_for_RunVector, DataDisplay_PatternValidation, DataDisplay_Mode, LogToFile, LogFile, WarningLevel, IForceRange1, IForceRange2, Result_Update_Interval_s
TestParameter, Value, Run Vector, Enable, WGFMU1:RS	RSWGFMU, Fast IV Imeas, Auto, 10uA (Imeas), Enable, WGFMU2:RS	RSWGFMU, PG Vmeas, Auto, 5V (Vmeas), 1, , Disable, C:\WGFMUPatternEditor_Pattern.csv, , Disable, x(time)_y(meas), Disable, C:\WGFMUPatternEditor_Log.log, 2, 10mA, 10mA, 10
MetaData, TestRecord.EntryPoint, true
MetaData, TestRecord.RecordTime, 05/19/2021 11:18:34
MetaData, TestRecord.TestTarget, FlashIntC_1_25um_D1
MetaData, TestRecord.IterationIndex, 3
MetaData, TestRecord.Preservation, true
MetaData, TestRecord.Flag, 
MetaData, TestRecord.Remarks, 
MetaData, TestRecord.LinkKey, e9471afb-61ca-45d1-a899-b1819d8d8f69
MetaData, TestRecord.Parameters, 
Dimension1, 500, 500, 500, 500, 500
Dimension2, 1, 1, 1, 1, 1
DataName, Time, MeasResult1_value, MeasResult2_value, MeasResult1_time, MeasResult2_time
DataValue, 5E-06, -2.2501298200000002E-07, 0.028653427958488003, 5E-06, 5E-06
DataValue, 1.5E-05, -2.65102784E-07, 0.088378384709358007, 1.5E-05, 1.5E-05
DataValue, 2.5E-05, -2.9477334400000005E-07, 0.147978022694588, 2.5E-05, 2.5E-05
DataValue, 3.5000000000000004E-05, -3.31625841E-07, 0.20836266875267, 3.5000000000000004E-05, 3.5000000000000004E-05
DataValue, 4.5E-05, -3.5558940700000004E-07, 0.26847165822982805, 4.5E-05, 4.5E-05
DataValue, 5.5E-05, -3.81111363E-07, 0.32792699337005604, 5.5E-05, 5.5E-05
DataValue, 6.5000000000000008E-05, -4.17587415E-07, 0.38804513216018705, 6.5000000000000008E-05, 6.5000000000000008E-05
DataValue, 7.5000000000000007E-05, -4.29449329E-07, 0.44823688268661505, 7.5000000000000007E-05, 7.5000000000000007E-05
DataValue, 8.5E-05, -4.7252967800000006E-07, 0.50761085748672508, 8.5E-05, 8.5E-05
DataValue, 9.5E-05, -4.89520914E-07, 0.567557275295258, 9.5E-05, 9.5E-05
DataValue, 0.000105, -5.60606225E-07, 0.62830233573913608, 0.000105, 0.000105
DataValue, 0.000115, -5.85538601E-07, 0.687876999378204, 0.000115, 0.000115
DataValue, 0.000125, -6.54788607E-07, 0.74787020683288608, 0.000125, 0.000125
DataValue, 0.000135, -7.29425267E-07, 0.807896494865417, 0.000135, 0.000135
DataValue, 0.000145, -8.1984529700000007E-07, 0.86780977249145508, 0.000145, 0.000145
DataValue, 0.000155, -9.3527489800000007E-07, 0.92755091190338113, 0.000155, 0.000155
DataValue, 0.000165, -1.069652967E-06, 0.98747122287750211, 0.000165, 0.000165
DataValue, 0.000175, -1.2600114590000002E-06, 1.0479910373687742, 0.000175, 0.000175
DataValue, 0.00018500000000000002, -1.4890941880000002E-06, 1.1077413558959961, 0.00018500000000000002, 0.00018500000000000002
DataValue, 0.00019500000000000002, -1.8116554660000002E-06, 1.1676838397979741, 0.00019500000000000002, 0.00019500000000000002
DataValue, 0.00020500000000000002, -2.275615543E-06, 1.2281874418258671, 0.00020500000000000002, 0.00020500000000000002
DataValue, 0.00021500000000000002, -2.9718703440000003E-06, 1.2880395650863652, 0.00021500000000000002, 0.00021500000000000002
DataValue, 0.00022500000000000002, -4.090024959E-06, 1.3476349115371702, 0.00022500000000000002, 0.00022500000000000002
DataValue, 0.00023500000000000002, -5.6860058070000007E-06, 1.4073662757873542, 0.00023500000000000002, 0.00023500000000000002
DataValue, 0.000245, -7.4881186260000008E-06, 1.467528700828552, 0.000245, 0.000245
DataValue, 0.000255, -8.873435945E-06, 1.5273494720458982, 0.000255, 0.000255
DataValue, 0.000265, -9.340049473E-06, 1.5872648954391482, 0.000265, 0.000265
DataValue, 0.000275, -8.9884624690000014E-06, 1.6475480794906621, 0.000275, 0.000275
DataValue, 0.00028500000000000004, -7.9425381050000011E-06, 1.7073216438293462, 0.00028500000000000004, 0.00028500000000000004
DataValue, 0.000295, -6.6909224190000007E-06, 1.766997337341309, 0.000295, 0.000295
DataValue, 0.00030500000000000004, -5.681803032E-06, 1.8273481130599982, 0.00030500000000000004, 0.00030500000000000004
DataValue, 0.000315, -4.737450581E-06, 1.8876426219940192, 0.000315, 0.000315
DataValue, 0.00032500000000000004, -3.763291943E-06, 1.9473541975021362, 0.00032500000000000004, 0.00032500000000000004
DataValue, 0.000335, -2.7339008280000002E-06, 2.007172584533691, 0.000335, 0.000335
DataValue, 0.00034500000000000004, -1.915213943E-06, 2.067997932434082, 0.00034500000000000004, 0.00034500000000000004
DataValue, 0.000355, -1.3851458790000002E-06, 2.1273703575134282, 0.000355, 0.000355
DataValue, 0.00036500000000000004, -1.1362531040000002E-06, 2.1869461536407471, 0.00036500000000000004, 0.00036500000000000004
DataValue, 0.000375, -1.013652877E-06, 2.2470765113830571, 0.000375, 0.000375
DataValue, 0.00038500000000000003, -9.57204861E-07, 2.306797981262207, 0.00038500000000000003, 0.00038500000000000003
DataValue, 0.000395, -9.58653118E-07, 2.3666272163391113, 0.000395, 0.000395
DataValue, 0.00040500000000000003, -9.69630378E-07, 2.4267787933349614, 0.00040500000000000003, 0.00040500000000000003
DataValue, 0.000415, -9.92071364E-07, 2.4868283271789551, 0.000415, 0.000415
DataValue, 0.00042500000000000003, -1.056205292E-06, 2.5466058254241943, 0.00042500000000000003, 0.00042500000000000003
DataValue, 0.000435, -1.124372261E-06, 2.6064832210540771, 0.000435, 0.000435
DataValue, 0.00044500000000000003, -1.2192290340000002E-06, 2.66696310043335, 0.00044500000000000003, 0.00044500000000000003
DataValue, 0.00045500000000000006, -1.316890575E-06, 2.7267858982086182, 0.00045500000000000006, 0.00045500000000000006
DataValue, 0.000465, -1.4349517410000002E-06, 2.7864890098571782, 0.000465, 0.000465
DataValue, 0.00047500000000000005, -1.5948616010000001E-06, 2.8468074798583984, 0.00047500000000000005, 0.00047500000000000005
DataValue, 0.000485, -1.763640057E-06, 2.9068555831909184, 0.000485, 0.000485
DataValue, 0.000495, -1.92429502E-06, 2.9665439128875732, 0.000495, 0.000495
DataValue, 0.000505, -1.18802393E-06, 2.9665133953094482, 0.000505, 0.000505
DataValue, 0.000515, -8.2013974600000007E-07, 2.9066874980926514, 0.000515, 0.000515
DataValue, 0.00052500000000000008, -5.699290570000001E-07, 2.8466629981994633, 0.00052500000000000008, 0.00052500000000000008
DataValue, 0.000535, -3.92594046E-07, 2.7869846820831303, 0.000535, 0.000535
DataValue, 0.000545, -2.5507893E-07, 2.7273118495941162, 0.000545, 0.000545
DataValue, 0.000555, -1.1750071800000001E-07, 2.6673536300659184, 0.000555, 0.000555
DataValue, 0.00056500000000000007, -4.6428049E-08, 2.6068825721740723, 0.00056500000000000007, 0.00056500000000000007
DataValue, 0.000575, 4.270213E-08, 2.5467464923858643, 0.000575, 0.000575
DataValue, 0.000585, 9.801242100000001E-08, 2.4871060848236084, 0.000585, 0.000585
DataValue, 0.000595, 1.48360897E-07, 2.4273180961608891, 0.000595, 0.000595
DataValue, 0.00060500000000000007, 1.90539723E-07, 2.3672056198120122, 0.00060500000000000007, 0.00060500000000000007
DataValue, 0.000615, 2.3209044300000003E-07, 2.3075647354125981, 0.000615, 0.000615
DataValue, 0.000625, 2.48180896E-07, 2.2480778694152832, 0.000625, 0.000625
DataValue, 0.000635, 2.7570143900000005E-07, 2.1879360675811772, 0.000635, 0.000635
DataValue, 0.00064500000000000007, 3.0561668000000003E-07, 2.1281907558441162, 0.00064500000000000007, 0.00064500000000000007
DataValue, 0.00065500000000000009, 3.1494371900000003E-07, 2.0684783458709721, 0.00065500000000000009, 0.00065500000000000009
DataValue, 0.000665, 3.40095511E-07, 2.007946252822876, 0.000665, 0.000665
DataValue, 0.000675, 3.4973450600000004E-07, 1.9478431940078742, 0.000675, 0.000675
DataValue, 0.00068500000000000006, 3.5852949100000003E-07, 1.8881644010543821, 0.00068500000000000006, 0.00068500000000000006
DataValue, 0.00069500000000000009, 3.7911206600000004E-07, 1.82783567905426, 0.00069500000000000009, 0.00069500000000000009
DataValue, 0.000705, 3.8185373800000005E-07, 1.7677062749862671, 0.000705, 0.000705
DataValue, 0.000715, 3.8959578300000005E-07, 1.7083353996276862, 0.000715, 0.000715
DataValue, 0.00072500000000000006, 4.0413908700000004E-07, 1.6483943462371831, 0.00072500000000000006, 0.00072500000000000006
DataValue, 0.00073500000000000008, 4.25241808E-07, 1.5876932144165041, 0.00073500000000000008, 0.00073500000000000008
DataValue, 0.000745, 4.0497329200000004E-07, 1.5282928943634031, 0.000745, 0.000745
DataValue, 0.000755, 4.2953905700000004E-07, 1.4688266515731812, 0.000755, 0.000755
DataValue, 0.00076500000000000005, 4.3073640700000005E-07, 1.4087457656860352, 0.00076500000000000005, 0.00076500000000000005
DataValue, 0.00077500000000000008, 4.4789871400000003E-07, 1.348537802696228, 0.00077500000000000008, 0.00077500000000000008
DataValue, 0.000785, 4.4820996000000003E-07, 1.2884253263473511, 0.000785, 0.000785
DataValue, 0.000795, 4.5834457300000003E-07, 1.2286268472671511, 0.000795, 0.000795
DataValue, 0.000805, 4.53172447E-07, 1.1686462163925171, 0.000805, 0.000805
DataValue, 0.00081500000000000008, 4.72075385E-07, 1.108580946922302, 0.00081500000000000008, 0.00081500000000000008
DataValue, 0.0008250000000000001, 4.74731564E-07, 1.048628568649292, 0.0008250000000000001, 0.0008250000000000001
DataValue, 0.000835, 4.86808688E-07, 0.98829567432403609, 0.000835, 0.000835
DataValue, 0.000845, 4.9215532300000006E-07, 0.928368628025055, 0.000845, 0.000845
DataValue, 0.00085500000000000007, 4.9512067300000006E-07, 0.86851698160171509, 0.00085500000000000007, 0.00085500000000000007
DataValue, 0.0008650000000000001, 5.16526939E-07, 0.808440685272217, 0.0008650000000000001, 0.0008650000000000001
DataValue, 0.000875, 5.2568782400000009E-07, 0.74812507629394509, 0.000875, 0.000875
DataValue, 0.000885, 5.31609317E-07, 0.688406407833099, 0.000885, 0.000885
DataValue, 0.00089500000000000007, 5.47825266E-07, 0.628662109375, 0.00089500000000000007, 0.00089500000000000007
DataValue, 0.0009050000000000001, 5.76888056E-07, 0.568147599697113, 0.0009050000000000001, 0.0009050000000000001
DataValue, 0.000915, 5.95652182E-07, 0.50841557979583707, 0.000915, 0.000915
DataValue, 0.000925, 6.11686573E-07, 0.44885289669036904, 0.000925, 0.000925
DataValue, 0.00093500000000000007, 6.5209883400000008E-07, 0.388951599597931, 0.00093500000000000007, 0.00093500000000000007
DataValue, 0.00094500000000000009, 6.798836690000001E-07, 0.32857608795166005, 0.00094500000000000009, 0.00094500000000000009
DataValue, 0.000955, 7.31789783E-07, 0.269411563873291, 0.000955, 0.000955
DataValue, 0.000965, 7.9250912700000011E-07, 0.20924130082130402, 0.000965, 0.000965
DataValue, 0.00097500000000000006, 8.3266553500000011E-07, 0.148711279034615, 0.00097500000000000006, 0.00097500000000000006
DataValue, 0.000985, 9.103628140000001E-07, 0.089083127677441, 0.000985, 0.000985
DataValue, 0.000995, 9.9904787E-07, 0.029259249567986003, 0.000995, 0.000995
DataValue, 0.001005, 1.123945367E-06, -0.031000772491097003, 0.001005, 0.001005
DataValue, 0.001015, 1.259070018E-06, -0.091198839247227, 0.001015, 0.001015
DataValue, 0.001025, 1.439629727E-06, -0.150930136442184, 0.001025, 0.001025
DataValue, 0.0010350000000000001, 1.7449368670000002E-06, -0.21056638658046703, 0.0010350000000000001, 0.0010350000000000001
DataValue, 0.0010450000000000001, 2.132793725E-06, -0.27053177356720004, 0.0010450000000000001, 0.0010450000000000001
DataValue, 0.0010550000000000002, 2.5923941390000004E-06, -0.330285936594009, 0.0010550000000000002, 0.0010550000000000002
DataValue, 0.001065, 3.1012439190000002E-06, -0.39033228158950806, 0.001065, 0.001065
DataValue, 0.001075, 3.6082121820000004E-06, -0.45048144459724404, 0.001075, 0.001075
DataValue, 0.001085, 4.027298019E-06, -0.510273277759552, 0.001085, 0.001085
DataValue, 0.001095, 4.3686386560000004E-06, -0.570018291473389, 0.001095, 0.001095
DataValue, 0.001105, 4.57125725E-06, -0.630395174026489, 0.001105, 0.001105
DataValue, 0.001115, 4.647123205E-06, -0.690453827381134, 0.001115, 0.001115
DataValue, 0.0011250000000000001, 4.637973234E-06, -0.750146448612213, 0.0011250000000000001, 0.0011250000000000001
DataValue, 0.0011350000000000002, 4.6628774730000006E-06, -0.81016743183136009, 0.0011350000000000002, 0.0011350000000000002
DataValue, 0.001145, 4.62155549E-06, -0.87066084146499612, 0.001145, 0.001145
DataValue, 0.001155, 4.480154075E-06, -0.93049001693725608, 0.001155, 0.001155
DataValue, 0.001165, 4.3609557E-06, -0.990127980709076, 0.001165, 0.001165
DataValue, 0.001175, 4.2444635260000007E-06, -1.050864696502686, 0.001175, 0.001175
DataValue, 0.001185, 4.0060285760000006E-06, -1.110700845718384, 0.001185, 0.001185
DataValue, 0.001195, 3.7659958710000004E-06, -1.170490980148315, 0.001195, 0.001195
DataValue, 0.0012050000000000001, 3.5167749960000003E-06, -1.2305524349212651, 0.0012050000000000001, 0.0012050000000000001
DataValue, 0.0012150000000000002, 3.2269110760000003E-06, -1.2906497716903691, 0.0012150000000000002, 0.0012150000000000002
DataValue, 0.0012250000000000002, 2.92605273E-06, -1.350341320037842, 0.0012250000000000002, 0.0012250000000000002
DataValue, 0.001235, 2.6358670770000004E-06, -1.4103510379791262, 0.001235, 0.001235
DataValue, 0.001245, 2.357431413E-06, -1.4709546566009522, 0.001245, 0.001245
DataValue, 0.001255, 2.0656593730000003E-06, -1.5307697057724001, 0.001255, 0.001255
DataValue, 0.001265, 1.8178279790000002E-06, -1.5903000831604002, 0.001265, 0.001265
DataValue, 0.001275, 1.610091886E-06, -1.6507251262664802, 0.001275, 0.001275
DataValue, 0.0012850000000000001, 1.4027057200000001E-06, -1.7107067108154301, 0.0012850000000000001, 0.0012850000000000001
DataValue, 0.0012950000000000001, 1.2242489900000001E-06, -1.7705055475234992, 0.0012950000000000001, 0.0012950000000000001
DataValue, 0.0013050000000000002, 1.085505005E-06, -1.8305174112319951, 0.0013050000000000002, 0.0013050000000000002
DataValue, 0.001315, 9.5442521800000013E-07, -1.8905166387557981, 0.001315, 0.001315
DataValue, 0.001325, 8.6033401200000008E-07, -1.9503736495971682, 0.001325, 0.001325
DataValue, 0.001335, 7.77651792E-07, -2.010221004486084, 0.001335, 0.001335
DataValue, 0.001345, 7.17357921E-07, -2.070555686950684, 0.001345, 0.001345
DataValue, 0.001355, 6.7354716300000008E-07, -2.1306672096252441, 0.001355, 0.001355
DataValue, 0.0013650000000000001, 6.13745442E-07, -2.1903107166290283, 0.0013650000000000001, 0.0013650000000000001
DataValue, 0.0013750000000000001, 6.04099455E-07, -2.250168085098267, 0.0013750000000000001, 0.0013750000000000001
DataValue, 0.0013850000000000002, 5.79697712E-07, -2.3104069232940674, 0.0013850000000000002, 0.0013850000000000002
DataValue, 0.0013950000000000002, 5.5248352700000007E-07, -2.3702528476715092, 0.0013950000000000002, 0.0013950000000000002
DataValue, 0.001405, 5.3687819000000008E-07, -2.4297549724578862, 0.001405, 0.001405
DataValue, 0.001415, 5.51403275E-07, -2.4899659156799321, 0.001415, 0.001415
DataValue, 0.001425, 5.33733385E-07, -2.5497457981109624, 0.001425, 0.001425
DataValue, 0.001435, 5.1863980800000009E-07, -2.6093559265136723, 0.001435, 0.001435
DataValue, 0.001445, 5.14616659E-07, -2.6699919700622563, 0.001445, 0.001445
DataValue, 0.0014550000000000001, 5.21164168E-07, -2.7300882339477544, 0.0014550000000000001, 0.0014550000000000001
DataValue, 0.0014650000000000002, 5.23615597E-07, -2.789519309997559, 0.0014650000000000002, 0.0014650000000000002
DataValue, 0.0014750000000000002, 5.21854645E-07, -2.8494033813476562, 0.0014750000000000002, 0.0014750000000000002
DataValue, 0.001485, 4.85631688E-07, -2.909620046615601, 0.001485, 0.001485
DataValue, 0.001495, 4.9725457500000006E-07, -2.9693241119384775, 0.001495, 0.001495
DataValue, 0.001505, -4.692507E-08, -2.9694190025329594, 0.001505, 0.001505
DataValue, 0.001515, -1.7047732100000003E-07, -2.9100015163421631, 0.001515, 0.001515
DataValue, 0.001525, -2.1817385200000002E-07, -2.8498280048370361, 0.001525, 0.001525
DataValue, 0.0015350000000000001, -2.55250683E-07, -2.7900347709655762, 0.0015350000000000001, 0.0015350000000000001
DataValue, 0.0015450000000000002, -2.8081257100000005E-07, -2.73056173324585, 0.0015450000000000002, 0.0015450000000000002
DataValue, 0.0015550000000000002, -2.7270039000000004E-07, -2.6706037521362314, 0.0015550000000000002, 0.0015550000000000002
DataValue, 0.0015650000000000002, -2.96766331E-07, -2.610392808914185, 0.0015650000000000002, 0.0015650000000000002
DataValue, 0.001575, -3.04103878E-07, -2.5504424571990971, 0.001575, 0.001575
DataValue, 0.001585, -3.1080912800000003E-07, -2.4905612468719482, 0.001585, 0.001585
DataValue, 0.001595, -3.3084560900000003E-07, -2.43022084236145, 0.001595, 0.001595
DataValue, 0.001605, -3.17140007E-07, -2.37096095085144, 0.001605, 0.001605
DataValue, 0.0016150000000000001, -3.28971083E-07, -2.311123371124268, 0.0016150000000000001, 0.0016150000000000001
DataValue, 0.0016250000000000001, -3.4096618200000004E-07, -2.250799417495728, 0.0016250000000000001, 0.0016250000000000001
DataValue, 0.0016350000000000002, -3.4233036700000003E-07, -2.1909184455871582, 0.0016350000000000002, 0.0016350000000000002
DataValue, 0.0016450000000000002, -3.3269628800000004E-07, -2.13124942779541, 0.0016450000000000002, 0.0016450000000000002
DataValue, 0.001655, -3.34518234E-07, -2.071426153182983, 0.001655, 0.001655
DataValue, 0.001665, -3.46987946E-07, -2.011126041412354, 0.001665, 0.001665
DataValue, 0.001675, -3.4943519700000003E-07, -1.9512208700180052, 0.001675, 0.001675
DataValue, 0.001685, -3.3520873900000003E-07, -1.8914361000061042, 0.001685, 0.001685
DataValue, 0.0016950000000000001, -3.72901752E-07, -1.8313802480697632, 0.0016950000000000001, 0.0016950000000000001
DataValue, 0.0017050000000000001, -3.5135457200000005E-07, -1.7714465856552122, 0.0017050000000000001, 0.0017050000000000001
DataValue, 0.0017150000000000002, -3.68558233E-07, -1.7116382122039802, 0.0017150000000000002, 0.0017150000000000002
DataValue, 0.0017250000000000002, -3.6594275300000004E-07, -1.6517125368118291, 0.0017250000000000002, 0.0017250000000000002
DataValue, 0.0017350000000000002, -3.85607706E-07, -1.5914367437362671, 0.0017350000000000002, 0.0017350000000000002
DataValue, 0.001745, -3.7939528900000003E-07, -1.5317687988281252, 0.001745, 0.001745
DataValue, 0.001755, -3.7278607600000005E-07, -1.471953272819519, 0.001755, 0.001755
DataValue, 0.001765, -3.8653024600000005E-07, -1.4114940166473391, 0.001765, 0.001765
DataValue, 0.001775, -3.99047593E-07, -1.3514368534088141, 0.001775, 0.001775
DataValue, 0.0017850000000000001, -3.8682816200000003E-07, -1.2914552688598631, 0.0017850000000000001, 0.0017850000000000001
DataValue, 0.0017950000000000002, -4.0830244100000004E-07, -1.2312269210815432, 0.0017950000000000002, 0.0017950000000000002
DataValue, 0.0018050000000000002, -4.09443686E-07, -1.1712628602981572, 0.0018050000000000002, 0.0018050000000000002
DataValue, 0.0018150000000000002, -4.0622040800000004E-07, -1.1117899417877202, 0.0018150000000000002, 0.0018150000000000002
DataValue, 0.001825, -4.2508060000000005E-07, -1.051677465438843, 0.001825, 0.001825
DataValue, 0.001835, -4.4058288E-07, -0.991223812103271, 0.001835, 0.001835
DataValue, 0.001845, -4.2114578500000005E-07, -0.931559085845947, 0.001845, 0.001845
DataValue, 0.001855, -4.22541518E-07, -0.871783792972565, 0.001855, 0.001855
DataValue, 0.0018650000000000001, -4.2982367200000005E-07, -0.811367094516754, 0.0018650000000000001, 0.0018650000000000001
DataValue, 0.0018750000000000002, -4.3432280000000003E-07, -0.75131618976593006, 0.0018750000000000002, 0.0018750000000000002
