
SetupTitle, Endurance Measure 1kHz After 80 000 Cycles
ApplicationTest, WGFMU Pattern Editor, Public
TestParameter, Name, ExecutionMode, Enable1, Channel1, OperationMode1, VForceRange1, InitMeasRange1, Enable2, Channel2, OperationMode2, VForceRange2, InitMeasRange2, RepeatCount, WaveformCh1, WaveformCh2, MeasurementEvent, Output_to_File_for_PatternValidation, Output_Enable, Output_Filename, DataDisplay_for_RunVector, DataDisplay_PatternValidation, DataDisplay_Mode, LogToFile, LogFile, WarningLevel, IForceRange1, IForceRange2, Result_Update_Interval_s
TestParameter, Value, Run Vector, Enable, WGFMU1:RS	RSWGFMU, Fast IV Imeas, Auto, 10uA (Imeas), Enable, WGFMU2:RS	RSWGFMU, PG Vmeas, Auto, 5V (Vmeas), 1, , Disable, C:\WGFMUPatternEditor_Pattern.csv, , Disable, x(time)_y(meas), Disable, C:\WGFMUPatternEditor_Log.log, 2, 10mA, 10mA, 10
MetaData, TestRecord.EntryPoint, true
MetaData, TestRecord.RecordTime, 05/19/2021 16:20:13
MetaData, TestRecord.TestTarget, FlashIntC_5_25um_E10
MetaData, TestRecord.IterationIndex, 3
MetaData, TestRecord.Preservation, true
MetaData, TestRecord.Flag, 
MetaData, TestRecord.Remarks, 
MetaData, TestRecord.LinkKey, 926c24a6-6414-4634-b729-7f37f7a7a97b
MetaData, TestRecord.Parameters, 
Dimension1, 500, 500, 500, 500, 500
Dimension2, 1, 1, 1, 1, 1
DataName, Time, MeasResult1_value, MeasResult2_value, MeasResult1_time, MeasResult2_time
DataValue, 5E-06, -2.861909E-09, 0.029733769595623002, 5E-06, 5E-06
DataValue, 1.5E-05, -1.2678959E-08, 0.089859321713448, 1.5E-05, 1.5E-05
DataValue, 2.5E-05, -2.3260117000000002E-08, 0.149494513869286, 2.5E-05, 2.5E-05
DataValue, 3.5000000000000004E-05, -3.5159893E-08, 0.209787279367447, 3.5000000000000004E-05, 3.5000000000000004E-05
DataValue, 4.5E-05, -4.4887912E-08, 0.269880443811417, 4.5E-05, 4.5E-05
DataValue, 5.5E-05, -5.7684989E-08, 0.32924318313598605, 5.5E-05, 5.5E-05
DataValue, 6.5000000000000008E-05, -6.9479611E-08, 0.38920363783836404, 6.5000000000000008E-05, 6.5000000000000008E-05
DataValue, 7.5000000000000007E-05, -8.4441425E-08, 0.449484437704086, 7.5000000000000007E-05, 7.5000000000000007E-05
DataValue, 8.5E-05, -1.0016945900000001E-07, 0.50911682844162, 8.5E-05, 8.5E-05
DataValue, 9.5E-05, -1.1794656300000001E-07, 0.568975508213043, 9.5E-05, 9.5E-05
DataValue, 0.000105, -1.38067875E-07, 0.629563271999359, 0.000105, 0.000105
DataValue, 0.000115, -1.62454867E-07, 0.689210414886475, 0.000115, 0.000115
DataValue, 0.000125, -1.8828737300000003E-07, 0.74875271320343006, 0.000125, 0.000125
DataValue, 0.000135, -2.1886926000000002E-07, 0.80895501375198409, 0.000135, 0.000135
DataValue, 0.000145, -2.5572666100000004E-07, 0.86925762891769409, 0.000145, 0.000145
DataValue, 0.000155, -2.96920547E-07, 0.92886394262313809, 0.000155, 0.000155
DataValue, 0.000165, -3.470293E-07, 0.988765954971313, 0.000165, 0.000165
DataValue, 0.000175, -4.0424353600000004E-07, 1.0490119457244871, 0.000175, 0.000175
DataValue, 0.00018500000000000002, -4.6473155600000004E-07, 1.1089843511581421, 0.00018500000000000002, 0.00018500000000000002
DataValue, 0.00019500000000000002, -5.29377303E-07, 1.1689383983612061, 0.00019500000000000002, 0.00019500000000000002
DataValue, 0.00020500000000000002, -6.04273282E-07, 1.228906989097595, 0.00020500000000000002, 0.00020500000000000002
DataValue, 0.00021500000000000002, -6.8150160400000006E-07, 1.2889720201492312, 0.00021500000000000002, 0.00021500000000000002
DataValue, 0.00022500000000000002, -7.6183050600000008E-07, 1.3488750457763672, 0.00022500000000000002, 0.00022500000000000002
DataValue, 0.00023500000000000002, -8.4627367900000008E-07, 1.4089171886444092, 0.00023500000000000002, 0.00023500000000000002
DataValue, 0.000245, -9.298602210000001E-07, 1.4690465927124021, 0.000245, 0.000245
DataValue, 0.000255, -1.0111992880000001E-06, 1.5288183689117432, 0.000255, 0.000255
DataValue, 0.000265, -1.094265713E-06, 1.5885102748870852, 0.000265, 0.000265
DataValue, 0.000275, -1.1669969810000002E-06, 1.648833632469177, 0.000275, 0.000275
DataValue, 0.00028500000000000004, -1.2393924180000002E-06, 1.7089806795120242, 0.00028500000000000004, 0.00028500000000000004
DataValue, 0.000295, -1.297940003E-06, 1.7685630321502692, 0.000295, 0.000295
DataValue, 0.00030500000000000004, -1.3521749910000002E-06, 1.8287572860717771, 0.00030500000000000004, 0.00030500000000000004
DataValue, 0.000315, -1.384824827E-06, 1.8888902664184573, 0.000315, 0.000315
DataValue, 0.00032500000000000004, -1.408855724E-06, 1.9484655857086182, 0.00032500000000000004, 0.00032500000000000004
DataValue, 0.000335, -1.4296913380000002E-06, 2.0083591938018803, 0.000335, 0.000335
DataValue, 0.00034500000000000004, -1.4313317250000002E-06, 2.068629264831543, 0.00034500000000000004, 0.00034500000000000004
DataValue, 0.000355, -1.4316170790000002E-06, 2.1282427310943604, 0.000355, 0.000355
DataValue, 0.00036500000000000004, -1.4236310340000002E-06, 2.1879870891571054, 0.00036500000000000004, 0.00036500000000000004
DataValue, 0.000375, -1.402733687E-06, 2.248587846755981, 0.000375, 0.000375
DataValue, 0.00038500000000000003, -1.3623628090000002E-06, 2.3084874153137211, 0.00038500000000000003, 0.00038500000000000003
DataValue, 0.000395, -1.3112909300000002E-06, 2.3678522109985352, 0.000395, 0.000395
DataValue, 0.00040500000000000003, -1.24409064E-06, 2.4278583526611333, 0.00040500000000000003, 0.00040500000000000003
DataValue, 0.000415, -1.1762685970000002E-06, 2.4879484176635742, 0.000415, 0.000415
DataValue, 0.00042500000000000003, -1.126644293E-06, 2.5476920604705811, 0.00042500000000000003, 0.00042500000000000003
DataValue, 0.000435, -1.074478064E-06, 2.6076714992523193, 0.000435, 0.000435
DataValue, 0.00044500000000000003, -1.0368313500000002E-06, 2.6682970523834233, 0.00044500000000000003, 0.00044500000000000003
DataValue, 0.00045500000000000006, -1.0001190280000002E-06, 2.7280905246734624, 0.00045500000000000006, 0.00045500000000000006
DataValue, 0.000465, -9.71340796E-07, 2.7876200675964364, 0.000465, 0.000465
DataValue, 0.00047500000000000005, -9.60339776E-07, 2.848024845123291, 0.00047500000000000005, 0.00047500000000000005
DataValue, 0.000485, -9.4805864100000008E-07, 2.9078254699707031, 0.000485, 0.000485
DataValue, 0.000495, -9.4035164E-07, 2.9673941135406494, 0.000495, 0.000495
DataValue, 0.000505, -9.04019316E-07, 2.967727899551392, 0.000505, 0.000505
DataValue, 0.000515, -8.20683738E-07, 2.9082214832305913, 0.000515, 0.000515
DataValue, 0.00052500000000000008, -7.3408210700000009E-07, 2.8480393886566162, 0.00052500000000000008, 0.00052500000000000008
DataValue, 0.000535, -6.5850821300000007E-07, 2.7878446578979492, 0.000535, 0.000535
DataValue, 0.000545, -5.90119782E-07, 2.728459358215332, 0.000545, 0.000545
DataValue, 0.000555, -5.24067787E-07, 2.66860294342041, 0.000555, 0.000555
DataValue, 0.00056500000000000007, -4.7105683600000005E-07, 2.6080000400543213, 0.00056500000000000007, 0.00056500000000000007
DataValue, 0.000575, -4.21555882E-07, 2.5479831695556641, 0.000575, 0.000575
DataValue, 0.000585, -3.7472790400000004E-07, 2.4883058071136483, 0.000585, 0.000585
DataValue, 0.000595, -3.3287224700000004E-07, 2.4284219741821294, 0.000595, 0.000595
DataValue, 0.00060500000000000007, -2.9796507300000003E-07, 2.368341445922852, 0.00060500000000000007, 0.00060500000000000007
DataValue, 0.000615, -2.6541260900000003E-07, 2.3087401390075684, 0.000615, 0.000615
DataValue, 0.000625, -2.3412130200000002E-07, 2.2489631175994873, 0.000625, 0.000625
DataValue, 0.000635, -2.06735351E-07, 2.1886463165283203, 0.000635, 0.000635
DataValue, 0.00064500000000000007, -1.8324985300000003E-07, 2.128756999969482, 0.00064500000000000007, 0.00064500000000000007
DataValue, 0.00065500000000000009, -1.61038116E-07, 2.0692260265350342, 0.00065500000000000009, 0.00065500000000000009
DataValue, 0.000665, -1.38239614E-07, 2.0087687969207764, 0.000665, 0.000665
DataValue, 0.000675, -1.1878217500000001E-07, 1.9490063190460212, 0.000675, 0.000675
DataValue, 0.00068500000000000006, -9.9900966000000011E-08, 1.8894453048706061, 0.00068500000000000006, 0.00068500000000000006
DataValue, 0.00069500000000000009, -8.3874305000000008E-08, 1.8291652202606201, 0.00069500000000000009, 0.00069500000000000009
DataValue, 0.000705, -6.625703E-08, 1.7689819335937502, 0.000705, 0.000705
DataValue, 0.000715, -5.2131526E-08, 1.7095756530761721, 0.000715, 0.000715
DataValue, 0.00072500000000000006, -3.6662172E-08, 1.6496908664703371, 0.00072500000000000006, 0.00072500000000000006
DataValue, 0.00073500000000000008, -2.1782373000000003E-08, 1.5892698764801032, 0.00073500000000000008, 0.00073500000000000008
DataValue, 0.000745, -6.97548E-09, 1.529390811920166, 0.000745, 0.000745
DataValue, 0.000755, 7.0266450000000008E-09, 1.469706654548645, 0.000755, 0.000755
DataValue, 0.00076500000000000005, 1.9145837000000002E-08, 1.4094325304031372, 0.00076500000000000005, 0.00076500000000000005
DataValue, 0.00077500000000000008, 3.4413301000000005E-08, 1.3493545055389402, 0.00077500000000000008, 0.00077500000000000008
DataValue, 0.000785, 4.7051945E-08, 1.289397597312927, 0.000785, 0.000785
DataValue, 0.000795, 6.0991681E-08, 1.229344964027405, 0.000795, 0.000795
DataValue, 0.000805, 7.5331698E-08, 1.1692907810211182, 0.000805, 0.000805
DataValue, 0.00081500000000000008, 8.7988568E-08, 1.1096053123474121, 0.00081500000000000008, 0.00081500000000000008
DataValue, 0.0008250000000000001, 1.0217015500000001E-07, 1.0497919321060181, 0.0008250000000000001, 0.0008250000000000001
DataValue, 0.000835, 1.1445128200000001E-07, 0.9891721606254581, 0.000835, 0.000835
DataValue, 0.000845, 1.28587999E-07, 0.929381370544434, 0.000845, 0.000845
DataValue, 0.00085500000000000007, 1.41897516E-07, 0.86962157487869307, 0.00085500000000000007, 0.00085500000000000007
DataValue, 0.0008650000000000001, 1.5449481300000002E-07, 0.80957877635955811, 0.0008650000000000001, 0.0008650000000000001
DataValue, 0.000875, 1.66938577E-07, 0.749295175075531, 0.000875, 0.000875
DataValue, 0.000885, 1.78937881E-07, 0.68944489955902111, 0.000885, 0.000885
DataValue, 0.00089500000000000007, 1.94457016E-07, 0.629738569259644, 0.00089500000000000007, 0.00089500000000000007
DataValue, 0.0009050000000000001, 2.08877651E-07, 0.56924271583557107, 0.0009050000000000001, 0.0009050000000000001
DataValue, 0.000915, 2.23023477E-07, 0.50933963060379006, 0.000915, 0.000915
DataValue, 0.000925, 2.36858057E-07, 0.449918806552887, 0.000925, 0.000925
DataValue, 0.00093500000000000007, 2.5096673500000004E-07, 0.3897605240345, 0.00093500000000000007, 0.00093500000000000007
DataValue, 0.00094500000000000009, 2.6681885900000005E-07, 0.32966628670692405, 0.00094500000000000009, 0.00094500000000000009
DataValue, 0.000955, 2.7965379000000003E-07, 0.27019479870796204, 0.000955, 0.000955
DataValue, 0.000965, 2.9517082100000003E-07, 0.21022377908229803, 0.000965, 0.000965
DataValue, 0.00097500000000000006, 3.1145475500000004E-07, 0.14982259273529, 0.00097500000000000006, 0.00097500000000000006
DataValue, 0.000985, 3.2793215600000004E-07, 0.090210989117622, 0.000985, 0.000985
DataValue, 0.000995, 3.49697359E-07, 0.030166044831276002, 0.000995, 0.000995
DataValue, 0.001005, 3.6730412500000005E-07, -0.029907057061791004, 0.001005, 0.001005
DataValue, 0.001015, 3.8538266300000005E-07, -0.089964672923088, 0.001015, 0.001015
DataValue, 0.001025, 4.0277069500000003E-07, -0.149751588702202, 0.001025, 0.001025
DataValue, 0.0010350000000000001, 4.25027309E-07, -0.20970323681831402, 0.0010350000000000001, 0.0010350000000000001
DataValue, 0.0010450000000000001, 4.48664224E-07, -0.26986470818519603, 0.0010450000000000001, 0.0010450000000000001
DataValue, 0.0010550000000000002, 4.7409363900000005E-07, -0.32971003651619, 0.0010550000000000002, 0.0010550000000000002
DataValue, 0.001065, 5.0286479300000007E-07, -0.38966804742813105, 0.001065, 0.001065
DataValue, 0.001075, 5.33768457E-07, -0.44970875978469804, 0.001075, 0.001075
DataValue, 0.001085, 5.6857396700000006E-07, -0.50963085889816306, 0.001085, 0.001085
DataValue, 0.001095, 6.04752813E-07, -0.569345951080322, 0.001095, 0.001095
DataValue, 0.001105, 6.4435818100000005E-07, -0.629496157169342, 0.001105, 0.001105
DataValue, 0.001115, 6.877371560000001E-07, -0.689810395240784, 0.001115, 0.001115
DataValue, 0.0011250000000000001, 7.37360779E-07, -0.74952405691146806, 0.0011250000000000001, 0.0011250000000000001
DataValue, 0.0011350000000000002, 7.9193989700000009E-07, -0.80925041437149, 0.0011350000000000002, 0.0011350000000000002
DataValue, 0.001145, 8.440865140000001E-07, -0.86967658996582009, 0.001145, 0.001145
DataValue, 0.001155, 8.9916756000000007E-07, -0.92972755432128906, 0.001155, 0.001155
DataValue, 0.001165, 9.53997642E-07, -0.98929196596145608, 0.001165, 0.001165
DataValue, 0.001175, 1.0107338540000001E-06, -1.0498965978622441, 0.001175, 0.001175
DataValue, 0.001185, 1.0669939460000002E-06, -1.1100214719772341, 0.001185, 0.001185
DataValue, 0.001195, 1.128841291E-06, -1.1694704294204712, 0.001195, 0.001195
DataValue, 0.0012050000000000001, 1.177665013E-06, -1.2295273542404182, 0.0012050000000000001, 0.0012050000000000001
DataValue, 0.0012150000000000002, 1.2335234490000002E-06, -1.2897849082946782, 0.0012150000000000002, 0.0012150000000000002
DataValue, 0.0012250000000000002, 1.279206003E-06, -1.3494553565979002, 0.0012250000000000002, 0.0012250000000000002
DataValue, 0.001235, 1.322763069E-06, -1.4092482328414921, 0.001235, 0.001235
DataValue, 0.001245, 1.360498118E-06, -1.4697898626327521, 0.001245, 0.001245
DataValue, 0.001255, 1.391539854E-06, -1.5297671556472781, 0.001255, 0.001255
DataValue, 0.001265, 1.430363682E-06, -1.5894495248794562, 0.001265, 0.001265
DataValue, 0.001275, 1.468242431E-06, -1.6495814323425291, 0.001275, 0.001275
DataValue, 0.0012850000000000001, 1.4961499350000002E-06, -1.7094348669052122, 0.0012850000000000001, 0.0012850000000000001
DataValue, 0.0012950000000000001, 1.516005568E-06, -1.7691985368728642, 0.0012950000000000001, 0.0012950000000000001
DataValue, 0.0013050000000000002, 1.5404626770000002E-06, -1.8292906284332282, 0.0013050000000000002, 0.0013050000000000002
DataValue, 0.001315, 1.561052272E-06, -1.8894039392471311, 0.001315, 0.001315
DataValue, 0.001325, 1.5628742180000002E-06, -1.9496047496795652, 0.001325, 0.001325
DataValue, 0.001335, 1.5697827390000002E-06, -2.0091316699981689, 0.001335, 0.001335
DataValue, 0.001345, 1.5630431560000002E-06, -2.0692746639251713, 0.001345, 0.001345
DataValue, 0.001355, 1.542642053E-06, -2.129364967346191, 0.001355, 0.001355
DataValue, 0.0013650000000000001, 1.5134769460000002E-06, -2.1890971660614014, 0.0013650000000000001, 0.0013650000000000001
DataValue, 0.0013750000000000001, 1.4842746620000001E-06, -2.249092817306519, 0.0013750000000000001, 0.0013750000000000001
DataValue, 0.0013850000000000002, 1.448611783E-06, -2.3091986179351811, 0.0013850000000000002, 0.0013850000000000002
DataValue, 0.0013950000000000002, 1.4009559660000002E-06, -2.3691225051879883, 0.0013950000000000002, 0.0013950000000000002
DataValue, 0.001405, 1.3477886110000001E-06, -2.4288375377655034, 0.001405, 0.001405
DataValue, 0.001415, 1.2911548310000002E-06, -2.4890177249908452, 0.001415, 0.001415
DataValue, 0.001425, 1.2345042250000002E-06, -2.548963308334351, 0.001425, 0.001425
DataValue, 0.001435, 1.184967573E-06, -2.6085119247436523, 0.001435, 0.001435
DataValue, 0.001445, 1.1303477550000001E-06, -2.6687343120574951, 0.001445, 0.001445
DataValue, 0.0014550000000000001, 1.0999551710000002E-06, -2.7288835048675542, 0.0014550000000000001, 0.0014550000000000001
DataValue, 0.0014650000000000002, 1.077802949E-06, -2.7885425090789804, 0.0014650000000000002, 0.0014650000000000002
DataValue, 0.0014750000000000002, 1.078699597E-06, -2.8484375476837163, 0.0014750000000000002, 0.0014750000000000002
DataValue, 0.001485, 1.101056455E-06, -2.90844202041626, 0.001485, 0.001485
DataValue, 0.001495, 1.1588721240000001E-06, -2.9682996273040771, 0.001495, 0.001495
DataValue, 0.001505, 1.166547577E-06, -2.9683444499969482, 0.001505, 0.001505
DataValue, 0.001515, 1.055967005E-06, -2.9089467525482182, 0.001515, 0.001515
DataValue, 0.001525, 9.39613471E-07, -2.8486454486846924, 0.001525, 0.001525
DataValue, 0.0015350000000000001, 8.2670476300000008E-07, -2.7887477874755864, 0.0015350000000000001, 0.0015350000000000001
DataValue, 0.0015450000000000002, 7.2870460600000009E-07, -2.72918963432312, 0.0015450000000000002, 0.0015450000000000002
DataValue, 0.0015550000000000002, 6.4414996400000009E-07, -2.6692376136779794, 0.0015550000000000002, 0.0015550000000000002
DataValue, 0.0015650000000000002, 5.6768720900000006E-07, -2.6091001033782963, 0.0015650000000000002, 0.0015650000000000002
DataValue, 0.001575, 5.04820605E-07, -2.5495655536651611, 0.001575, 0.001575
DataValue, 0.001585, 4.4934489600000005E-07, -2.4892911911010742, 0.001585, 0.001585
DataValue, 0.001595, 3.9746680600000003E-07, -2.4291219711303711, 0.001595, 0.001595
DataValue, 0.001605, 3.5539173400000005E-07, -2.369826078414917, 0.001605, 0.001605
DataValue, 0.0016150000000000001, 3.1407586200000004E-07, -2.309782981872559, 0.0016150000000000001, 0.0016150000000000001
DataValue, 0.0016250000000000001, 2.77570365E-07, -2.2494673728942871, 0.0016250000000000001, 0.0016250000000000001
DataValue, 0.0016350000000000002, 2.44709469E-07, -2.1897776126861572, 0.0016350000000000002, 0.0016350000000000002
DataValue, 0.0016450000000000002, 2.1629441000000002E-07, -2.1299607753753662, 0.0016450000000000002, 0.0016450000000000002
DataValue, 0.001655, 1.8913489400000002E-07, -2.0702357292175293, 0.001655, 0.001655
DataValue, 0.001665, 1.6311031500000001E-07, -2.0097510814666752, 0.001665, 0.001665
DataValue, 0.001675, 1.4170684900000002E-07, -1.9499599933624272, 0.001675, 0.001675
DataValue, 0.001685, 1.2123432200000002E-07, -1.8903441429138181, 0.001685, 0.001685
DataValue, 0.0016950000000000001, 9.9824547000000007E-08, -1.8304843902587891, 0.0016950000000000001, 0.0016950000000000001
DataValue, 0.0017050000000000001, 8.326230700000001E-08, -1.770318388938904, 0.0017050000000000001, 0.0017050000000000001
DataValue, 0.0017150000000000002, 6.4475039000000009E-08, -1.7102445363998411, 0.0017150000000000002, 0.0017150000000000002
DataValue, 0.0017250000000000002, 4.7997617000000004E-08, -1.6503995656967161, 0.0017250000000000002, 0.0017250000000000002
DataValue, 0.0017350000000000002, 3.2819887000000006E-08, -1.5901176929473881, 0.0017350000000000002, 0.0017350000000000002
DataValue, 0.001745, 1.6410466000000002E-08, -1.5301516056060791, 0.001745, 0.001745
DataValue, 0.001755, 1.993339E-09, -1.4704618453979492, 0.001755, 0.001755
DataValue, 0.001765, -1.1656875000000001E-08, -1.4100638628005981, 0.001765, 0.001765
DataValue, 0.001775, -2.5599414000000003E-08, -1.3502948284149172, 0.001775, 0.001775
DataValue, 0.0017850000000000001, -4.1045634000000005E-08, -1.2907490730285651, 0.0017850000000000001, 0.0017850000000000001
DataValue, 0.0017950000000000002, -5.447643E-08, -1.2304461002349851, 0.0017950000000000002, 0.0017950000000000002
DataValue, 0.0018050000000000002, -6.8220579000000007E-08, -1.1700283288955691, 0.0018050000000000002, 0.0018050000000000002
DataValue, 0.0018150000000000002, -8.2692388E-08, -1.1104667186737061, 0.0018150000000000002, 0.0018150000000000002
DataValue, 0.001825, -9.7286176E-08, -1.050609827041626, 0.001825, 0.001825
DataValue, 0.001835, -1.1150911700000001E-07, -0.989930868148804, 0.001835, 0.001835
DataValue, 0.001845, -1.27329685E-07, -0.93043506145477306, 0.001845, 0.001845
DataValue, 0.001855, -1.4369003100000002E-07, -0.87061434984207109, 0.001855, 0.001855
DataValue, 0.0018650000000000001, -1.5970127300000002E-07, -0.81025928258895907, 0.0018650000000000001, 0.0018650000000000001
DataValue, 0.0018750000000000002, -1.7626281600000002E-07, -0.750106990337372, 0.0018750000000000002, 0.0018750000000000002
