
SetupTitle, Endurance Measure 1kHz After 70 000 Cycles(1)
ApplicationTest, WGFMU Pattern Editor, Public
TestParameter, Name, ExecutionMode, Enable1, Channel1, OperationMode1, VForceRange1, InitMeasRange1, Enable2, Channel2, OperationMode2, VForceRange2, InitMeasRange2, RepeatCount, WaveformCh1, WaveformCh2, MeasurementEvent, Output_to_File_for_PatternValidation, Output_Enable, Output_Filename, DataDisplay_for_RunVector, DataDisplay_PatternValidation, DataDisplay_Mode, LogToFile, LogFile, WarningLevel, IForceRange1, IForceRange2, Result_Update_Interval_s
TestParameter, Value, Run Vector, Enable, WGFMU1:RS	RSWGFMU, Fast IV Imeas, Auto, 10uA (Imeas), Enable, WGFMU2:RS	RSWGFMU, PG Vmeas, Auto, 5V (Vmeas), 1, , Disable, C:\WGFMUPatternEditor_Pattern.csv, , Disable, x(time)_y(meas), Disable, C:\WGFMUPatternEditor_Log.log, 2, 10mA, 10mA, 10
MetaData, TestRecord.EntryPoint, true
MetaData, TestRecord.RecordTime, 05/19/2021 11:19:19
MetaData, TestRecord.TestTarget, FlashIntC_1_25um_D1
MetaData, TestRecord.IterationIndex, 3
MetaData, TestRecord.Preservation, true
MetaData, TestRecord.Flag, 
MetaData, TestRecord.Remarks, 
MetaData, TestRecord.LinkKey, a4862602-bd87-4f33-b0d4-8390dc860268
MetaData, TestRecord.Parameters, 
Dimension1, 500, 500, 500, 500, 500
Dimension2, 1, 1, 1, 1, 1
DataName, Time, MeasResult1_value, MeasResult2_value, MeasResult1_time, MeasResult2_time
DataValue, 5E-06, -2.0873184800000002E-07, 0.028717847540975002, 5E-06, 5E-06
DataValue, 1.5E-05, -2.5295833000000004E-07, 0.088659293949604, 1.5E-05, 1.5E-05
DataValue, 2.5E-05, -3.5116460100000004E-07, 0.14826703071594202, 2.5E-05, 2.5E-05
DataValue, 3.5000000000000004E-05, -3.4016071000000003E-07, 0.20867209136486, 3.5000000000000004E-05, 3.5000000000000004E-05
DataValue, 4.5E-05, -3.30592542E-07, 0.268679022789001, 4.5E-05, 4.5E-05
DataValue, 5.5E-05, -4.0524881200000004E-07, 0.328326165676117, 5.5E-05, 5.5E-05
DataValue, 6.5000000000000008E-05, -4.25813852E-07, 0.38837006688118003, 6.5000000000000008E-05, 6.5000000000000008E-05
DataValue, 7.5000000000000007E-05, -3.7116322500000005E-07, 0.44857233762741106, 7.5000000000000007E-05, 7.5000000000000007E-05
DataValue, 8.5E-05, -4.82995176E-07, 0.507958650588989, 8.5E-05, 8.5E-05
DataValue, 9.5E-05, -5.0777890700000007E-07, 0.567759335041046, 9.5E-05, 9.5E-05
DataValue, 0.000105, -4.9726435200000006E-07, 0.62833333015441906, 0.000105, 0.000105
DataValue, 0.000115, -5.9137738600000009E-07, 0.688131511211395, 0.000115, 0.000115
DataValue, 0.000125, -6.64087622E-07, 0.74792861938476607, 0.000125, 0.000125
DataValue, 0.000135, -6.8539367200000006E-07, 0.80828440189361606, 0.000135, 0.000135
DataValue, 0.000145, -7.9342675E-07, 0.86836630105972312, 0.000145, 0.000145
DataValue, 0.000155, -9.4672179800000006E-07, 0.927872657775879, 0.000155, 0.000155
DataValue, 0.000165, -1.029901682E-06, 0.98787569999694813, 0.000165, 0.000165
DataValue, 0.000175, -1.202634621E-06, 1.0483623743057251, 0.000175, 0.000175
DataValue, 0.00018500000000000002, -1.4871754960000002E-06, 1.1081169843673711, 0.00018500000000000002, 0.00018500000000000002
DataValue, 0.00019500000000000002, -1.75118646E-06, 1.1678141355514531, 0.00019500000000000002, 0.00019500000000000002
DataValue, 0.00020500000000000002, -2.200649533E-06, 1.2279685735702521, 0.00020500000000000002, 0.00020500000000000002
DataValue, 0.00021500000000000002, -2.9622062810000004E-06, 1.288074374198914, 0.00021500000000000002, 0.00021500000000000002
DataValue, 0.00022500000000000002, -4.0443110270000007E-06, 1.3478144407272341, 0.00022500000000000002, 0.00022500000000000002
DataValue, 0.00023500000000000002, -5.5691293710000005E-06, 1.4077179431915281, 0.00023500000000000002, 0.00023500000000000002
DataValue, 0.000245, -7.381448995000001E-06, 1.4677963256835942, 0.000245, 0.000245
DataValue, 0.000255, -8.7773178170000012E-06, 1.5274729728698731, 0.000255, 0.000255
DataValue, 0.000265, -9.321526704E-06, 1.5872243642807011, 0.000265, 0.000265
DataValue, 0.000275, -8.9512450360000011E-06, 1.64792013168335, 0.000275, 0.000275
DataValue, 0.00028500000000000004, -7.9781621030000012E-06, 1.7078440189361572, 0.00028500000000000004, 0.00028500000000000004
DataValue, 0.000295, -6.764165846E-06, 1.7673345804214482, 0.000295, 0.000295
DataValue, 0.00030500000000000004, -5.775720638E-06, 1.8276878595352171, 0.00030500000000000004, 0.00030500000000000004
DataValue, 0.000315, -4.9256514100000007E-06, 1.8879989385604861, 0.000315, 0.000315
DataValue, 0.00032500000000000004, -3.8923649300000007E-06, 1.9474503993988042, 0.00032500000000000004, 0.00032500000000000004
DataValue, 0.000335, -2.8283811840000002E-06, 2.0074293613433842, 0.000335, 0.000335
DataValue, 0.00034500000000000004, -2.0375669010000003E-06, 2.06779932975769, 0.00034500000000000004, 0.00034500000000000004
DataValue, 0.000355, -1.4226320670000001E-06, 2.1276118755340581, 0.000355, 0.000355
DataValue, 0.00036500000000000004, -1.1460786030000001E-06, 2.187656164169312, 0.00036500000000000004, 0.00036500000000000004
DataValue, 0.000375, -1.069380914E-06, 2.2479903697967534, 0.000375, 0.000375
DataValue, 0.00038500000000000003, -1.011529434E-06, 2.307581901550293, 0.00038500000000000003, 0.00038500000000000003
DataValue, 0.000395, -9.58388796E-07, 2.3670890331268311, 0.000395, 0.000395
DataValue, 0.00040500000000000003, -1.029048576E-06, 2.4272561073303223, 0.00040500000000000003, 0.00040500000000000003
DataValue, 0.000415, -1.0800034720000001E-06, 2.4870674610137944, 0.000415, 0.000415
DataValue, 0.00042500000000000003, -1.076234071E-06, 2.5469841957092294, 0.00042500000000000003, 0.00042500000000000003
DataValue, 0.000435, -1.21113726E-06, 2.6070735454559331, 0.000435, 0.000435
DataValue, 0.00044500000000000003, -1.370554969E-06, 2.6673233509063721, 0.00044500000000000003, 0.00044500000000000003
DataValue, 0.00045500000000000006, -1.413758582E-06, 2.7270858287811284, 0.00045500000000000006, 0.00045500000000000006
DataValue, 0.000465, -1.6105399250000002E-06, 2.7868878841400151, 0.000465, 0.000465
DataValue, 0.00047500000000000005, -1.791750151E-06, 2.846970796585083, 0.00047500000000000005, 0.00047500000000000005
DataValue, 0.000485, -1.956944288E-06, 2.9068894386291504, 0.000485, 0.000485
DataValue, 0.000495, -2.1990615550000002E-06, 2.9665665626525883, 0.000495, 0.000495
DataValue, 0.000505, -1.537923595E-06, 2.9668843746185303, 0.000505, 0.000505
DataValue, 0.000515, -1.075901082E-06, 2.907425165176392, 0.000515, 0.000515
DataValue, 0.00052500000000000008, -7.4376458800000006E-07, 2.8473091125488281, 0.00052500000000000008, 0.00052500000000000008
DataValue, 0.000535, -5.79891207E-07, 2.786917924880981, 0.000535, 0.000535
DataValue, 0.000545, -4.09251612E-07, 2.7273612022399902, 0.000545, 0.000545
DataValue, 0.000555, -2.14703107E-07, 2.6676352024078374, 0.000555, 0.000555
DataValue, 0.00056500000000000007, -1.36173014E-07, 2.6073825359344482, 0.00056500000000000007, 0.00056500000000000007
DataValue, 0.000575, -7.0967872E-08, 2.5473470687866211, 0.000575, 0.000575
DataValue, 0.000585, 7.7889709000000008E-08, 2.4873921871185303, 0.000585, 0.000585
DataValue, 0.000595, 1.14621628E-07, 2.4276392459869394, 0.000595, 0.000595
DataValue, 0.00060500000000000007, 1.2039660600000002E-07, 2.3676972389221191, 0.00060500000000000007, 0.00060500000000000007
DataValue, 0.000615, 2.3056502100000002E-07, 2.307980060577393, 0.000615, 0.000615
DataValue, 0.000625, 2.68811135E-07, 2.24844765663147, 0.000625, 0.000625
DataValue, 0.000635, 2.1952961000000002E-07, 2.188090562820435, 0.000635, 0.000635
DataValue, 0.00064500000000000007, 2.9260579E-07, 2.1281449794769292, 0.00064500000000000007, 0.00064500000000000007
DataValue, 0.00065500000000000009, 3.4927603600000003E-07, 2.0683825016021733, 0.00065500000000000009, 0.00065500000000000009
DataValue, 0.000665, 2.8732921500000003E-07, 2.0079598426818852, 0.000665, 0.000665
DataValue, 0.000675, 3.6654771E-07, 1.9478938579559331, 0.000675, 0.000675
DataValue, 0.00068500000000000006, 3.94383022E-07, 1.8884629011154182, 0.00068500000000000006, 0.00068500000000000006
DataValue, 0.00069500000000000009, 3.35824922E-07, 1.8284400701522832, 0.00069500000000000009, 0.00069500000000000009
DataValue, 0.000705, 3.4962795300000003E-07, 1.7681958675384522, 0.000705, 0.000705
DataValue, 0.000715, 4.14148928E-07, 1.708483934402466, 0.000715, 0.000715
DataValue, 0.00072500000000000006, 3.6679378500000004E-07, 1.6486738920211792, 0.00072500000000000006, 0.00072500000000000006
DataValue, 0.00073500000000000008, 3.68793081E-07, 1.58830463886261, 0.00073500000000000008, 0.00073500000000000008
DataValue, 0.000745, 4.4013634700000006E-07, 1.5284895896911621, 0.000745, 0.000745
DataValue, 0.000755, 4.28045183E-07, 1.4688920974731452, 0.000755, 0.000755
DataValue, 0.00076500000000000005, 3.76910862E-07, 1.4087059497833252, 0.00076500000000000005, 0.00076500000000000005
DataValue, 0.00077500000000000008, 4.35333675E-07, 1.3484930992126472, 0.00077500000000000008, 0.00077500000000000008
DataValue, 0.000785, 4.52081679E-07, 1.2887431383132941, 0.000785, 0.000785
DataValue, 0.000795, 4.10354318E-07, 1.2288559675216682, 0.000795, 0.000795
DataValue, 0.000805, 4.7081215400000005E-07, 1.1689183712005622, 0.000805, 0.000805
DataValue, 0.00081500000000000008, 5.20660819E-07, 1.108803391456604, 0.00081500000000000008, 0.00081500000000000008
DataValue, 0.0008250000000000001, 4.37679262E-07, 1.04905903339386, 0.0008250000000000001, 0.0008250000000000001
DataValue, 0.000835, 4.7535056100000005E-07, 0.98872089385986306, 0.000835, 0.000835
DataValue, 0.000845, 5.224407E-07, 0.92854535579681408, 0.000845, 0.000845
DataValue, 0.00085500000000000007, 4.99183045E-07, 0.86869508028030407, 0.00085500000000000007, 0.00085500000000000007
DataValue, 0.0008650000000000001, 4.94446965E-07, 0.80884724855423007, 0.0008650000000000001, 0.0008650000000000001
DataValue, 0.000875, 5.98142208E-07, 0.74871611595153809, 0.000875, 0.000875
DataValue, 0.000885, 5.6354065200000006E-07, 0.688794374465942, 0.000885, 0.000885
DataValue, 0.00089500000000000007, 5.26264785E-07, 0.629011332988739, 0.00089500000000000007, 0.00089500000000000007
DataValue, 0.0009050000000000001, 6.03372484E-07, 0.56853234767913807, 0.0009050000000000001, 0.0009050000000000001
DataValue, 0.000915, 6.18048261E-07, 0.508613407611847, 0.000915, 0.000915
DataValue, 0.000925, 6.0074995600000008E-07, 0.44932460784912104, 0.000925, 0.000925
DataValue, 0.00093500000000000007, 6.91986031E-07, 0.388974130153656, 0.00093500000000000007, 0.00093500000000000007
DataValue, 0.00094500000000000009, 7.426696130000001E-07, 0.32902562618255604, 0.00094500000000000009, 0.00094500000000000009
DataValue, 0.000955, 6.9604351400000007E-07, 0.26943725347518904, 0.000955, 0.000955
DataValue, 0.000965, 7.70528743E-07, 0.20925502479076402, 0.000965, 0.000965
DataValue, 0.00097500000000000006, 8.666964390000001E-07, 0.14902667701244302, 0.00097500000000000006, 0.00097500000000000006
DataValue, 0.000985, 9.0223449000000009E-07, 0.089335873723030007, 0.000985, 0.000985
DataValue, 0.000995, 1.000580255E-06, 0.029453914612532002, 0.000995, 0.000995
DataValue, 0.001005, 1.1793565590000002E-06, -0.030725847929716003, 0.001005, 0.001005
DataValue, 0.001015, 1.2894275870000001E-06, -0.090546555817127, 0.001015, 0.001015
DataValue, 0.001025, 1.4761603780000002E-06, -0.15037289261817902, 0.001025, 0.001025
DataValue, 0.0010350000000000001, 1.8748053210000002E-06, -0.210416421294212, 0.0010350000000000001, 0.0010350000000000001
DataValue, 0.0010450000000000001, 2.278624379E-06, -0.27059125900268605, 0.0010450000000000001, 0.0010450000000000001
DataValue, 0.0010550000000000002, 2.768960258E-06, -0.33055031299591103, 0.0010550000000000002, 0.0010550000000000002
DataValue, 0.001065, 3.3756566610000004E-06, -0.390258371829987, 0.001065, 0.001065
DataValue, 0.001075, 3.9167207430000005E-06, -0.45020508766174305, 0.001075, 0.001075
DataValue, 0.001085, 4.2411511460000006E-06, -0.51029336452484109, 0.001085, 0.001085
DataValue, 0.001095, 4.5220735960000006E-06, -0.57005244493484508, 0.001095, 0.001095
DataValue, 0.001105, 4.735547918E-06, -0.630304038524628, 0.001105, 0.001105
DataValue, 0.001115, 4.708269898E-06, -0.69018101692199707, 0.001115, 0.001115
DataValue, 0.0011250000000000001, 4.6871391530000004E-06, -0.750096797943115, 0.0011250000000000001, 0.0011250000000000001
DataValue, 0.0011350000000000002, 4.676967365E-06, -0.81005305051803611, 0.0011350000000000002, 0.0011350000000000002
DataValue, 0.001145, 4.5142428460000005E-06, -0.87038415670394909, 0.001145, 0.001145
DataValue, 0.001155, 4.349034043E-06, -0.9304562211036681, 0.001155, 0.001155
DataValue, 0.001165, 4.2409646990000005E-06, -0.989889323711395, 0.001165, 0.001165
DataValue, 0.001175, 4.0711502150000004E-06, -1.050480961799622, 0.001175, 0.001175
DataValue, 0.001185, 3.8263588070000005E-06, -1.1105555295944212, 0.001185, 0.001185
DataValue, 0.001195, 3.6367912340000002E-06, -1.170267701148987, 0.001195, 0.001195
DataValue, 0.0012050000000000001, 3.368380021E-06, -1.230271100997925, 0.0012050000000000001, 0.0012050000000000001
DataValue, 0.0012150000000000002, 3.038628392E-06, -1.2902998924255371, 0.0012150000000000002, 0.0012150000000000002
DataValue, 0.0012250000000000002, 2.7652251900000003E-06, -1.350074887275696, 0.0012250000000000002, 0.0012250000000000002
DataValue, 0.001235, 2.50595599E-06, -1.4103133678436282, 0.001235, 0.001235
DataValue, 0.001245, 2.1937198650000002E-06, -1.471174001693726, 0.001245, 0.001245
DataValue, 0.001255, 1.9837104900000003E-06, -1.5308102369308472, 0.001255, 0.001255
DataValue, 0.001265, 1.729254336E-06, -1.5903440713882451, 0.001265, 0.001265
DataValue, 0.001275, 1.5097363080000001E-06, -1.6505656242370612, 0.001275, 0.001275
DataValue, 0.0012850000000000001, 1.3304469350000001E-06, -1.7105845212936401, 0.0012850000000000001, 0.0012850000000000001
DataValue, 0.0012950000000000001, 1.191735123E-06, -1.7703936100006101, 0.0012950000000000001, 0.0012950000000000001
DataValue, 0.0013050000000000002, 1.028489123E-06, -1.8303396701812742, 0.0013050000000000002, 0.0013050000000000002
DataValue, 0.001315, 8.92679623E-07, -1.8903117179870612, 0.001315, 0.001315
DataValue, 0.001325, 8.920585510000001E-07, -1.9502714872360232, 0.001325, 0.001325
DataValue, 0.001335, 7.2804215300000008E-07, -2.0098288059234624, 0.001335, 0.001335
DataValue, 0.001345, 6.7770560000000008E-07, -2.0703434944152832, 0.001345, 0.001345
DataValue, 0.001355, 6.7857837400000006E-07, -2.130346536636353, 0.001355, 0.001355
DataValue, 0.0013650000000000001, 6.34191338E-07, -2.1900062561035161, 0.0013650000000000001, 0.0013650000000000001
DataValue, 0.0013750000000000001, 4.1065433700000005E-07, -2.2499434947967534, 0.0013750000000000001, 0.0013750000000000001
DataValue, 0.0013850000000000002, 7.5224687600000008E-07, -2.310158491134644, 0.0013850000000000002, 0.0013850000000000002
DataValue, 0.0013950000000000002, 6.16541115E-07, -2.3697571754455571, 0.0013950000000000002, 0.0013950000000000002
DataValue, 0.001405, 4.97056135E-07, -2.4293010234832764, 0.001405, 0.001405
DataValue, 0.001415, 5.3474849400000009E-07, -2.4897336959838872, 0.001415, 0.001415
DataValue, 0.001425, 5.4137240100000006E-07, -2.5496823787689213, 0.001425, 0.001425
DataValue, 0.001435, 4.73771848E-07, -2.609205961227417, 0.001435, 0.001435
DataValue, 0.001445, 4.80534595E-07, -2.6696875095367432, 0.001445, 0.001445
DataValue, 0.0014550000000000001, 5.5278985700000008E-07, -2.7295737266540532, 0.0014550000000000001, 0.0014550000000000001
DataValue, 0.0014650000000000002, 4.8787001100000008E-07, -2.7889611721038823, 0.0014650000000000002, 0.0014650000000000002
DataValue, 0.0014750000000000002, 4.6848828100000005E-07, -2.8489143848419194, 0.0014750000000000002, 0.0014750000000000002
DataValue, 0.001485, 5.3485712200000006E-07, -2.9092268943786621, 0.001485, 0.001485
DataValue, 0.001495, 4.78609593E-07, -2.96904730796814, 0.001495, 0.001495
DataValue, 0.001505, -8.3744617E-08, -2.9691264629364014, 0.001505, 0.001505
DataValue, 0.001515, -1.07456536E-07, -2.9094099998474121, 0.001515, 0.001515
DataValue, 0.001525, -2.48462015E-07, -2.8492405414581303, 0.001525, 0.001525
DataValue, 0.0015350000000000001, -2.9199731E-07, -2.7894940376281743, 0.0015350000000000001, 0.0015350000000000001
DataValue, 0.0015450000000000002, -2.48952716E-07, -2.7297599315643311, 0.0015450000000000002, 0.0015450000000000002
DataValue, 0.0015550000000000002, -2.67334116E-07, -2.6697826385498051, 0.0015550000000000002, 0.0015550000000000002
DataValue, 0.0015650000000000002, -3.2179195800000003E-07, -2.6097168922424321, 0.0015650000000000002, 0.0015650000000000002
DataValue, 0.001575, -2.42596599E-07, -2.550167560577393, 0.001575, 0.001575
DataValue, 0.001585, -2.68255235E-07, -2.4902791976928711, 0.001585, 0.001585
DataValue, 0.001595, -3.3920733200000004E-07, -2.429983377456665, 0.001595, 0.001595
DataValue, 0.001605, -3.25146317E-07, -2.3705167770385742, 0.001605, 0.001605
DataValue, 0.0016150000000000001, -2.9568676E-07, -2.310703039169312, 0.0016150000000000001, 0.0016150000000000001
DataValue, 0.0016250000000000001, -3.6559154600000003E-07, -2.2504928112030034, 0.0016250000000000001, 0.0016250000000000001
DataValue, 0.0016350000000000002, -3.7886320600000003E-07, -2.1906800270080571, 0.0016350000000000002, 0.0016350000000000002
DataValue, 0.0016450000000000002, -2.7915467600000003E-07, -2.130945205688477, 0.0016450000000000002, 0.0016450000000000002
DataValue, 0.001655, -3.4727744900000003E-07, -2.0709958076477051, 0.001655, 0.001655
DataValue, 0.001665, -4.1132523200000003E-07, -2.0108993053436284, 0.001665, 0.001665
DataValue, 0.001675, -3.43728203E-07, -1.9511628150939941, 0.001675, 0.001675
DataValue, 0.001685, -3.4643622400000004E-07, -1.8915294408798222, 0.001685, 0.001685
DataValue, 0.0016950000000000001, -3.8289266500000004E-07, -1.8312718868255622, 0.0016950000000000001, 0.0016950000000000001
DataValue, 0.0017050000000000001, -3.11292126E-07, -1.7710435390472412, 0.0017050000000000001, 0.0017050000000000001
DataValue, 0.0017150000000000002, -3.3154171300000004E-07, -1.7112375497817991, 0.0017150000000000002, 0.0017150000000000002
DataValue, 0.0017250000000000002, -2.76006404E-07, -1.6513390541076662, 0.0017250000000000002, 0.0017250000000000002
DataValue, 0.0017350000000000002, -4.99491478E-07, -1.5907797813415532, 0.0017350000000000002, 0.0017350000000000002
DataValue, 0.001745, -3.19852234E-07, -1.5312520265579221, 0.001745, 0.001745
DataValue, 0.001755, -4.1938483300000005E-07, -1.4714717864990232, 0.001755, 0.001755
DataValue, 0.001765, -3.84265235E-07, -1.411168098449707, 0.001765, 0.001765
DataValue, 0.001775, -3.3800228000000005E-07, -1.3511621952056891, 0.001775, 0.001775
DataValue, 0.0017850000000000001, -4.16404106E-07, -1.2914203405380251, 0.0017850000000000001, 0.0017850000000000001
DataValue, 0.0017950000000000002, -4.40675421E-07, -1.2311980724334721, 0.0017950000000000002, 0.0017950000000000002
DataValue, 0.0018050000000000002, -3.78870908E-07, -1.171242833137512, 0.0018050000000000002, 0.0018050000000000002
DataValue, 0.0018150000000000002, -4.0078543900000006E-07, -1.11178719997406, 0.0018150000000000002, 0.0018150000000000002
DataValue, 0.001825, -4.4705117800000006E-07, -1.0516601800918581, 0.001825, 0.001825
DataValue, 0.001835, -3.70425767E-07, -0.990841209888458, 0.001835, 0.001835
DataValue, 0.001845, -4.1581594700000004E-07, -0.93107575178146407, 0.001845, 0.001845
DataValue, 0.001855, -4.7180131400000003E-07, -0.8712159991264341, 0.001855, 0.001855
DataValue, 0.0018650000000000001, -4.5149141700000003E-07, -0.81110310554504406, 0.0018650000000000001, 0.0018650000000000001
DataValue, 0.0018750000000000002, -4.0505602800000005E-07, -0.751231014728546, 0.0018750000000000002, 0.0018750000000000002
