
SetupTitle, Endurance Measure 1kHz After 100 000 Cycles(1)
ApplicationTest, WGFMU Pattern Editor, Public
TestParameter, Name, ExecutionMode, Enable1, Channel1, OperationMode1, VForceRange1, InitMeasRange1, Enable2, Channel2, OperationMode2, VForceRange2, InitMeasRange2, RepeatCount, WaveformCh1, WaveformCh2, MeasurementEvent, Output_to_File_for_PatternValidation, Output_Enable, Output_Filename, DataDisplay_for_RunVector, DataDisplay_PatternValidation, DataDisplay_Mode, LogToFile, LogFile, WarningLevel, IForceRange1, IForceRange2, Result_Update_Interval_s
TestParameter, Value, Run Vector, Enable, WGFMU1:RS	RSWGFMU, Fast IV Imeas, Auto, 10uA (Imeas), Enable, WGFMU2:RS	RSWGFMU, PG Vmeas, Auto, 5V (Vmeas), 1, , Disable, C:\WGFMUPatternEditor_Pattern.csv, , Disable, x(time)_y(meas), Disable, C:\WGFMUPatternEditor_Log.log, 2, 10mA, 10mA, 10
MetaData, TestRecord.EntryPoint, true
MetaData, TestRecord.RecordTime, 05/19/2021 15:14:41
MetaData, TestRecord.TestTarget, FlashIntC_5_25um_D9
MetaData, TestRecord.IterationIndex, 3
MetaData, TestRecord.Preservation, true
MetaData, TestRecord.Flag, 
MetaData, TestRecord.Remarks, 
MetaData, TestRecord.LinkKey, 5a80ed40-7557-455e-82b8-2f8b253666ab
MetaData, TestRecord.Parameters, 
Dimension1, 500, 500, 500, 500, 500
Dimension2, 1, 1, 1, 1, 1
DataName, Time, MeasResult1_value, MeasResult2_value, MeasResult1_time, MeasResult2_time
DataValue, 5E-06, -2.1653767100000003E-07, 0.024767514318228, 5E-06, 5E-06
DataValue, 1.5E-05, -2.44141631E-07, 0.074628956615925, 1.5E-05, 1.5E-05
DataValue, 2.5E-05, -2.80769115E-07, 0.12379974126815801, 2.5E-05, 2.5E-05
DataValue, 3.5000000000000004E-05, -3.2448457400000003E-07, 0.173673152923584, 3.5000000000000004E-05, 3.5000000000000004E-05
DataValue, 4.5E-05, -2.9281329700000003E-07, 0.22435514628887202, 4.5E-05, 4.5E-05
DataValue, 5.5E-05, -3.5323469700000004E-07, 0.274068027734757, 5.5E-05, 5.5E-05
DataValue, 6.5000000000000008E-05, -3.6552984300000003E-07, 0.32377812266349804, 6.5000000000000008E-05, 6.5000000000000008E-05
DataValue, 7.5000000000000007E-05, -3.9851133200000005E-07, 0.37388244271278404, 7.5000000000000007E-05, 7.5000000000000007E-05
DataValue, 8.5E-05, -4.5033053200000006E-07, 0.42440250515937805, 8.5E-05, 8.5E-05
DataValue, 9.5E-05, -4.8466427000000008E-07, 0.473916500806808, 9.5E-05, 9.5E-05
DataValue, 0.000105, -5.3995421500000006E-07, 0.523319959640503, 0.000105, 0.000105
DataValue, 0.000115, -6.1299044800000008E-07, 0.57324022054672208, 0.000115, 0.000115
DataValue, 0.000125, -6.97543669E-07, 0.623923242092133, 0.000125, 0.000125
DataValue, 0.000135, -8.1176887100000006E-07, 0.673691749572754, 0.000135, 0.000135
DataValue, 0.000145, -9.2601726500000006E-07, 0.723168134689331, 0.000145, 0.000145
DataValue, 0.000155, -1.104741727E-06, 0.773015439510345, 0.000155, 0.000155
DataValue, 0.000165, -1.3241209440000001E-06, 0.82347536087036111, 0.000165, 0.000165
DataValue, 0.000175, -1.6124823790000002E-06, 0.87343603372573808, 0.000175, 0.000175
DataValue, 0.00018500000000000002, -1.9751032600000003E-06, 0.92305743694305409, 0.00018500000000000002, 0.00018500000000000002
DataValue, 0.00019500000000000002, -2.499616585E-06, 0.973199427127838, 0.00019500000000000002, 0.00019500000000000002
DataValue, 0.00020500000000000002, -3.149906433E-06, 1.0234473943710332, 0.00020500000000000002, 0.00020500000000000002
DataValue, 0.00021500000000000002, -3.8850994310000005E-06, 1.073388338088989, 0.00021500000000000002, 0.00021500000000000002
DataValue, 0.00022500000000000002, -4.5419642450000005E-06, 1.1231590509414671, 0.00022500000000000002, 0.00022500000000000002
DataValue, 0.00023500000000000002, -5.0101875790000007E-06, 1.17318868637085, 0.00023500000000000002, 0.00023500000000000002
DataValue, 0.000245, -5.08470157E-06, 1.22326385974884, 0.000245, 0.000245
DataValue, 0.000255, -4.809299753E-06, 1.2732974290847781, 0.000255, 0.000255
DataValue, 0.000265, -4.3942823140000004E-06, 1.3233679533004761, 0.000265, 0.000265
DataValue, 0.000275, -3.962012215E-06, 1.3733624219894411, 0.000275, 0.000275
DataValue, 0.00028500000000000004, -3.5427503920000002E-06, 1.423505544662476, 0.00028500000000000004, 0.00028500000000000004
DataValue, 0.000295, -3.1309361930000003E-06, 1.4735200405120852, 0.000295, 0.000295
DataValue, 0.00030500000000000004, -2.789312248E-06, 1.5232156515121462, 0.00030500000000000004, 0.00030500000000000004
DataValue, 0.000315, -2.517902658E-06, 1.5729652643203742, 0.000315, 0.000315
DataValue, 0.00032500000000000004, -2.297384299E-06, 1.6231565475463872, 0.00032500000000000004, 0.00032500000000000004
DataValue, 0.000335, -2.10105236E-06, 1.673347115516663, 0.000335, 0.000335
DataValue, 0.00034500000000000004, -1.935507044E-06, 1.7230757474899292, 0.00034500000000000004, 0.00034500000000000004
DataValue, 0.000355, -1.749945682E-06, 1.7727295160293581, 0.000355, 0.000355
DataValue, 0.00036500000000000004, -1.5255029670000001E-06, 1.8228609561920171, 0.00036500000000000004, 0.00036500000000000004
DataValue, 0.000375, -1.268842198E-06, 1.8734359741210942, 0.000375, 0.000375
DataValue, 0.00038500000000000003, -1.025324082E-06, 1.9232238531112671, 0.00038500000000000003, 0.00038500000000000003
DataValue, 0.000395, -8.9979289400000011E-07, 1.9728392362594602, 0.000395, 0.000395
DataValue, 0.00040500000000000003, -8.2716673000000012E-07, 2.02299427986145, 0.00040500000000000003, 0.00040500000000000003
DataValue, 0.000415, -8.04672482E-07, 2.0733945369720463, 0.000415, 0.000415
DataValue, 0.00042500000000000003, -7.8858482800000008E-07, 2.122838973999023, 0.00042500000000000003, 0.00042500000000000003
DataValue, 0.000435, -7.92694891E-07, 2.1726071834564213, 0.000435, 0.000435
DataValue, 0.00044500000000000003, -7.5425742800000007E-07, 2.223029613494873, 0.00044500000000000003, 0.00044500000000000003
DataValue, 0.00045500000000000006, -7.97996734E-07, 2.2732803821563721, 0.00045500000000000006, 0.00045500000000000006
DataValue, 0.000465, -8.39533413E-07, 2.322598934173584, 0.000465, 0.000465
DataValue, 0.00047500000000000005, -8.7694041900000011E-07, 2.3724236488342294, 0.00047500000000000005, 0.00047500000000000005
DataValue, 0.000485, -9.40512905E-07, 2.4224040508270264, 0.000485, 0.000485
DataValue, 0.000495, -9.95205596E-07, 2.4726333618164062, 0.000495, 0.000495
DataValue, 0.000505, -3.8404581900000003E-07, 2.473034143447876, 0.000505, 0.000505
DataValue, 0.000515, -2.1475358400000002E-07, 2.4227933883666992, 0.000515, 0.000515
DataValue, 0.00052500000000000008, -1.2656066400000002E-07, 2.3725583553314213, 0.00052500000000000008, 0.00052500000000000008
DataValue, 0.000535, -7.5042180000000009E-08, 2.323156595230103, 0.000535, 0.000535
DataValue, 0.000545, -1.759909E-09, 2.273629903793335, 0.000545, 0.000545
DataValue, 0.000555, 2.0885063E-08, 2.2235255241394043, 0.000555, 0.000555
DataValue, 0.00056500000000000007, 8.0265458E-08, 2.17341423034668, 0.00056500000000000007, 0.00056500000000000007
DataValue, 0.000575, 9.1867996000000011E-08, 2.1236379146575932, 0.000575, 0.000575
DataValue, 0.000585, 1.3137034200000001E-07, 2.0739700794219971, 0.000585, 0.000585
DataValue, 0.000595, 1.6777909200000003E-07, 2.0231502056121831, 0.000595, 0.000595
DataValue, 0.00060500000000000007, 1.8912156500000003E-07, 1.97330915927887, 0.00060500000000000007, 0.00060500000000000007
DataValue, 0.000615, 2.06357484E-07, 1.9235301017761231, 0.000615, 0.000615
DataValue, 0.000625, 2.4901581200000004E-07, 1.8737517595291142, 0.000625, 0.000625
DataValue, 0.000635, 2.2425727800000002E-07, 1.8235474824905402, 0.000635, 0.000635
DataValue, 0.00064500000000000007, 3.0066257800000003E-07, 1.7736444473266602, 0.00064500000000000007, 0.00064500000000000007
DataValue, 0.00065500000000000009, 2.94746002E-07, 1.7239931821823122, 0.00065500000000000009, 0.00065500000000000009
DataValue, 0.000665, 3.05132971E-07, 1.674329519271851, 0.000665, 0.000665
DataValue, 0.000675, 3.26904484E-07, 1.6239390373229981, 0.000675, 0.000675
DataValue, 0.00068500000000000006, 3.13982611E-07, 1.5739301443099982, 0.00068500000000000006, 0.00068500000000000006
DataValue, 0.00069500000000000009, 3.32711693E-07, 1.5240820646286011, 0.00069500000000000009, 0.00069500000000000009
DataValue, 0.000705, 3.42865945E-07, 1.4744367599487311, 0.000705, 0.000705
DataValue, 0.000715, 3.39080458E-07, 1.4243460893630981, 0.000715, 0.000715
DataValue, 0.00072500000000000006, 3.4465142600000004E-07, 1.3741858005523682, 0.00072500000000000006, 0.00072500000000000006
DataValue, 0.00073500000000000008, 3.42107427E-07, 1.324154376983643, 0.00073500000000000008, 0.00073500000000000008
DataValue, 0.000745, 3.66690017E-07, 1.2745276689529421, 0.000745, 0.000745
DataValue, 0.000755, 3.4868858700000004E-07, 1.2243965864181521, 0.000755, 0.000755
DataValue, 0.00076500000000000005, 3.6801284900000004E-07, 1.1740701198577881, 0.00076500000000000005, 0.00076500000000000005
DataValue, 0.00077500000000000008, 3.55222767E-07, 1.124380826950073, 0.00077500000000000008, 0.00077500000000000008
DataValue, 0.000785, 3.79075601E-07, 1.0744990110397341, 0.000785, 0.000785
DataValue, 0.000795, 3.71000567E-07, 1.0242331027984621, 0.000795, 0.000795
DataValue, 0.000805, 3.94404054E-07, 0.97383373975753806, 0.000805, 0.000805
DataValue, 0.00081500000000000008, 3.7594765000000003E-07, 0.92385298013687112, 0.00081500000000000008, 0.00081500000000000008
DataValue, 0.0008250000000000001, 4.04760186E-07, 0.87425166368484508, 0.0008250000000000001, 0.0008250000000000001
DataValue, 0.000835, 4.1487797400000003E-07, 0.82417267560958907, 0.000835, 0.000835
DataValue, 0.000845, 4.39290204E-07, 0.77363222837448109, 0.000845, 0.000845
DataValue, 0.00085500000000000007, 4.2100066400000005E-07, 0.72355991601944, 0.00085500000000000007, 0.00085500000000000007
DataValue, 0.0008650000000000001, 4.4837960900000006E-07, 0.674268364906311, 0.0008650000000000001, 0.0008650000000000001
DataValue, 0.000875, 4.69389789E-07, 0.62448507547378507, 0.000875, 0.000875
DataValue, 0.000885, 4.7165059400000006E-07, 0.573905169963837, 0.000885, 0.000885
DataValue, 0.00089500000000000007, 4.92524805E-07, 0.52375471591949507, 0.00089500000000000007, 0.00089500000000000007
DataValue, 0.0009050000000000001, 5.05313437E-07, 0.47430971264839206, 0.0009050000000000001, 0.0009050000000000001
DataValue, 0.000915, 5.1414275500000006E-07, 0.42477598786354104, 0.000915, 0.000915
DataValue, 0.000925, 5.52730967E-07, 0.374455869197845, 0.000925, 0.000925
DataValue, 0.00093500000000000007, 5.5105346100000006E-07, 0.32423046231269803, 0.00093500000000000007, 0.00093500000000000007
DataValue, 0.00094500000000000009, 5.98027952E-07, 0.274728775024414, 0.00094500000000000009, 0.00094500000000000009
DataValue, 0.000955, 6.0173420000000007E-07, 0.22506305575370803, 0.000955, 0.000955
DataValue, 0.000965, 6.4312371300000008E-07, 0.17437119781971, 0.000965, 0.000965
DataValue, 0.00097500000000000006, 6.5909284800000007E-07, 0.12451363354921301, 0.00097500000000000006, 0.00097500000000000006
DataValue, 0.000985, 6.928104310000001E-07, 0.074928872287273, 0.000985, 0.000985
DataValue, 0.000995, 7.30906493E-07, 0.025036102160811, 0.000995, 0.000995
DataValue, 0.001005, 7.89687533E-07, -0.025528317317367002, 0.001005, 0.001005
DataValue, 0.001015, 8.4774791300000011E-07, -0.075398914515972013, 0.001015, 0.001015
DataValue, 0.001025, 9.05397485E-07, -0.12530189752578702, 0.001025, 0.001025
DataValue, 0.0010350000000000001, 9.9696512700000018E-07, -0.175135523080826, 0.0010350000000000001, 0.0010350000000000001
DataValue, 0.0010450000000000001, 1.1596860080000002E-06, -0.22510397434234603, 0.0010450000000000001, 0.0010450000000000001
DataValue, 0.0010550000000000002, 1.2721657190000001E-06, -0.27514424920082103, 0.0010550000000000002, 0.0010550000000000002
DataValue, 0.001065, 1.413138193E-06, -0.32522040605545005, 0.001065, 0.001065
DataValue, 0.001075, 1.581761012E-06, -0.375207543373108, 0.001075, 0.001075
DataValue, 0.001085, 1.7679323040000001E-06, -0.42521682381629905, 0.001085, 0.001085
DataValue, 0.001095, 1.937145953E-06, -0.47511452436447105, 0.001095, 0.001095
DataValue, 0.001105, 2.086435416E-06, -0.524990379810333, 0.001105, 0.001105
DataValue, 0.001115, 2.2063802590000002E-06, -0.57458221912384, 0.001115, 0.001115
DataValue, 0.0011250000000000001, 2.3780187350000002E-06, -0.62485903501510609, 0.0011250000000000001, 0.0011250000000000001
DataValue, 0.0011350000000000002, 2.4535884220000002E-06, -0.67503339052200306, 0.0011350000000000002, 0.0011350000000000002
DataValue, 0.001145, 2.5589752110000004E-06, -0.72490119934082009, 0.001145, 0.001145
DataValue, 0.001155, 2.595427532E-06, -0.77483093738555908, 0.001155, 0.001155
DataValue, 0.001165, 2.672892833E-06, -0.825011312961578, 0.001165, 0.001165
DataValue, 0.001175, 2.7140754360000002E-06, -0.87506175041198708, 0.001175, 0.001175
DataValue, 0.001185, 2.74876038E-06, -0.92505800724029508, 0.001185, 0.001185
DataValue, 0.001195, 2.8063805080000004E-06, -0.97467690706253007, 0.001195, 0.001195
DataValue, 0.0012050000000000001, 2.872954838E-06, -1.0249481201171882, 0.0012050000000000001, 0.0012050000000000001
DataValue, 0.0012150000000000002, 2.8941576600000003E-06, -1.0753717422485352, 0.0012150000000000002, 0.0012150000000000002
DataValue, 0.0012250000000000002, 2.92220534E-06, -1.1252627372741701, 0.0012250000000000002, 0.0012250000000000002
DataValue, 0.001235, 2.90587036E-06, -1.1747140884399412, 0.001235, 0.001235
DataValue, 0.001245, 2.922815383E-06, -1.224911689758301, 0.001245, 0.001245
DataValue, 0.001255, 2.828393235E-06, -1.2751303911209111, 0.001255, 0.001255
DataValue, 0.001265, 2.6800059910000004E-06, -1.3249521255493162, 0.001265, 0.001265
DataValue, 0.001275, 2.5299602840000003E-06, -1.3744577169418342, 0.001275, 0.001275
DataValue, 0.0012850000000000001, 2.3333689110000004E-06, -1.4247351884841921, 0.0012850000000000001, 0.0012850000000000001
DataValue, 0.0012950000000000001, 2.10892631E-06, -1.4753457307815552, 0.0012950000000000001, 0.0012950000000000001
DataValue, 0.0013050000000000002, 1.878662943E-06, -1.5252240896224982, 0.0013050000000000002, 0.0013050000000000002
DataValue, 0.001315, 1.661894316E-06, -1.574828147888184, 0.001315, 0.001315
DataValue, 0.001325, 1.471201358E-06, -1.6249409914016721, 0.001325, 0.001325
DataValue, 0.001335, 1.279892331E-06, -1.6751857995986941, 0.001335, 0.001335
DataValue, 0.001345, 1.2014154440000002E-06, -1.7246782779693601, 0.001345, 0.001345
DataValue, 0.001355, 1.059021997E-06, -1.7746231555938721, 0.001355, 0.001355
DataValue, 0.0013650000000000001, 9.85681481E-07, -1.8250224590301512, 0.0013650000000000001, 0.0013650000000000001
DataValue, 0.0013750000000000001, 8.7541849300000008E-07, -1.8750922679901121, 0.0013750000000000001, 0.0013750000000000001
DataValue, 0.0013850000000000002, 8.2897258800000011E-07, -1.9248410463333132, 0.0013850000000000002, 0.0013850000000000002
DataValue, 0.0013950000000000002, 7.6291638600000008E-07, -1.9747318029403691, 0.0013950000000000002, 0.0013950000000000002
DataValue, 0.001405, 7.338395560000001E-07, -2.0244956016540532, 0.001405, 0.001405
DataValue, 0.001415, 6.63620028E-07, -2.074820756912231, 0.001415, 0.001415
DataValue, 0.001425, 6.33978232E-07, -2.124883651733398, 0.001425, 0.001425
DataValue, 0.001435, 5.8929111900000009E-07, -2.174709796905518, 0.001435, 0.001435
DataValue, 0.001445, 5.79012124E-07, -2.2242434024810791, 0.001445, 0.001445
DataValue, 0.0014550000000000001, 5.3620380000000007E-07, -2.2747311592102051, 0.0014550000000000001, 0.0014550000000000001
DataValue, 0.0014650000000000002, 5.2102183200000007E-07, -2.3246340751647954, 0.0014650000000000002, 0.0014650000000000002
DataValue, 0.0014750000000000002, 5.1688164100000008E-07, -2.374241828918457, 0.0014750000000000002, 0.0014750000000000002
DataValue, 0.001485, 5.11721453E-07, -2.4237296581268311, 0.001485, 0.001485
DataValue, 0.001495, 4.8780833600000008E-07, -2.4742822647094731, 0.001495, 0.001495
DataValue, 0.001505, -6.5695517E-08, -2.4743549823760991, 0.001505, 0.001505
DataValue, 0.001515, -1.8151273200000003E-07, -2.4240570068359384, 0.001515, 0.001515
DataValue, 0.001525, -1.87899701E-07, -2.374801874160767, 0.001525, 0.001525
DataValue, 0.0015350000000000001, -2.32220842E-07, -2.3251791000366211, 0.0015350000000000001, 0.0015350000000000001
DataValue, 0.0015450000000000002, -2.3383037700000001E-07, -2.2749381065368652, 0.0015450000000000002, 0.0015450000000000002
DataValue, 0.0015550000000000002, -2.8248871300000003E-07, -2.2244284152984624, 0.0015550000000000002, 0.0015550000000000002
DataValue, 0.0015650000000000002, -2.8143367100000003E-07, -2.1750931739807133, 0.0015650000000000002, 0.0015650000000000002
DataValue, 0.001575, -2.8223843200000005E-07, -2.1251940727233891, 0.001575, 0.001575
DataValue, 0.001585, -2.79814316E-07, -2.0753860473632812, 0.001585, 0.001585
DataValue, 0.001595, -3.08478235E-07, -2.0251824855804443, 0.001595, 0.001595
DataValue, 0.001605, -3.0292196100000003E-07, -1.9751693010330202, 0.001605, 0.001605
DataValue, 0.0016150000000000001, -2.98405325E-07, -1.9252290725708012, 0.0016150000000000001, 0.0016150000000000001
DataValue, 0.0016250000000000001, -3.12610723E-07, -1.8753714561462402, 0.0016250000000000001, 0.0016250000000000001
DataValue, 0.0016350000000000002, -3.09367834E-07, -1.8250509500503542, 0.0016350000000000002, 0.0016350000000000002
DataValue, 0.0016450000000000002, -3.17895712E-07, -1.7751473188400271, 0.0016450000000000002, 0.0016450000000000002
DataValue, 0.001655, -3.14842765E-07, -1.72546112537384, 0.001655, 0.001655
DataValue, 0.001665, -3.2034086E-07, -1.6755479574203491, 0.001665, 0.001665
DataValue, 0.001675, -3.1976250600000004E-07, -1.6254770755767822, 0.001675, 0.001675
DataValue, 0.001685, -3.3528164100000005E-07, -1.575203061103821, 0.001685, 0.001685
DataValue, 0.0016950000000000001, -3.2798615700000005E-07, -1.5255845785140991, 0.0016950000000000001, 0.0016950000000000001
DataValue, 0.0017050000000000001, -3.2089747E-07, -1.4757906198501591, 0.0017050000000000001, 0.0017050000000000001
DataValue, 0.0017150000000000002, -3.4208923700000005E-07, -1.425134062767029, 0.0017150000000000002, 0.0017150000000000002
DataValue, 0.0017250000000000002, -3.26689957E-07, -1.3751236200332642, 0.0017250000000000002, 0.0017250000000000002
DataValue, 0.0017350000000000002, -3.62455182E-07, -1.32538366317749, 0.0017350000000000002, 0.0017350000000000002
DataValue, 0.001745, -3.1534540300000003E-07, -1.275593042373657, 0.001745, 0.001745
DataValue, 0.001755, -3.55564879E-07, -1.2252858877182011, 0.001755, 0.001755
DataValue, 0.001765, -3.39133038E-07, -1.1753606796264651, 0.001765, 0.001765
DataValue, 0.001775, -3.6052247800000004E-07, -1.1258080005645752, 0.001775, 0.001775
DataValue, 0.0017850000000000001, -3.83123989E-07, -1.075811386108398, 0.0017850000000000001, 0.0017850000000000001
DataValue, 0.0017950000000000002, -3.8660664400000005E-07, -1.025463461875916, 0.0017950000000000002, 0.0017950000000000002
DataValue, 0.0018050000000000002, -3.91895128E-07, -0.97507643699646007, 0.0018050000000000002, 0.0018050000000000002
DataValue, 0.0018150000000000002, -4.03073557E-07, -0.925283670425415, 0.0018150000000000002, 0.0018150000000000002
DataValue, 0.001825, -4.1967996400000004E-07, -0.875486969947815, 0.001825, 0.001825
DataValue, 0.001835, -4.3088360300000005E-07, -0.825379848480225, 0.001835, 0.001835
DataValue, 0.001845, -4.3133576400000004E-07, -0.77534627914428711, 0.001845, 0.001845
DataValue, 0.001855, -4.2675392800000004E-07, -0.72565025091171309, 0.001855, 0.001855
DataValue, 0.0018650000000000001, -4.49921146E-07, -0.67574095726013206, 0.0018650000000000001, 0.0018650000000000001
DataValue, 0.0018750000000000002, -4.5681426300000003E-07, -0.62530046701431308, 0.0018750000000000002, 0.0018750000000000002
