
SetupTitle, FE PUND 2.5V - reverse
ApplicationTest, WGFMU Pattern Editor, Public
TestParameter, Name, ExecutionMode, Enable1, Channel1, OperationMode1, VForceRange1, InitMeasRange1, Enable2, Channel2, OperationMode2, VForceRange2, InitMeasRange2, RepeatCount, WaveformCh1, WaveformCh2, MeasurementEvent, Output_to_File_for_PatternValidation, Output_Enable, Output_Filename, DataDisplay_for_RunVector, DataDisplay_PatternValidation, DataDisplay_Mode, LogToFile, LogFile, WarningLevel, IForceRange1, IForceRange2, Result_Update_Interval_s
TestParameter, Value, Run Vector, Enable, WGFMU1:RS	RSWGFMU, Fast IV Imeas, Auto, 10uA (Imeas), Enable, WGFMU2:RS	RSWGFMU, PG Vmeas, Auto, 5V (Vmeas), 1, , Disable, C:\WGFMUPatternEditor_Pattern.csv, , Disable, x(time)_y(meas), Disable, C:\WGFMUPatternEditor_Log.log, 2, 10mA, 10mA, 10
MetaData, TestRecord.EntryPoint, true
MetaData, TestRecord.RecordTime, 05/19/2021 15:23:21
MetaData, TestRecord.TestTarget, FlashIntC_5_25um_E9
MetaData, TestRecord.IterationIndex, 4
MetaData, TestRecord.Preservation, true
MetaData, TestRecord.Flag, 
MetaData, TestRecord.Remarks, 
MetaData, TestRecord.LinkKey, 97b9223a-30e1-44be-88f3-d2f9b1c2acf5
MetaData, TestRecord.Parameters, 
Dimension1, 5000, 5000, 5000, 5000, 5000
Dimension2, 1, 1, 1, 1, 1
DataName, Time, MeasResult1_value, MeasResult2_value, MeasResult1_time, MeasResult2_time
DataValue, 5.0000000000000008E-07, -1.8860920000000003E-09, -0.000219354391447, 5.0000000000000008E-07, 5.0000000000000008E-07
DataValue, 1.5E-06, 7.928154000000001E-09, -0.00028271743212800003, 1.5E-06, 1.5E-06
DataValue, 2.5E-06, 5.8850000000000009E-10, -0.000536169623956, 2.5E-06, 2.5E-06
DataValue, 3.5000000000000004E-06, -4.56016E-10, -0.000430564570706, 3.5000000000000004E-06, 3.5000000000000004E-06
DataValue, 4.5E-06, 2.19383E-09, -8.5587940703000013E-05, 4.5E-06, 4.5E-06
DataValue, 5.5000000000000007E-06, -3.344209E-09, -0.00033551998785700003, 5.5000000000000007E-06, 5.5000000000000007E-06
DataValue, 6.5000000000000004E-06, 2.20084E-09, -0.000360161182471, 6.5000000000000004E-06, 6.5000000000000004E-06
DataValue, 7.5E-06, 5.544694E-09, -0.000529129290953, 7.5E-06, 7.5E-06
DataValue, 8.5E-06, 3.1472140000000004E-09, -0.00044112507021100005, 8.5E-06, 8.5E-06
DataValue, 9.5E-06, -2.4571100000000003E-10, -0.00063121423590900008, 9.5E-06, 9.5E-06
DataValue, 1.0500000000000001E-05, -3.589565E-09, -0.000409443542594, 1.0500000000000001E-05, 1.0500000000000001E-05
DataValue, 1.15E-05, 4.948829E-09, -0.000613613403402, 1.15E-05, 1.15E-05
DataValue, 1.25E-05, -5.1948950000000008E-09, -0.0007649806793780001, 1.25E-05, 1.25E-05
DataValue, 1.3500000000000001E-05, 5.733969E-09, -0.000627694069408, 1.3500000000000001E-05, 1.3500000000000001E-05
DataValue, 1.45E-05, 2.9018580000000003E-09, -0.000722738623153, 1.45E-05, 1.45E-05
DataValue, 1.55E-05, 2.0115660000000003E-09, -0.000518568791449, 1.55E-05, 1.55E-05
DataValue, 1.65E-05, 2.025586E-09, -0.00050096795894200008, 1.65E-05, 1.65E-05
DataValue, 1.7500000000000002E-05, 3.1612340000000003E-09, -0.00027567709912500003, 1.7500000000000002E-05, 1.7500000000000002E-05
DataValue, 1.8500000000000002E-05, -2.509998E-09, -0.000251035904512, 1.8500000000000002E-05, 1.8500000000000002E-05
DataValue, 1.95E-05, 1.7171380000000001E-09, -0.00053968979045700008, 1.95E-05, 1.95E-05
DataValue, 2.05E-05, 2.817736E-09, -0.000212314043893, 2.05E-05, 2.05E-05
DataValue, 2.15E-05, 2.59022E-10, -0.000536169623956, 2.15E-05, 2.15E-05
DataValue, 2.25E-05, 9.53029E-10, -0.00031791912624600004, 2.25E-05, 2.25E-05
DataValue, 2.3500000000000002E-05, 3.9113230000000006E-09, -0.00033551998785700003, 2.3500000000000002E-05, 2.3500000000000002E-05
DataValue, 2.4500000000000003E-05, 1.32838E-10, -0.00020879387739100003, 2.4500000000000003E-05, 2.4500000000000003E-05
DataValue, 2.5500000000000003E-05, 2.495268E-09, -0.00051504862494800008, 2.5500000000000003E-05, 2.5500000000000003E-05
DataValue, 2.65E-05, -2.4609270000000004E-09, -0.00074385968036900011, 2.65E-05, 2.65E-05
DataValue, 2.75E-05, 5.1451140000000007E-09, -0.000472806597827, 2.75E-05, 2.75E-05
DataValue, 2.85E-05, 4.20256E-10, -0.000532649457455, 2.85E-05, 2.85E-05
DataValue, 2.9500000000000002E-05, 4.8716000000000005E-11, -0.00057489151367900006, 2.9500000000000002E-05, 2.9500000000000002E-05
DataValue, 3.0500000000000003E-05, 6.9467290000000006E-09, -0.00040592337609300004, 3.0500000000000003E-05, 3.0500000000000003E-05
DataValue, 3.15E-05, -5.5874650000000008E-09, -0.000402403209591, 3.15E-05, 3.15E-05
DataValue, 3.2500000000000004E-05, 1.0935519000000002E-08, -0.00012430980859800002, 3.2500000000000004E-05, 3.2500000000000004E-05
DataValue, 3.35E-05, -3.8209E-09, -0.000300318293739, 3.35E-05, 3.35E-05
DataValue, 3.4500000000000005E-05, 1.296528E-09, -0.000314398959745, 3.4500000000000005E-05, 3.4500000000000005E-05
DataValue, 3.55E-05, 6.93653E-10, -0.000451685569715, 3.55E-05, 3.55E-05
DataValue, 3.65E-05, 4.233792E-09, -0.00022991489095100002, 3.65E-05, 3.65E-05
DataValue, 3.7500000000000003E-05, 1.0581820000000002E-09, -0.000254556071013, 3.7500000000000003E-05, 3.7500000000000003E-05
DataValue, 3.85E-05, 1.2124060000000001E-09, -0.00038832251448200005, 3.85E-05, 3.85E-05
DataValue, 3.9500000000000005E-05, 2.23971E-10, -0.000293277960736, 3.9500000000000005E-05, 3.9500000000000005E-05
DataValue, 4.05E-05, 7.6617670000000012E-09, -0.000367201515473, 4.05E-05, 4.05E-05
DataValue, 4.1500000000000006E-05, -3.7297680000000006E-09, -0.000610093236901, 4.1500000000000006E-05, 4.1500000000000006E-05
DataValue, 4.25E-05, 4.163689E-09, -0.00037776201497800003, 4.25E-05, 4.25E-05
DataValue, 4.35E-05, 1.415701E-09, -0.000402403209591, 4.35E-05, 4.35E-05
DataValue, 4.4500000000000004E-05, 3.4065910000000002E-09, -0.00056785118067600006, 4.4500000000000004E-05, 4.4500000000000004E-05
DataValue, 4.55E-05, -4.1643990000000007E-09, -0.00057489151367900006, 4.55E-05, 4.55E-05
DataValue, 4.6500000000000005E-05, 4.8997580000000006E-09, -0.000486887263833, 4.6500000000000005E-05, 4.6500000000000005E-05
DataValue, 4.75E-05, 7.815991E-09, -0.000733299122658, 4.75E-05, 4.75E-05
DataValue, 4.85E-05, -1.7528990000000001E-09, -0.000634734402411, 4.85E-05, 4.85E-05
DataValue, 4.9500000000000004E-05, 4.647392E-09, -0.00075090001337200011, 4.9500000000000004E-05, 4.9500000000000004E-05
DataValue, 5.05E-05, 2.80052E-10, -0.000553770514671, 5.05E-05, 5.05E-05
DataValue, 5.1500000000000005E-05, 2.5233080000000002E-09, -0.00048336709733100004, 5.1500000000000005E-05, 5.1500000000000005E-05
DataValue, 5.25E-05, 1.1703440000000002E-09, -0.00028975776513100003, 5.25E-05, 5.25E-05
DataValue, 5.3500000000000006E-05, -5.173864E-09, -0.00045520573621600003, 5.3500000000000006E-05, 5.3500000000000006E-05
DataValue, 5.45E-05, 7.1079640000000008E-09, -0.00049392762593900008, 5.45E-05, 5.45E-05
DataValue, 5.55E-05, -4.059247E-09, -0.00045520573621600003, 5.55E-05, 5.55E-05
DataValue, 5.6500000000000005E-05, 8.867517E-09, -0.000627694069408, 5.6500000000000005E-05, 5.6500000000000005E-05
DataValue, 5.75E-05, -4.17842E-09, -0.000585452013183, 5.75E-05, 5.75E-05
DataValue, 5.8500000000000006E-05, 8.9694800000000008E-10, -0.000620653736405, 5.8500000000000006E-05, 5.8500000000000006E-05
DataValue, 5.95E-05, 7.2551770000000005E-09, -0.000546730181668, 5.95E-05, 5.95E-05
DataValue, 6.0500000000000007E-05, -1.78094E-09, -0.0005713713471780001, 6.0500000000000007E-05, 6.0500000000000007E-05
DataValue, 6.15E-05, 4.808626E-09, -0.00034608048736100005, 6.15E-05, 6.15E-05
DataValue, 6.25E-05, 2.52011E-10, -0.00046224609832300006, 6.25E-05, 6.25E-05
DataValue, 6.35E-05, -1.963204E-09, -0.00010670895426300001, 6.35E-05, 6.35E-05
DataValue, 6.4500000000000009E-05, 8.5099990000000011E-09, -0.000321439292748, 6.4500000000000009E-05, 6.4500000000000009E-05
DataValue, 6.55E-05, -3.869972E-09, -6.0946753365000004E-05, 6.55E-05, 6.55E-05
DataValue, 6.65E-05, 4.521209E-09, -1.1038699770000002E-06, 6.65E-05, 6.65E-05
DataValue, 6.75E-05, 9.3900900000000014E-10, -9.966862126000001E-05, 6.75E-05, 6.75E-05
DataValue, 6.85E-05, 9.53029E-10, -0.000321439292748, 6.85E-05, 6.85E-05
DataValue, 6.9500000000000009E-05, 3.0981430000000004E-09, -0.00035312082036400005, 6.9500000000000009E-05, 6.9500000000000009E-05
DataValue, 7.05E-05, 6.9186890000000007E-09, -0.00020527371089, 7.05E-05, 7.05E-05
DataValue, 7.15E-05, -5.7066380000000007E-09, -4.624039775E-06, 7.15E-05, 7.15E-05
DataValue, 7.25E-05, 1.40869E-09, -3.9825736167000005E-05, 7.25E-05, 7.25E-05
DataValue, 7.3500000000000011E-05, 1.093233E-09, -0.00011022912804000001, 7.3500000000000011E-05, 7.3500000000000011E-05
DataValue, 7.4500000000000008E-05, 3.525764E-09, -0.000391842680983, 7.4500000000000008E-05, 7.4500000000000008E-05
DataValue, 7.55E-05, -7.5044400000000008E-10, -0.00033904015435800005, 7.55E-05, 7.55E-05
DataValue, 7.65E-05, 4.3669850000000005E-09, -0.000437604903709, 7.65E-05, 7.65E-05
DataValue, 7.75E-05, 4.556259E-09, -0.00019823336333500002, 7.75E-05, 7.75E-05
DataValue, 7.8500000000000011E-05, -7.3119680000000009E-09, -0.00062417390290600008, 7.8500000000000011E-05, 7.8500000000000011E-05
DataValue, 7.9500000000000008E-05, 6.8345670000000006E-09, -0.00046928643132600006, 7.9500000000000008E-05, 7.9500000000000008E-05
DataValue, 8.05E-05, -1.7318680000000001E-09, -0.00050800829194500008, 8.05E-05, 8.05E-05
DataValue, 8.15E-05, 4.6964630000000007E-09, -0.000395362876588, 8.15E-05, 8.15E-05
DataValue, 8.25E-05, -7.620416E-09, -0.00023343505745300003, 8.25E-05, 8.25E-05
DataValue, 8.350000000000001E-05, 7.879083E-09, -0.00027567709912500003, 8.350000000000001E-05, 8.350000000000001E-05
DataValue, 8.4500000000000008E-05, 2.6915530000000004E-09, -0.00015951150271600003, 8.4500000000000008E-05, 8.4500000000000008E-05
DataValue, 8.55E-05, -5.61169E-10, -0.000184152682777, 8.55E-05, 8.55E-05
DataValue, 8.65E-05, 4.0623500000000005E-10, -0.000279197265627, 8.65E-05, 8.65E-05
DataValue, 8.75E-05, 1.6788900000000002E-10, -0.00050096795894200008, 8.75E-05, 8.75E-05
DataValue, 8.850000000000001E-05, 3.995445E-09, -0.00038480234798, 8.850000000000001E-05, 8.850000000000001E-05
DataValue, 8.9500000000000007E-05, -1.044871E-09, -0.000349600653863, 8.9500000000000007E-05, 8.9500000000000007E-05
DataValue, 9.05E-05, 2.5162980000000003E-09, -0.000402403209591, 9.05E-05, 9.05E-05
DataValue, 9.15E-05, 2.8948480000000004E-09, -0.000532649457455, 9.15E-05, 9.15E-05
DataValue, 9.2500000000000012E-05, -1.542593E-09, -0.00059601251268800006, 9.2500000000000012E-05, 9.2500000000000012E-05
DataValue, 9.3500000000000009E-05, -2.362784E-09, -0.000546730181668, 9.3500000000000009E-05, 9.3500000000000009E-05
DataValue, 9.45E-05, 6.6452920000000005E-09, -0.00050096795894200008, 9.45E-05, 9.45E-05
DataValue, 9.55E-05, -5.363139E-09, -0.00037072168197500004, 9.55E-05, 9.55E-05
DataValue, 9.65E-05, 1.2204361E-08, -0.000349600653863, 9.65E-05, 9.65E-05
DataValue, 9.7500000000000012E-05, -4.353674E-09, -0.000254556071013, 9.7500000000000012E-05, 9.7500000000000012E-05
DataValue, 9.8500000000000009E-05, 3.7010180000000003E-09, -0.000490407459438, 9.8500000000000009E-05, 9.8500000000000009E-05
DataValue, 9.95E-05, -2.4679370000000003E-09, -0.000550250348169, 9.95E-05, 9.95E-05
DataValue, 0.0001005, 3.918333E-09, 0.0024172526318580003, 0.0001005, 0.0001005
DataValue, 0.0001015, 5.1030530000000006E-09, 0.0086338724941020014, 0.0001015, 0.0001015
DataValue, 0.00010250000000000001, -2.362784E-09, 0.015371476300061, 0.00010250000000000001, 0.00010250000000000001
DataValue, 0.00010350000000000001, 2.684543E-09, 0.021288881078362, 0.00010350000000000001, 0.00010350000000000001
DataValue, 0.0001045, 1.8222910000000002E-09, 0.027660388499498003, 0.0001045, 0.0001045
DataValue, 0.0001055, 6.2737000000000008E-11, 0.033697478473186, 0.0001055, 0.0001055
DataValue, 0.0001065, 2.151769E-09, 0.039942260831594, 0.0001065, 0.0001065
DataValue, 0.00010750000000000001, 3.322469E-09, 0.046306725591421, 0.00010750000000000001, 0.00010750000000000001
DataValue, 0.00010850000000000001, -6.032300000000001E-10, 0.052424781024456, 0.00010850000000000001, 0.00010850000000000001
DataValue, 0.0001095, 4.927799E-09, 0.05862732231617, 0.0001095, 0.0001095
DataValue, 0.0001105, -1.2061050000000002E-09, 0.064956583082676, 0.0001105, 0.0001105
DataValue, 0.00011150000000000001, 1.303538E-09, 0.071278810501099008, 0.00011150000000000001, 0.00011150000000000001
DataValue, 0.00011250000000000001, 2.3550640000000004E-09, 0.077312380075455, 0.00011250000000000001, 0.00011250000000000001
DataValue, 0.00011350000000000001, -8.791115000000001E-09, 0.083733171224594, 0.00011350000000000001, 0.00011350000000000001
DataValue, 0.0001145, 1.0690163E-08, 0.089724496006966012, 0.0001145, 0.0001145
DataValue, 0.0001155, -5.3312800000000008E-10, 0.095761589705944, 0.0001155, 0.0001155
DataValue, 0.00011650000000000001, -3.00071E-09, 0.10208733379840801, 0.00011650000000000001, 0.00011650000000000001
DataValue, 0.00011750000000000001, 2.8668070000000002E-09, 0.108585566282272, 0.00011750000000000001, 0.00011750000000000001
DataValue, 0.00011850000000000001, 7.3813600000000007E-09, 0.11429176479578002, 0.00011850000000000001, 0.00011850000000000001
DataValue, 0.0001195, -4.60604E-09, 0.12081463634967801, 0.0001195, 0.0001195
DataValue, 0.0001205, 2.80052E-10, 0.127031251788139, 0.0001205, 0.0001205
DataValue, 0.00012150000000000001, 5.1030530000000006E-09, 0.133290112018585, 0.00012150000000000001, 0.00012150000000000001
DataValue, 0.0001225, 4.97368E-10, 0.139457449316978, 0.0001225, 0.0001225
DataValue, 0.00012350000000000002, 5.1591340000000006E-09, 0.14579376578331002, 0.00012350000000000002, 0.00012350000000000002
DataValue, 0.00012450000000000002, -5.82199E-10, 0.15196813642978702, 0.00012450000000000002, 0.00012450000000000002
DataValue, 0.00012550000000000002, 3.37855E-09, 0.15807563066482502, 0.00012550000000000002, 0.00012550000000000002
DataValue, 0.0001265, -2.509998E-09, 0.16423593461513503, 0.0001265, 0.0001265
DataValue, 0.0001275, 2.439186E-09, 0.17061094939708701, 0.0001275, 0.0001275
DataValue, 0.0001285, 6.3999360000000005E-09, 0.177014142274857, 0.0001285, 0.0001285
DataValue, 0.0001295, 3.224326E-09, 0.183332845568657, 0.0001295, 0.0001295
DataValue, 0.0001305, -6.8034200000000007E-10, 0.189549461007118, 0.0001305, 0.0001305
DataValue, 0.0001315, 3.238346E-09, 0.19591745734214802, 0.0001315, 0.0001315
DataValue, 0.0001325, 1.0479800000000001E-10, 0.20236641168594402, 0.0001325, 0.0001325
DataValue, 0.00013350000000000002, 1.128283E-09, 0.208935037255287, 0.00013350000000000002, 0.00013350000000000002
DataValue, 0.00013450000000000002, 6.4630270000000009E-09, 0.21507069468498202, 0.00013450000000000002, 0.00013450000000000002
DataValue, 0.00013550000000000001, 1.906413E-09, 0.221484452486038, 0.00013550000000000001, 0.00013550000000000001
DataValue, 0.0001365, -8.4157600000000007E-10, 0.227708101272583, 0.0001365, 0.0001365
DataValue, 0.0001375, 6.077467E-09, 0.23399160802364302, 0.0001375, 0.0001375
DataValue, 0.0001385, -5.061702E-09, 0.24011670053005202, 0.0001385, 0.0001385
DataValue, 0.0001395, 7.780940000000001E-09, 0.24632979929447202, 0.0001395, 0.0001395
DataValue, 0.0001405, 1.023131E-09, 0.25241971015930204, 0.0001405, 0.0001405
DataValue, 0.0001415, 1.25828E-10, 0.258689105510712, 0.0001415, 0.0001415
DataValue, 0.00014250000000000002, 7.63754E-10, 0.26478606462478604, 0.00014250000000000002, 0.00014250000000000002
DataValue, 0.00014350000000000002, -2.706283E-09, 0.271048426628113, 0.00014350000000000002, 0.00014350000000000002
DataValue, 0.00014450000000000002, 5.2222260000000004E-09, 0.277162969112396, 0.00014450000000000002, 0.00014450000000000002
DataValue, 0.0001455, -6.4637370000000005E-09, 0.283407747745514, 0.0001455, 0.0001455
DataValue, 0.0001465, 8.17351E-09, 0.289346277713776, 0.0001465, 0.0001465
DataValue, 0.0001475, -3.2670970000000003E-09, 0.29559105634689303, 0.0001475, 0.0001475
DataValue, 0.0001485, -1.6968170000000002E-09, 0.30158591270446805, 0.0001485, 0.0001485
DataValue, 0.0001495, 2.298983E-09, 0.30840799212455705, 0.0001495, 0.0001495
DataValue, 0.0001505, -2.6291710000000002E-09, 0.314515501260757, 0.0001505, 0.0001505
DataValue, 0.0001515, 4.56327E-09, 0.320503294467926, 0.0001515, 0.0001515
DataValue, 0.00015250000000000002, -4.56016E-10, 0.32691705226898204, 0.00015250000000000002, 0.00015250000000000002
DataValue, 0.00015350000000000002, 3.672977E-09, 0.33314773440361, 0.00015350000000000002, 0.00015350000000000002
DataValue, 0.00015450000000000002, 3.0490720000000003E-09, 0.339378446340561, 0.00015450000000000002, 0.00015450000000000002
DataValue, 0.0001555, 3.070102E-09, 0.34553873538970903, 0.0001555, 0.0001555
DataValue, 0.0001565, -3.680697E-09, 0.351938426494598, 0.0001565, 0.0001565
DataValue, 0.0001575, 4.927799E-09, 0.35823950171470603, 0.0001575, 0.0001575
DataValue, 0.0001585, 5.9551E-10, 0.364276617765427, 0.0001585, 0.0001585
DataValue, 0.0001595, 3.1892750000000004E-09, 0.37089452147483803, 0.0001595, 0.0001595
DataValue, 0.0001605, -5.75189E-10, 0.377058357000351, 0.0001605, 0.0001605
DataValue, 0.00016150000000000002, -3.0708120000000003E-09, 0.38327497243881203, 0.00016150000000000002, 0.00016150000000000002
DataValue, 0.00016250000000000002, 5.1941860000000006E-09, 0.389752060174942, 0.00016250000000000002, 0.00016250000000000002
DataValue, 0.00016350000000000002, -3.4703920000000003E-09, 0.396003901958466, 0.00016350000000000002, 0.00016350000000000002
DataValue, 0.00016450000000000001, 2.4672270000000003E-09, 0.40199875831604004, 0.00016450000000000001, 0.00016450000000000001
DataValue, 0.0001655, 7.8370220000000014E-09, 0.408641308546066, 0.0001655, 0.0001655
DataValue, 0.0001665, -2.4609270000000004E-09, 0.414970576763153, 0.0001665, 0.0001665
DataValue, 0.0001675, 4.5071880000000006E-09, 0.421039342880249, 0.0001675, 0.0001675
DataValue, 0.0001685, 1.738169E-09, 0.427527010440826, 0.0001685, 0.0001685
DataValue, 0.0001695, 7.430431E-09, 0.43366619944572404, 0.0001695, 0.0001695
DataValue, 0.0001705, 8.6189700000000007E-10, 0.43979480862617504, 0.0001705, 0.0001705
DataValue, 0.00017150000000000002, -4.7812950000000005E-09, 0.44602197408676103, 0.00017150000000000002, 0.00017150000000000002
DataValue, 0.00017250000000000002, -8.041027000000001E-09, 0.45227381587028503, 0.00017250000000000002, 0.00017250000000000002
DataValue, 0.00017350000000000002, 1.6445517000000002E-08, 0.45831441879272505, 0.00017350000000000002, 0.00017350000000000002
DataValue, 0.0001745, -1.2850007000000002E-08, 0.46451342105865506, 0.0001745, 0.0001745
DataValue, 0.0001755, 4.661412E-09, 0.47057163715362504, 0.0001755, 0.0001755
DataValue, 0.0001765, -4.9807700000000008E-10, 0.47666504979133606, 0.0001765, 0.0001765
DataValue, 0.0001775, 1.948474E-09, 0.48296967148780806, 0.0001775, 0.0001775
DataValue, 0.0001785, 3.2032950000000004E-09, 0.48904550075531006, 0.0001785, 0.0001785
DataValue, 0.0001795, 1.1633340000000002E-09, 0.49503684043884305, 0.0001795, 0.0001795
DataValue, 0.00018050000000000002, 2.2569220000000003E-09, 0.50128161907196, 0.00018050000000000002, 0.00018050000000000002
DataValue, 0.00018150000000000002, -4.7672750000000006E-09, 0.507568657398224, 0.00018150000000000002, 0.00018150000000000002
DataValue, 0.00018250000000000002, 5.719949E-09, 0.513732433319092, 0.00018250000000000002, 0.00018250000000000002
DataValue, 0.00018350000000000002, -3.827911E-09, 0.51977658271789506, 0.00018350000000000002, 0.00018350000000000002
DataValue, 0.0001845, 1.689098E-09, 0.526369869709015, 0.0001845, 0.0001845
DataValue, 0.0001855, -3.6246160000000002E-09, 0.532466769218445, 0.0001855, 0.0001855
DataValue, 0.0001865, 1.40869E-09, 0.538429975509644, 0.0001865, 0.0001865
DataValue, 0.0001875, 1.107253E-09, 0.544843733310699, 0.0001875, 0.0001875
