
SetupTitle, FE PUND 3V - reverse
ApplicationTest, WGFMU Pattern Editor, Public
TestParameter, Name, ExecutionMode, Enable1, Channel1, OperationMode1, VForceRange1, InitMeasRange1, Enable2, Channel2, OperationMode2, VForceRange2, InitMeasRange2, RepeatCount, WaveformCh1, WaveformCh2, MeasurementEvent, Output_to_File_for_PatternValidation, Output_Enable, Output_Filename, DataDisplay_for_RunVector, DataDisplay_PatternValidation, DataDisplay_Mode, LogToFile, LogFile, WarningLevel, IForceRange1, IForceRange2, Result_Update_Interval_s
TestParameter, Value, Run Vector, Enable, WGFMU1:RS	RSWGFMU, Fast IV Imeas, Auto, 100uA (Imeas), Enable, WGFMU2:RS	RSWGFMU, PG Vmeas, Auto, 5V (Vmeas), 1, , Disable, C:\WGFMUPatternEditor_Pattern.csv, , Disable, x(time)_y(meas), Disable, C:\WGFMUPatternEditor_Log.log, 2, 10mA, 10mA, 10
MetaData, TestRecord.EntryPoint, true
MetaData, TestRecord.RecordTime, 05/19/2021 11:58:08
MetaData, TestRecord.TestTarget, FlashIntC_1_25um_D10
MetaData, TestRecord.IterationIndex, 2
MetaData, TestRecord.Preservation, true
MetaData, TestRecord.Flag, 
MetaData, TestRecord.Remarks, 
MetaData, TestRecord.LinkKey, 44d3f6c0-c816-4d28-b09d-6f7160019372
MetaData, TestRecord.Parameters, 
Dimension1, 5000, 5000, 5000, 5000, 5000
Dimension2, 1, 1, 1, 1, 1
DataName, Time, MeasResult1_value, MeasResult2_value, MeasResult1_time, MeasResult2_time
DataValue, 5.0000000000000008E-07, 2.0203663000000002E-08, -0.00084594456711800008, 5.0000000000000008E-07, 5.0000000000000008E-07
DataValue, 1.5E-06, -2.8207605000000003E-08, -0.000810742902104, 1.5E-06, 1.5E-06
DataValue, 2.5E-06, 1.71332815E-07, -0.00082130340160800012, 2.5E-06, 2.5E-06
DataValue, 3.5000000000000004E-06, 9.2057633000000008E-08, -0.000930428621359, 3.5000000000000004E-06, 3.5000000000000004E-06
DataValue, 4.5E-06, -1.7448175500000003E-07, -0.000898747122847, 4.5E-06, 4.5E-06
DataValue, 5.5000000000000007E-06, 2.4711875000000003E-08, -0.00070161762414500009, 5.5000000000000007E-06, 5.5000000000000007E-06
DataValue, 6.5000000000000004E-06, -4.4367813E-08, -0.000800182344392, 6.5000000000000004E-06, 6.5000000000000004E-06
DataValue, 7.5E-06, -4.2287098000000005E-08, -0.000793142011389, 7.5E-06, 7.5E-06
DataValue, 8.5E-06, -4.6955420000000007E-09, -0.000786101678386, 8.5E-06, 8.5E-06
DataValue, 9.5E-06, -1.7041108E-08, -0.000613613403402, 9.5E-06, 9.5E-06
DataValue, 1.0500000000000001E-05, -7.6341443E-08, -0.000634734402411, 1.0500000000000001E-05, 1.0500000000000001E-05
DataValue, 1.15E-05, -2.4670392E-08, -0.00063825456891200007, 1.15E-05, 1.15E-05
DataValue, 1.25E-05, 8.269442E-08, -0.000923388288356, 1.25E-05, 1.25E-05
DataValue, 1.3500000000000001E-05, -3.5282032E-08, -0.000733299122658, 1.3500000000000001E-05, 1.3500000000000001E-05
DataValue, 1.45E-05, -2.1137974200000002E-07, -0.00074385968036900011, 1.45E-05, 1.45E-05
DataValue, 1.55E-05, 9.5317418000000013E-08, -0.00065233523491800007, 1.55E-05, 1.55E-05
DataValue, 1.65E-05, 3.3381514000000005E-08, -0.000648815068416, 1.65E-05, 1.65E-05
DataValue, 1.7500000000000002E-05, -1.0033900800000001E-07, -0.00087410595733700006, 1.7500000000000002E-05, 1.7500000000000002E-05
DataValue, 1.8500000000000002E-05, 3.4144442E-08, -0.00088114629034000006, 1.8500000000000002E-05, 1.8500000000000002E-05
DataValue, 1.95E-05, -9.2154863000000013E-08, -0.0005713713471780001, 1.95E-05, 1.95E-05
DataValue, 2.05E-05, 5.06241E-10, -0.0007720210123810001, 2.05E-05, 2.05E-05
DataValue, 2.15E-05, 2.3810232E-08, -0.0005713713471780001, 2.15E-05, 2.15E-05
DataValue, 2.25E-05, -8.56353E-08, -0.00085298490012100008, 2.25E-05, 2.25E-05
DataValue, 2.3500000000000002E-05, -3.8680529000000006E-08, -0.00071569829015100009, 2.3500000000000002E-05, 2.3500000000000002E-05
DataValue, 2.4500000000000003E-05, 3.86478604E-07, -0.00068753695813900009, 2.4500000000000003E-05, 2.4500000000000003E-05
DataValue, 2.5500000000000003E-05, -4.18341386E-07, -0.000648815068416, 2.5500000000000003E-05, 2.5500000000000003E-05
DataValue, 2.65E-05, 4.39024E-09, -0.00058897217968500006, 2.65E-05, 2.65E-05
DataValue, 2.75E-05, 5.6269361000000005E-08, -0.001028993399814, 2.75E-05, 2.75E-05
DataValue, 2.85E-05, -8.4594937000000007E-08, -0.00086002523312300012, 2.85E-05, 2.85E-05
DataValue, 2.9500000000000002E-05, 2.8665230000000003E-08, -0.000518568791449, 2.9500000000000002E-05, 2.9500000000000002E-05
DataValue, 3.0500000000000003E-05, -7.3012302E-08, -0.000680496625137, 3.0500000000000003E-05, 3.0500000000000003E-05
DataValue, 3.15E-05, 8.6023562E-08, -0.00065937556792100007, 3.15E-05, 3.15E-05
DataValue, 3.2500000000000004E-05, 7.014078600000001E-08, -0.00053968979045700008, 3.2500000000000004E-05, 3.2500000000000004E-05
DataValue, 3.35E-05, -7.0376728E-08, -0.0007579403463750001, 3.35E-05, 3.35E-05
DataValue, 3.4500000000000005E-05, 1.477241E-09, -0.000740339513868, 3.4500000000000005E-05, 3.4500000000000005E-05
DataValue, 3.55E-05, -1.1700611E-08, -0.00038480234798, 3.55E-05, 3.55E-05
DataValue, 3.65E-05, -6.0250592E-08, -0.00063825456891200007, 3.65E-05, 3.65E-05
DataValue, 3.7500000000000003E-05, 2.45753E-07, -0.000680496625137, 3.7500000000000003E-05, 3.7500000000000003E-05
DataValue, 3.85E-05, -2.2476567100000001E-07, -0.000712178123649, 3.85E-05, 3.85E-05
DataValue, 3.9500000000000005E-05, 1.43035109E-07, -0.000669936067425, 3.9500000000000005E-05, 3.9500000000000005E-05
DataValue, 4.05E-05, 1.15084198E-07, -0.000793142011389, 4.05E-05, 4.05E-05
DataValue, 4.1500000000000006E-05, -2.52369802E-07, -0.000666415900923, 4.1500000000000006E-05, 4.1500000000000006E-05
DataValue, 4.25E-05, 1.32770268E-07, -0.000740339513868, 4.25E-05, 4.25E-05
DataValue, 4.35E-05, -4.1801599E-08, -0.000550250348169, 4.35E-05, 4.35E-05
DataValue, 4.4500000000000004E-05, 4.3688400000000003E-10, -0.000786101678386, 4.4500000000000004E-05, 4.4500000000000004E-05
DataValue, 4.55E-05, -2.1965464E-08, -0.000979711068794, 4.55E-05, 4.55E-05
DataValue, 4.6500000000000005E-05, -3.0565747E-08, -0.000726258789655, 4.6500000000000005E-05, 4.6500000000000005E-05
DataValue, 4.75E-05, 4.0525297000000006E-08, -0.00083538406761400012, 4.75E-05, 4.75E-05
DataValue, 4.85E-05, -9.9298646000000008E-08, -0.000698097457644, 4.85E-05, 4.85E-05
DataValue, 4.9500000000000004E-05, 9.0809209E-08, -0.000800182344392, 4.9500000000000004E-05, 4.9500000000000004E-05
DataValue, 5.05E-05, -5.5673024000000006E-08, -0.000856505066622, 5.05E-05, 5.05E-05
DataValue, 5.1500000000000005E-05, 6.4106715E-08, -0.000754420179874, 5.1500000000000005E-05, 5.1500000000000005E-05
DataValue, 5.25E-05, -2.1991067500000003E-07, -0.000863545399625, 5.25E-05, 5.25E-05
DataValue, 5.3500000000000006E-05, 1.78476597E-07, -0.000666415900923, 5.3500000000000006E-05, 5.3500000000000006E-05
DataValue, 5.45E-05, 5.2107936000000005E-08, -0.000617133569904, 5.45E-05, 5.45E-05
DataValue, 5.55E-05, -6.2261947E-08, -0.0005713713471780001, 5.55E-05, 5.55E-05
DataValue, 5.6500000000000005E-05, 2.76408855E-07, -0.000634734402411, 5.6500000000000005E-05, 5.6500000000000005E-05
DataValue, 5.75E-05, -2.61247521E-07, -0.00083186390111200008, 5.75E-05, 5.75E-05
DataValue, 5.8500000000000006E-05, -5.0332524000000005E-08, -0.000698097457644, 5.8500000000000006E-05, 5.8500000000000006E-05
DataValue, 5.95E-05, 3.4192400000000003E-09, -0.000698097457644, 5.95E-05, 5.95E-05
DataValue, 6.0500000000000007E-05, 5.3078935000000004E-08, -0.0005643310141750001, 6.0500000000000007E-05, 6.0500000000000007E-05
DataValue, 6.15E-05, -1.4336181000000002E-08, -0.00087410595733700006, 6.15E-05, 6.15E-05
DataValue, 6.25E-05, -6.392652100000001E-08, -0.000761460512877, 6.25E-05, 6.25E-05
DataValue, 6.35E-05, 4.1773724000000005E-08, -0.0008037025108930001, 6.35E-05, 6.35E-05
DataValue, 6.4500000000000009E-05, -4.9985740000000005E-08, -0.000691057124641, 6.4500000000000009E-05, 6.4500000000000009E-05
DataValue, 6.55E-05, -3.021896E-08, -0.000592492346186, 6.55E-05, 6.55E-05
DataValue, 6.65E-05, -9.5505410000000015E-09, -0.000814263068605, 6.65E-05, 6.65E-05
DataValue, 6.75E-05, 5.2107936000000005E-08, -0.00070865795714800009, 6.75E-05, 6.75E-05
DataValue, 6.85E-05, 4.1565652000000005E-08, -0.000680496625137, 6.85E-05, 6.85E-05
DataValue, 6.9500000000000009E-05, -3.6551860000000005E-09, -0.00046928643132600006, 6.9500000000000009E-05, 6.9500000000000009E-05
DataValue, 7.05E-05, 1.29718543E-07, -0.000557290681172, 7.05E-05, 7.05E-05
DataValue, 7.15E-05, -1.72747832E-07, -0.000617133569904, 7.15E-05, 7.15E-05
DataValue, 7.25E-05, 9.0739846E-08, -0.000553770514671, 7.25E-05, 7.25E-05
DataValue, 7.3500000000000011E-05, 3.1855659000000005E-08, -0.00053968979045700008, 7.3500000000000011E-05, 7.3500000000000011E-05
DataValue, 7.4500000000000008E-05, -1.24544641E-07, -0.00065937556792100007, 7.4500000000000008E-05, 7.4500000000000008E-05
DataValue, 7.55E-05, 6.653421300000001E-08, -0.000817783235107, 7.55E-05, 7.55E-05
DataValue, 7.65E-05, 4.5289540000000006E-09, -0.00071569829015100009, 7.65E-05, 7.65E-05
DataValue, 7.75E-05, -7.0515448E-08, -0.000814263068605, 7.75E-05, 7.75E-05
DataValue, 7.8500000000000011E-05, 1.8998987600000002E-07, -0.00056785118067600006, 7.8500000000000011E-05, 7.8500000000000011E-05
DataValue, 7.9500000000000008E-05, -7.2318727E-08, -0.000990271568298, 7.9500000000000008E-05, 7.9500000000000008E-05
DataValue, 8.05E-05, -1.0339071800000001E-07, -0.000504488125443, 8.05E-05, 8.05E-05
DataValue, 8.15E-05, 1.2021662600000002E-07, -0.00033904015435800005, 8.15E-05, 8.15E-05
DataValue, 8.25E-05, 6.5910001E-08, -0.00038128218147900005, 8.25E-05, 8.25E-05
DataValue, 8.350000000000001E-05, -3.6946602000000005E-08, -0.000465766264824, 8.350000000000001E-05, 8.350000000000001E-05
DataValue, 8.4500000000000008E-05, -6.013328E-09, -0.000268636766123, 8.4500000000000008E-05, 8.4500000000000008E-05
DataValue, 8.55E-05, -4.9222809000000005E-08, -0.00044816540321300003, 8.55E-05, 8.55E-05
DataValue, 8.65E-05, 5.4049934E-08, -0.0006030528456900001, 8.65E-05, 8.65E-05
DataValue, 8.75E-05, -8.4872369000000009E-08, -0.000518568791449, 8.75E-05, 8.75E-05
DataValue, 8.850000000000001E-05, 4.1565652000000005E-08, -0.000525609124452, 8.850000000000001E-05, 8.850000000000001E-05
DataValue, 8.9500000000000007E-05, 2.915073E-08, -0.0005643310141750001, 8.9500000000000007E-05, 8.9500000000000007E-05
DataValue, 9.05E-05, -1.30856137E-07, -0.000817783235107, 9.05E-05, 9.05E-05
DataValue, 9.15E-05, 4.4064648800000004E-07, -0.00063825456891200007, 9.15E-05, 9.15E-05
DataValue, 9.2500000000000012E-05, -3.11392711E-07, -0.000698097457644, 9.2500000000000012E-05, 9.2500000000000012E-05
DataValue, 9.3500000000000009E-05, -1.27110852E-07, -0.00046224609832300006, 9.3500000000000009E-05, 9.3500000000000009E-05
DataValue, 9.45E-05, -1.0313468000000001E-08, -0.000666415900923, 9.45E-05, 9.45E-05
DataValue, 9.55E-05, 2.5544161000000002E-08, -0.000810742902104, 9.55E-05, 9.55E-05
DataValue, 9.65E-05, 9.8230416000000014E-08, -0.0005713713471780001, 9.65E-05, 9.65E-05
DataValue, 9.7500000000000012E-05, -1.0174754000000001E-08, -0.000641774735413, 9.7500000000000012E-05, 9.7500000000000012E-05
DataValue, 9.8500000000000009E-05, 1.1307284400000001E-07, -0.00048336709733100004, 9.8500000000000009E-05, 9.8500000000000009E-05
DataValue, 9.95E-05, 5.014454E-09, -0.000557290681172, 9.95E-05, 9.95E-05
DataValue, 0.0001005, -2.3676445E-07, 0.0031705689616500004, 0.0001005, 0.0001005
DataValue, 0.0001015, -2.44324383E-07, 0.010489001870155001, 0.0001015, 0.0001015
DataValue, 0.00010250000000000001, -3.60774976E-07, 0.018078487366438002, 0.00010250000000000001, 0.00010250000000000001
DataValue, 0.00010350000000000001, 1.4932521E-08, 0.025534207001328003, 0.00010350000000000001, 0.00010350000000000001
DataValue, 0.0001045, -5.1495584300000006E-07, 0.032937124371529, 0.0001045, 0.0001045
DataValue, 0.0001055, -3.12224984E-07, 0.040340039879084, 0.0001055, 0.0001055
DataValue, 0.0001065, -4.2305765600000005E-07, 0.047954168170691, 0.0001065, 0.0001065
DataValue, 0.00010750000000000001, -2.1609602600000002E-07, 0.055490851402283006, 0.00010750000000000001, 0.00010750000000000001
DataValue, 0.00010850000000000001, -3.3615319200000004E-07, 0.06296768784523, 0.00010850000000000001, 0.00010850000000000001
DataValue, 0.0001095, -2.83303081E-07, 0.070162914693356, 0.0001095, 0.0001095
DataValue, 0.0001105, -2.67836441E-07, 0.077720724046230011, 0.0001105, 0.0001105
DataValue, 0.00011150000000000001, -3.7284311800000003E-07, 0.085053235292435012, 0.00011150000000000001, 0.00011150000000000001
DataValue, 0.00011250000000000001, -3.8504995800000003E-07, 0.092505432665348011, 0.00011250000000000001, 0.00011250000000000001
DataValue, 0.00011350000000000001, -2.7789323600000005E-07, 0.10004915297031401, 0.00011350000000000001, 0.00011350000000000001
DataValue, 0.0001145, -3.4107756600000005E-07, 0.10735702514648401, 0.0001145, 0.0001145
DataValue, 0.0001155, -4.7230122400000006E-07, 0.11475994437933001, 0.0001155, 0.0001155
DataValue, 0.00011650000000000001, -2.2747059300000002E-07, 0.12199741601944, 0.00011650000000000001, 0.00011650000000000001
DataValue, 0.00011750000000000001, -4.17855887E-07, 0.12944960594177202, 0.00011750000000000001, 0.00011750000000000001
DataValue, 0.00011850000000000001, -5.5240866500000009E-07, 0.136863082647324, 0.00011850000000000001, 0.00011850000000000001
DataValue, 0.0001195, -2.28441593E-07, 0.14425896108150502, 0.0001195, 0.0001195
DataValue, 0.0001205, -2.7116559E-07, 0.151753410696983, 0.0001205, 0.0001205
DataValue, 0.00012150000000000001, -4.5877658300000003E-07, 0.159184485673904, 0.00012150000000000001, 0.00012150000000000001
DataValue, 0.0001225, -2.95509921E-07, 0.166788056492805, 0.0001225, 0.0001225
DataValue, 0.00012350000000000002, -3.9790244000000006E-08, 0.174409225583076, 0.00012350000000000002, 0.00012350000000000002
DataValue, 0.00012450000000000002, -8.06602543E-07, 0.18198814988136303, 0.00012450000000000002, 0.00012450000000000002
DataValue, 0.00012550000000000002, -4.1258474000000005E-07, 0.18957410752773302, 0.00012550000000000002, 0.00012550000000000002
DataValue, 0.0001265, -4.1535901100000005E-07, 0.197209358215332, 0.0001265, 0.0001265
DataValue, 0.0001275, -5.0344255E-07, 0.20539022982120503, 0.0001275, 0.0001275
DataValue, 0.0001285, -4.4920528800000004E-07, 0.21293395757675201, 0.0001285, 0.0001285
DataValue, 0.0001295, -2.4092588500000003E-07, 0.220365032553673, 0.0001295, 0.0001295
DataValue, 0.0001305, -4.17439736E-07, 0.22802139818668402, 0.0001305, 0.0001305
DataValue, 0.0001315, -4.8984856E-07, 0.23529055714607203, 0.0001315, 0.0001315
DataValue, 0.0001325, -3.8941945500000004E-07, 0.242601945996284, 0.0001325, 0.0001325
DataValue, 0.00013350000000000002, -4.4435029200000003E-07, 0.25008231401443504, 0.00013350000000000002, 0.00013350000000000002
DataValue, 0.00013450000000000002, -2.96064798E-07, 0.25770348310470603, 0.00013450000000000002, 0.00013450000000000002
DataValue, 0.00013550000000000001, -5.2494328900000006E-07, 0.265215516090393, 0.00013550000000000001, 0.00013550000000000001
DataValue, 0.0001365, -4.4143729400000004E-07, 0.27284020185470603, 0.0001365, 0.0001365
DataValue, 0.0001375, -5.24180336E-07, 0.28044727444648704, 0.0001375, 0.0001375
DataValue, 0.0001385, -4.7139957400000004E-07, 0.28755098581314104, 0.0001385, 0.0001385
DataValue, 0.0001395, -3.24223777E-07, 0.294689893722534, 0.0001395, 0.0001395
DataValue, 0.0001405, -4.89016259E-07, 0.30249059200286904, 0.0001405, 0.0001405
DataValue, 0.0001415, -3.19715554E-07, 0.30987590551376304, 0.0001415, 0.0001415
DataValue, 0.00014250000000000002, -4.6571230400000005E-07, 0.317370355129242, 0.00014250000000000002, 0.00014250000000000002
DataValue, 0.00014350000000000002, -4.7729491800000006E-07, 0.32454797625541704, 0.00014350000000000002, 0.00014350000000000002
DataValue, 0.00014450000000000002, -3.55226405E-07, 0.331901609897613, 0.00014450000000000002, 0.00014450000000000002
DataValue, 0.0001455, -4.05163519E-07, 0.339575588703155, 0.0001455, 0.0001455
DataValue, 0.0001465, -4.6508807800000006E-07, 0.34704184532165505, 0.0001465, 0.0001465
DataValue, 0.0001475, -6.1919956800000006E-07, 0.35447293519973805, 0.0001475, 0.0001475
DataValue, 0.0001485, -3.8116596100000003E-07, 0.36216801404953003, 0.0001485, 0.0001485
DataValue, 0.0001495, -4.4962143900000006E-07, 0.36951813101768505, 0.0001495, 0.0001495
DataValue, 0.0001505, -5.0815884800000007E-07, 0.377044260501862, 0.0001505, 0.0001505
DataValue, 0.0001515, -4.9477290500000008E-07, 0.38464429974556, 0.0001515, 0.0001515
DataValue, 0.00015250000000000002, -4.0918624200000005E-07, 0.39223730564117404, 0.00015250000000000002, 0.00015250000000000002
DataValue, 0.00015350000000000002, -5.01778004E-07, 0.399590939283371, 0.00015350000000000002, 0.00015350000000000002
DataValue, 0.00015450000000000002, -3.4343568700000003E-07, 0.407430350780487, 0.00015450000000000002, 0.00015450000000000002
DataValue, 0.0001555, -5.69817303E-07, 0.415030419826508, 0.0001555, 0.0001555
DataValue, 0.0001565, -5.24319034E-07, 0.422348856925964, 0.0001565, 0.0001565
DataValue, 0.0001575, -2.3690316200000002E-07, 0.429864406585693, 0.0001575, 0.0001575
DataValue, 0.0001585, -6.2689821300000006E-07, 0.437369406223297, 0.0001585, 0.0001585
DataValue, 0.0001595, -5.38814675E-07, 0.44475823640823403, 0.0001595, 0.0001595
DataValue, 0.0001605, -3.19923629E-07, 0.45217522978782604, 0.0001605, 0.0001605
DataValue, 0.00016150000000000002, -6.587331430000001E-07, 0.45953944325447105, 0.00016150000000000002, 0.00016150000000000002
DataValue, 0.00016250000000000002, -4.6966565000000005E-07, 0.4671570956707, 0.00016250000000000002, 0.00016250000000000002
DataValue, 0.00016350000000000002, -4.83259669E-07, 0.474443823099136, 0.00016350000000000002, 0.00016350000000000002
DataValue, 0.00016450000000000001, -3.60289476E-07, 0.481881946325302, 0.00016450000000000001, 0.00016450000000000001
DataValue, 0.0001655, -5.35485526E-07, 0.489358782768249, 0.0001655, 0.0001655
DataValue, 0.0001665, -6.35151707E-07, 0.49665257334709206, 0.0001665, 0.0001665
DataValue, 0.0001675, -2.2434953500000003E-07, 0.50393933057785, 0.0001675, 0.0001675
DataValue, 0.0001685, -6.321000110000001E-07, 0.511398553848267, 0.0001685, 0.0001685
DataValue, 0.0001695, -7.05965363E-07, 0.518998622894287, 0.0001695, 0.0001695
DataValue, 0.0001705, -2.0499889800000002E-07, 0.526528239250183, 0.0001705, 0.0001705
DataValue, 0.00017150000000000002, -5.53240966E-07, 0.53402268886566207, 0.00017150000000000002, 0.00017150000000000002
DataValue, 0.00017250000000000002, -5.36317827E-07, 0.541492521762848, 0.00017250000000000002, 0.00017250000000000002
DataValue, 0.00017350000000000002, -2.95024421E-07, 0.54930025339126609, 0.00017350000000000002, 0.00017350000000000002
DataValue, 0.0001745, -4.2326573200000003E-07, 0.55668556690216109, 0.0001745, 0.0001745
DataValue, 0.0001755, -7.18310901E-07, 0.564208149909973, 0.0001755, 0.0001755
DataValue, 0.0001765, -4.2645615400000005E-07, 0.571843385696411, 0.0001765, 0.0001765
DataValue, 0.0001775, -5.6683495600000009E-07, 0.579204082489014, 0.0001775, 0.0001775
DataValue, 0.0001785, -5.63159062E-07, 0.586994230747223, 0.0001785, 0.0001785
DataValue, 0.0001795, -4.98587553E-07, 0.594379544258118, 0.0001795, 0.0001795
DataValue, 0.00018050000000000002, -6.32724209E-07, 0.601785957813263, 0.00018050000000000002, 0.00018050000000000002
DataValue, 0.00018150000000000002, -3.49192334E-07, 0.609871804714203, 0.00018150000000000002, 0.00018150000000000002
DataValue, 0.00018250000000000002, -6.0560557800000009E-07, 0.61728876829147306, 0.00018250000000000002, 0.00018250000000000002
DataValue, 0.00018350000000000002, -4.2756588000000005E-07, 0.62498742341995206, 0.00018350000000000002, 0.00018350000000000002
DataValue, 0.0001845, -5.67389804E-07, 0.63234454393386808, 0.0001845, 0.0001845
DataValue, 0.0001855, -5.24180336E-07, 0.639803826808929, 0.0001855, 0.0001855
