
SetupTitle, FE PUND 3V - reverse
ApplicationTest, WGFMU Pattern Editor, Public
TestParameter, Name, ExecutionMode, Enable1, Channel1, OperationMode1, VForceRange1, InitMeasRange1, Enable2, Channel2, OperationMode2, VForceRange2, InitMeasRange2, RepeatCount, WaveformCh1, WaveformCh2, MeasurementEvent, Output_to_File_for_PatternValidation, Output_Enable, Output_Filename, DataDisplay_for_RunVector, DataDisplay_PatternValidation, DataDisplay_Mode, LogToFile, LogFile, WarningLevel, IForceRange1, IForceRange2, Result_Update_Interval_s
TestParameter, Value, Run Vector, Enable, WGFMU1:RS	RSWGFMU, Fast IV Imeas, Auto, 100uA (Imeas), Enable, WGFMU2:RS	RSWGFMU, PG Vmeas, Auto, 5V (Vmeas), 1, , Disable, C:\WGFMUPatternEditor_Pattern.csv, , Disable, x(time)_y(meas), Disable, C:\WGFMUPatternEditor_Log.log, 2, 10mA, 10mA, 10
MetaData, TestRecord.EntryPoint, true
MetaData, TestRecord.RecordTime, 05/19/2021 15:43:58
MetaData, TestRecord.TestTarget, FlashIntC_5_30um_C8
MetaData, TestRecord.IterationIndex, 3
MetaData, TestRecord.Preservation, true
MetaData, TestRecord.Flag, 
MetaData, TestRecord.Remarks, 
MetaData, TestRecord.LinkKey, 2b202bcf-f281-4cae-a722-7e38905e1a7f
MetaData, TestRecord.Parameters, 
Dimension1, 5000, 5000, 5000, 5000, 5000
Dimension2, 1, 1, 1, 1, 1
DataName, Time, MeasResult1_value, MeasResult2_value, MeasResult1_time, MeasResult2_time
DataValue, 5.0000000000000008E-07, -1.315711E-08, -0.000367201515473, 5.0000000000000008E-07, 5.0000000000000008E-07
DataValue, 1.5E-06, -1.68586411E-07, -0.00028975776513100003, 1.5E-06, 1.5E-06
DataValue, 2.5E-06, 9.7328773000000008E-08, -0.00022991489095100002, 2.5E-06, 2.5E-06
DataValue, 3.5000000000000004E-06, 7.007143E-08, -0.000279197265627, 3.5000000000000004E-06, 3.5000000000000004E-06
DataValue, 4.5E-06, 1.1300348E-07, -0.000251035904512, 4.5E-06, 4.5E-06
DataValue, 5.5000000000000007E-06, -2.0201653700000002E-07, 3.7617995986E-05, 5.5000000000000007E-06, 5.5000000000000007E-06
DataValue, 6.5000000000000004E-06, 7.0348854E-08, 0.000136182745337, 6.5000000000000004E-06, 6.5000000000000004E-06
DataValue, 7.5E-06, 7.3539283E-08, -7.1507260145E-05, 7.5E-06, 7.5E-06
DataValue, 8.5E-06, 2.3810232E-08, -0.000120789634821, 8.5E-06, 8.5E-06
DataValue, 9.5E-06, 1.06206485E-07, 6.5779349825E-05, 9.5E-06, 9.5E-06
DataValue, 1.0500000000000001E-05, 1.3512840300000002E-07, -8.14420946E-06, 1.0500000000000001E-05, 1.0500000000000001E-05
DataValue, 1.15E-05, 4.4894797000000004E-08, 3.0577655707000004E-05, 1.15E-05, 1.15E-05
DataValue, 1.25E-05, 1.3337308000000001E-08, 3.0577655707000004E-05, 1.25E-05, 1.25E-05
DataValue, 1.3500000000000001E-05, 6.6742288E-08, -6.798709364400001E-05, 1.3500000000000001E-05, 1.3500000000000001E-05
DataValue, 1.45E-05, 2.3285258500000003E-07, 9.3940710940000011E-05, 1.45E-05, 1.45E-05
DataValue, 1.55E-05, -2.4744545600000004E-07, 9.0420537163000012E-05, 1.55E-05, 1.55E-05
DataValue, 1.65E-05, 1.4585736000000001E-08, 4.1138166125000005E-05, 1.65E-05, 1.65E-05
DataValue, 1.7500000000000002E-05, 6.1471148E-08, 0.00036147359060100003, 1.7500000000000002E-05, 1.7500000000000002E-05
DataValue, 1.8500000000000002E-05, 3.7404227000000005E-08, 0.00028402986936300003, 1.8500000000000002E-05, 1.8500000000000002E-05
DataValue, 1.95E-05, 3.3173443E-08, -0.000194713196834, 1.95E-05, 1.95E-05
DataValue, 2.05E-05, 6.2788928000000011E-08, -1.8704717149E-05, 2.05E-05, 2.05E-05
DataValue, 2.15E-05, -4.1038671000000005E-08, 0.000153783592395, 2.15E-05, 2.15E-05
DataValue, 2.25E-05, -9.8119578000000012E-08, -7.1507260145E-05, 2.25E-05, 2.25E-05
DataValue, 2.3500000000000002E-05, 3.1439516E-08, 0.000153783592395, 2.3500000000000002E-05, 2.3500000000000002E-05
DataValue, 2.4500000000000003E-05, -9.0767720000000013E-08, -7.5027433923E-05, 2.4500000000000003E-05, 2.4500000000000003E-05
DataValue, 2.5500000000000003E-05, -3.5420744E-08, -2.9265227568000002E-05, 2.5500000000000003E-05, 2.5500000000000003E-05
DataValue, 2.65E-05, -1.77394767E-07, -0.000134870308102, 2.65E-05, 2.65E-05
DataValue, 2.75E-05, -5.8655377E-08, -7.8547600424000007E-05, 2.75E-05, 2.75E-05
DataValue, 2.85E-05, 9.8299772000000007E-08, -3.2785395888E-05, 2.85E-05, 2.85E-05
DataValue, 2.9500000000000002E-05, -1.5707313100000002E-07, -0.000300318293739, 2.9500000000000002E-05, 2.9500000000000002E-05
DataValue, 3.0500000000000003E-05, 4.7807795000000004E-08, -0.000272156932624, 3.0500000000000003E-05, 3.0500000000000003E-05
DataValue, 3.15E-05, 3.1023372000000005E-08, -0.00062417390290600008, 3.15E-05, 3.15E-05
DataValue, 3.2500000000000004E-05, -1.18718638E-07, -0.000641774735413, 3.2500000000000004E-05, 3.2500000000000004E-05
DataValue, 3.35E-05, -1.7179824000000002E-08, -0.00037776201497800003, 3.35E-05, 3.35E-05
DataValue, 3.4500000000000005E-05, -1.0658114700000001E-07, -0.000680496625137, 3.4500000000000005E-05, 3.4500000000000005E-05
DataValue, 3.55E-05, -6.9960585E-08, -0.000722738623153, 3.55E-05, 3.55E-05
DataValue, 3.65E-05, -3.1744818000000006E-08, -0.00069457729114200009, 3.65E-05, 3.65E-05
DataValue, 3.7500000000000003E-05, 6.8822999E-08, -0.00043408473720800005, 3.7500000000000003E-05, 3.7500000000000003E-05
DataValue, 3.85E-05, 2.096659E-08, -0.000662895734422, 3.85E-05, 3.85E-05
DataValue, 3.9500000000000005E-05, -3.8632570000000004E-09, -0.00037424184847600005, 3.9500000000000005E-05, 3.9500000000000005E-05
DataValue, 4.05E-05, 5.5645149000000004E-08, -0.000536169623956, 4.05E-05, 4.05E-05
DataValue, 4.1500000000000006E-05, 1.38388188E-07, -0.00057489151367900006, 4.1500000000000006E-05, 4.1500000000000006E-05
DataValue, 4.25E-05, 1.0468063E-07, -0.00052208895795, 4.25E-05, 4.25E-05
DataValue, 4.35E-05, 3.5809013E-08, -0.000300318293739, 4.35E-05, 4.35E-05
DataValue, 4.4500000000000004E-05, 8.6300993E-08, -0.00053968979045700008, 4.4500000000000004E-05, 4.4500000000000004E-05
DataValue, 4.55E-05, 9.3236707000000012E-08, -0.000550250348169, 4.55E-05, 4.55E-05
DataValue, 4.6500000000000005E-05, 9.314595000000001E-09, -0.00013839048915500002, 4.6500000000000005E-05, 4.6500000000000005E-05
DataValue, 4.75E-05, 1.2574380000000001E-08, -8.5587940703000013E-05, 4.75E-05, 4.75E-05
DataValue, 4.85E-05, 1.23961911E-07, -0.000134870308102, 4.85E-05, 4.85E-05
DataValue, 4.9500000000000004E-05, 9.7259417E-08, -2.5745057428000003E-05, 4.9500000000000004E-05, 4.9500000000000004E-05
DataValue, 5.05E-05, 9.8646559000000011E-08, 3.0577655707000004E-05, 5.05E-05, 5.05E-05
DataValue, 5.1500000000000005E-05, 2.5869550000000004E-09, 3.0577655707000004E-05, 5.1500000000000005E-05, 5.1500000000000005E-05
DataValue, 5.25E-05, 2.45267501E-07, -0.000120789634821, 5.25E-05, 5.25E-05
DataValue, 5.3500000000000006E-05, -2.6367502000000003E-07, -5.3906413086000006E-05, 5.3500000000000006E-05, 5.3500000000000006E-05
DataValue, 5.45E-05, -1.6208823000000003E-08, -0.000120789634821, 5.45E-05, 5.45E-05
DataValue, 5.55E-05, 1.45046471E-07, -0.00010670895426300001, 5.55E-05, 5.55E-05
DataValue, 5.6500000000000005E-05, 4.8709438000000004E-08, -2.9265227568000002E-05, 5.6500000000000005E-05, 5.6500000000000005E-05
DataValue, 5.75E-05, -1.0325200600000001E-07, 0.00023122732818600002, 5.75E-05, 5.75E-05
DataValue, 5.8500000000000006E-05, 7.7007137E-08, -2.9265227568000002E-05, 5.8500000000000006E-05, 5.8500000000000006E-05
DataValue, 5.95E-05, -1.02627787E-07, -1.8704717149E-05, 5.95E-05, 5.95E-05
DataValue, 6.0500000000000007E-05, 1.0610980000000002E-09, -1.8704717149E-05, 6.0500000000000007E-05, 6.0500000000000007E-05
DataValue, 6.15E-05, -5.2066451000000006E-08, 5.8739013184E-05, 6.15E-05, 6.15E-05
DataValue, 6.25E-05, -1.92930756E-07, -1.1038699770000002E-06, 6.25E-05, 6.25E-05
DataValue, 6.35E-05, 1.4622554500000002E-07, -0.000265116599621, 6.35E-05, 6.35E-05
DataValue, 6.4500000000000009E-05, -1.5929255400000002E-07, -3.9825736167000005E-05, 6.4500000000000009E-05, 6.4500000000000009E-05
DataValue, 6.55E-05, 1.56698462E-07, -8.14420946E-06, 6.55E-05, 6.55E-05
DataValue, 6.65E-05, 1.0905012700000001E-07, -0.000272156932624, 6.65E-05, 6.65E-05
DataValue, 6.75E-05, -1.35572421E-07, 9.456638509E-06, 6.75E-05, 6.75E-05
DataValue, 6.85E-05, -6.8920230000000012E-08, -0.00028271743212800003, 6.85E-05, 6.85E-05
DataValue, 6.9500000000000009E-05, -4.6587239000000006E-08, -0.00038480234798, 6.9500000000000009E-05, 6.9500000000000009E-05
DataValue, 7.05E-05, 2.7256690000000003E-09, -0.00020527371089, 7.05E-05, 7.05E-05
DataValue, 7.15E-05, 7.9226567E-08, -0.00039888304309000004, 7.15E-05, 7.15E-05
DataValue, 7.25E-05, 2.0064949E-08, -0.000409443542594, 7.25E-05, 7.25E-05
DataValue, 7.3500000000000011E-05, 3.4075086E-08, 0.00011154155799900001, 7.3500000000000011E-05, 7.3500000000000011E-05
DataValue, 7.4500000000000008E-05, 1.4078840000000001E-09, 1.2976808648000001E-05, 7.4500000000000008E-05, 7.4500000000000008E-05
DataValue, 7.55E-05, 4.7599723000000004E-08, 0.000248828175245, 7.55E-05, 7.55E-05
DataValue, 7.65E-05, -9.1045152E-08, 0.000308671063976, 7.65E-05, 7.65E-05
DataValue, 7.75E-05, 2.1204545E-07, 0.000298110535368, 7.75E-05, 7.75E-05
DataValue, 7.8500000000000011E-05, -1.66366974E-07, 0.00010450121772000001, 7.8500000000000011E-05, 7.8500000000000011E-05
DataValue, 7.9500000000000008E-05, 4.0178513000000006E-08, -0.00011022912804000001, 7.9500000000000008E-05, 7.9500000000000008E-05
DataValue, 8.05E-05, 1.8673009100000002E-07, -1.8704717149E-05, 8.05E-05, 8.05E-05
DataValue, 8.15E-05, 3.9415582000000006E-08, 3.7617995986E-05, 8.15E-05, 8.15E-05
DataValue, 8.25E-05, -2.5572033000000003E-08, -0.00016303166921700002, 8.25E-05, 8.25E-05
DataValue, 8.350000000000001E-05, 2.4781231000000003E-08, -0.00020175352983600002, 8.350000000000001E-05, 8.350000000000001E-05
DataValue, 8.4500000000000008E-05, 7.5897425E-08, -0.00023343505745300003, 8.4500000000000008E-05, 8.4500000000000008E-05
DataValue, 8.55E-05, -9.273112E-09, -0.000546730181668, 8.55E-05, 8.55E-05
DataValue, 8.65E-05, 2.1937590000000003E-08, -0.000490407459438, 8.65E-05, 8.65E-05
DataValue, 8.75E-05, 4.0941440000000004E-08, -0.00021583421039400003, 8.75E-05, 8.75E-05
DataValue, 8.850000000000001E-05, -1.0798969000000001E-08, -0.00027567709912500003, 8.850000000000001E-05, 8.850000000000001E-05
DataValue, 8.9500000000000007E-05, -8.5912724E-08, -0.00032495945924900004, 8.9500000000000007E-05, 8.9500000000000007E-05
DataValue, 9.05E-05, 1.3596069000000002E-07, -0.00027567709912500003, 9.05E-05, 9.05E-05
DataValue, 9.15E-05, -5.6990807000000005E-08, -0.000486887263833, 9.15E-05, 9.15E-05
DataValue, 9.2500000000000012E-05, -4.9847024000000004E-08, -0.000610093236901, 9.2500000000000012E-05, 9.2500000000000012E-05
DataValue, 9.3500000000000009E-05, -6.1568379000000011E-08, -0.00058193184668200006, 9.3500000000000009E-05, 9.3500000000000009E-05
DataValue, 9.45E-05, -5.5464952000000005E-08, -0.000863545399625, 9.45E-05, 9.45E-05
DataValue, 9.55E-05, -3.6946602000000005E-08, -0.000303838460241, 9.55E-05, 9.55E-05
DataValue, 9.65E-05, -1.6486252E-08, -0.000465766264824, 9.65E-05, 9.65E-05
DataValue, 9.7500000000000012E-05, 1.8240260000000001E-09, -0.000525609124452, 9.7500000000000012E-05, 9.7500000000000012E-05
DataValue, 9.8500000000000009E-05, 2.7624873000000003E-08, -0.000666415900923, 9.8500000000000009E-05, 9.8500000000000009E-05
DataValue, 9.95E-05, -9.3056507000000009E-08, -0.00063825456891200007, 9.95E-05, 9.95E-05
DataValue, 0.0001005, -3.29911046E-07, 0.00312128663063, 0.0001005, 0.0001005
DataValue, 0.0001015, -5.3257252800000007E-07, 0.010503082536161001, 0.0001015, 0.0001015
DataValue, 0.00010250000000000001, -8.6312854800000005E-07, 0.017905998975039, 0.00010250000000000001, 0.00010250000000000001
DataValue, 0.00010350000000000001, -1.24197854E-07, 0.025453243404627002, 0.00010350000000000001, 0.00010350000000000001
DataValue, 0.0001045, -2.4640507900000004E-07, 0.032873760908842004, 0.0001045, 0.0001045
DataValue, 0.0001055, -5.29936983E-07, 0.040185153484344004, 0.0001055, 0.0001055
DataValue, 0.0001065, -3.4059206700000004E-07, 0.047964725643396, 0.0001065, 0.0001065
DataValue, 0.00010750000000000001, -5.4907951600000009E-07, 0.055772464722395006, 0.00010750000000000001, 0.00010750000000000001
DataValue, 0.00010850000000000001, -3.66462245E-07, 0.063052177429199011, 0.00010850000000000001, 0.00010850000000000001
DataValue, 0.0001095, -5.65447806E-07, 0.070398770272732, 0.0001095, 0.0001095
DataValue, 0.0001105, -5.44501972E-07, 0.078093856573105011, 0.0001105, 0.0001105
DataValue, 0.00011150000000000001, -3.6562997300000003E-07, 0.085451014339924011, 0.00011150000000000001, 0.00011150000000000001
DataValue, 0.00011250000000000001, -4.85340365E-07, 0.092966571450233, 0.00011250000000000001, 0.00011250000000000001
DataValue, 0.00011350000000000001, -5.1384614600000006E-07, 0.10058069974184, 0.00011350000000000001, 0.00011350000000000001
DataValue, 0.0001145, -4.8707426000000008E-07, 0.10773368924856201, 0.0001145, 0.0001145
DataValue, 0.0001155, -3.5460217900000003E-07, 0.11499931663274801, 0.0001155, 0.0001155
DataValue, 0.00011650000000000001, -8.205432780000001E-07, 0.122930258512497, 0.00011650000000000001, 0.00011650000000000001
DataValue, 0.00011750000000000001, -4.88530759E-07, 0.13032965362072002, 0.00011750000000000001, 0.00011750000000000001
DataValue, 0.00011850000000000001, -5.20088292E-07, 0.138010665774345, 0.00011850000000000001, 0.00011850000000000001
DataValue, 0.0001195, -4.9609070600000006E-07, 0.14537133276462602, 0.0001195, 0.0001195
DataValue, 0.0001205, -5.06633E-07, 0.152978420257568, 0.0001205, 0.0001205
DataValue, 0.00012150000000000001, -8.3268076900000011E-07, 0.160307422280312, 0.00012150000000000001, 0.00012150000000000001
DataValue, 0.0001225, -5.97074688E-07, 0.167485043406486, 0.0001225, 0.0001225
DataValue, 0.00012350000000000002, -6.29741862E-07, 0.17481404542923, 0.00012350000000000002, 0.00012350000000000002
DataValue, 0.00012450000000000002, -7.2247235E-07, 0.182685136795044, 0.00012450000000000002, 0.00012450000000000002
DataValue, 0.00012550000000000002, -5.3250317900000008E-07, 0.190003573894501, 0.00012550000000000002, 0.00012550000000000002
DataValue, 0.0001265, -6.78430581E-07, 0.19764234125614202, 0.0001265, 0.0001265
DataValue, 0.0001275, -7.46053729E-07, 0.205742254853249, 0.0001275, 0.0001275
DataValue, 0.0001285, -4.7292542100000005E-07, 0.21315219998359702, 0.0001285, 0.0001285
DataValue, 0.0001295, -9.080719680000001E-07, 0.220643132925034, 0.0001295, 0.0001295
DataValue, 0.0001305, -5.70510906E-07, 0.22822205722332, 0.0001305, 0.0001305
DataValue, 0.0001315, -5.38537279E-07, 0.23540319502353702, 0.0001315, 0.0001315
DataValue, 0.0001325, -6.9674086900000006E-07, 0.24315813183784502, 0.0001325, 0.0001325
DataValue, 0.00013350000000000002, -5.73077102E-07, 0.25073000788688704, 0.00013350000000000002, 0.00013350000000000002
DataValue, 0.00013450000000000002, -6.1108482900000009E-07, 0.258051961660385, 0.00013450000000000002, 0.00013450000000000002
DataValue, 0.00013550000000000001, -8.3753576500000006E-07, 0.265282392501831, 0.00013550000000000001, 0.00013550000000000001
DataValue, 0.0001365, -4.1327831500000003E-07, 0.27291059494018605, 0.0001365, 0.0001365
DataValue, 0.0001375, -6.70662587E-07, 0.280380398035049, 0.0001375, 0.0001375
DataValue, 0.0001385, -5.47553668E-07, 0.287389069795608, 0.0001385, 0.0001385
DataValue, 0.0001395, -6.79678976E-07, 0.294718056917191, 0.0001395, 0.0001395
DataValue, 0.0001405, -8.31154921E-07, 0.302311062812805, 0.0001405, 0.0001405
DataValue, 0.0001415, -3.620234E-07, 0.30979141592979403, 0.0001415, 0.0001415
DataValue, 0.00014250000000000002, -4.99558553E-07, 0.31729993224144004, 0.00014250000000000002, 0.00014250000000000002
DataValue, 0.00014350000000000002, -7.9314725100000007E-07, 0.32473102211952204, 0.00014350000000000002, 0.00014350000000000002
DataValue, 0.00014450000000000002, -7.82674306E-07, 0.33233809471130404, 0.00014450000000000002, 0.00014450000000000002
DataValue, 0.0001455, -5.04136153E-07, 0.33983606100082403, 0.0001455, 0.0001455
DataValue, 0.0001465, -7.5631862700000009E-07, 0.347341060638428, 0.0001465, 0.0001465
DataValue, 0.0001475, -5.5698626500000007E-07, 0.354733437299728, 0.0001475, 0.0001475
DataValue, 0.0001485, -5.7231415000000009E-07, 0.36224547028541604, 0.0001485, 0.0001485
DataValue, 0.0001495, -7.8988745100000006E-07, 0.369810312986374, 0.0001495, 0.0001495
DataValue, 0.0001505, -5.9138739100000007E-07, 0.37736108899116505, 0.0001505, 0.0001505
DataValue, 0.0001515, -6.93689117E-07, 0.384841442108154, 0.0001515, 0.0001515
DataValue, 0.00015250000000000002, -7.01318413E-07, 0.39243796467781106, 0.00015250000000000002, 0.00015250000000000002
DataValue, 0.00015350000000000002, -8.0743478700000008E-07, 0.40012601017952004, 0.00015350000000000002, 0.00015350000000000002
DataValue, 0.00015450000000000002, -8.3413726800000007E-07, 0.407972484827042, 0.00015450000000000002, 0.00015450000000000002
DataValue, 0.0001555, -6.7322878300000009E-07, 0.415554910898209, 0.0001555, 0.0001555
DataValue, 0.0001565, -7.6311562200000007E-07, 0.42306697368621804, 0.0001565, 0.0001565
DataValue, 0.0001575, -7.9051164900000011E-07, 0.43037131428718606, 0.0001575, 0.0001575
DataValue, 0.0001585, -6.95908568E-07, 0.4379643201828, 0.0001585, 0.0001585
DataValue, 0.0001595, -7.38979338E-07, 0.44565236568450906, 0.0001595, 0.0001595
DataValue, 0.0001605, -7.4924418E-07, 0.452903926372528, 0.0001605, 0.0001605
DataValue, 0.00016150000000000002, -9.0016527600000012E-07, 0.46041595935821505, 0.00016150000000000002, 0.00016150000000000002
DataValue, 0.00016250000000000002, -8.00221642E-07, 0.468199044466019, 0.00016250000000000002, 0.00016250000000000002
DataValue, 0.00016350000000000002, -6.8321622800000008E-07, 0.475601971149445, 0.00016350000000000002, 0.00016350000000000002
DataValue, 0.00016450000000000001, -7.0242811E-07, 0.482751429080963, 0.00016450000000000001, 0.00016450000000000001
DataValue, 0.0001655, -7.7969195900000008E-07, 0.48997482657432606, 0.0001655, 0.0001655
DataValue, 0.0001665, -5.8902924100000008E-07, 0.49761709570884705, 0.0001665, 0.0001665
DataValue, 0.0001675, -9.2069495800000006E-07, 0.504974246025085, 0.0001675, 0.0001675
DataValue, 0.0001685, -9.0578316800000011E-07, 0.51235252618789706, 0.0001685, 0.0001685
DataValue, 0.0001695, -5.49773119E-07, 0.519843459129333, 0.0001695, 0.0001695
DataValue, 0.0001705, -6.7433848000000009E-07, 0.527535021305084, 0.0001705, 0.0001705
DataValue, 0.00017150000000000002, -7.5409917600000009E-07, 0.53484642505645708, 0.00017150000000000002, 0.00017150000000000002
DataValue, 0.00017250000000000002, -6.7295133E-07, 0.54255908727645907, 0.00017250000000000002, 0.00017250000000000002
DataValue, 0.00017350000000000002, -7.13941404E-07, 0.55024719238281206, 0.00017350000000000002, 0.00017350000000000002
DataValue, 0.0001745, -7.3620503800000011E-07, 0.557885944843292, 0.0001745, 0.0001745
DataValue, 0.0001755, -7.306564950000001E-07, 0.565535247325897, 0.0001755, 0.0001755
DataValue, 0.0001765, -8.1957227800000008E-07, 0.572853684425354, 0.0001765, 0.0001765
DataValue, 0.0001775, -6.1566237300000008E-07, 0.5802143812179561, 0.0001775, 0.0001775
DataValue, 0.0001785, -9.10846268E-07, 0.587715864181519, 0.0001785, 0.0001785
DataValue, 0.0001795, -5.84312943E-07, 0.59528774023056008, 0.0001795, 0.0001795
DataValue, 0.00018050000000000002, -5.5011992100000009E-07, 0.602563917636871, 0.00018050000000000002, 0.00018050000000000002
DataValue, 0.00018150000000000002, -8.676368E-07, 0.610364615917206, 0.00018150000000000002, 0.00018150000000000002
DataValue, 0.00018250000000000002, -7.629075180000001E-07, 0.61784851551055908, 0.00018250000000000002, 0.00018250000000000002
DataValue, 0.00018350000000000002, -7.21362596E-07, 0.6253359317779541, 0.00018350000000000002, 0.00018350000000000002
DataValue, 0.0001845, -7.9210690300000006E-07, 0.632731795310974, 0.0001845, 0.0001845
